Time Stamp,ID,Extended,Dir,Bus,LEN,D1,D2,D3,D4,D5,D6,D7,D8
-1666864172626219,0000038B,false,Rx,0,8,00,00,00,00,00,00,00,00,
-1666864172606295,1BFE221A,true,Rx,0,8,00,A5,00,00,7E,00,00,00,
-1666864172605996,1BFE2215,true,Rx,0,8,60,97,9E,80,80,80,AA,9A,
-1666864172605698,1BFE2216,true,Rx,0,8,00,00,00,00,00,00,C0,FA,
-1666864172605399,1BFE2217,true,Rx,0,8,00,00,CD,B5,A5,00,00,00,
-1666864172605058,1BFE2218,true,Rx,0,8,00,00,00,00,00,00,00,00,
-1666864172604759,1BFE2219,true,Rx,0,8,00,00,00,00,00,00,00,00,
-1666864172604460,1BFE221B,true,Rx,0,8,00,00,00,00,00,00,00,00,
-1666864172604119,1BFE221C,true,Rx,0,8,00,00,3F,00,00,00,00,00,
-1666864172603821,1BFE221E,true,Rx,0,8,7D,01,00,00,00,00,00,00,
-1666864172603479,1BFE2222,true,Rx,0,8,00,00,58,00,7E,1C,00,00,
-1666864172603181,1BFE2223,true,Rx,0,8,11,01,00,00,00,00,00,00,
-1666864172602882,1BFE2225,true,Rx,0,8,00,00,00,00,00,00,00,00,
-1666864172602541,1BFE2227,true,Rx,0,8,00,00,00,00,00,04,00,00,
-1666864172602242,1BFE2232,true,Rx,0,8,00,00,00,00,00,00,00,00,
-1666864172601901,1BFE2235,true,Rx,0,8,81,04,00,00,00,00,00,00,
-1666864172601602,1BFE2238,true,Rx,0,8,00,00,32,00,01,01,00,00,
-1666864172601261,1BFE2239,true,Rx,0,8,00,01,01,00,00,00,00,00,
-1666864172600962,1BFE223A,true,Rx,0,8,04,01,00,00,5B,00,00,00,
-1666864172600621,1BFE223B,true,Rx,0,8,0A,00,00,00,00,00,00,00,
-1666864172600279,1BFE223C,true,Rx,0,8,22,00,00,00,00,00,00,00,
-1666864172599981,1BFE223D,true,Rx,0,8,00,00,00,00,00,00,00,5C,
-1666864172599639,1BFE2248,true,Rx,0,8,00,00,00,00,00,00,00,00,
-1666864172526215,0000038B,false,Rx,0,8,00,00,00,00,00,00,00,00,
-1666864172506333,1BFE221A,true,Rx,0,8,00,A5,00,00,7E,00,00,00,
-1666864172506035,1BFE2209,true,Rx,0,8,00,00,01,00,60,30,00,00,
-1666864172505736,1BFE2215,true,Rx,0,8,60,97,9E,80,80,80,AA,9A,
-1666864172505395,1BFE2216,true,Rx,0,8,00,00,00,00,00,00,BF,FA,
-1666864172505096,1BFE2217,true,Rx,0,8,00,00,CD,B4,A5,00,00,00,
-1666864172504797,1BFE2218,true,Rx,0,8,00,00,00,00,00,00,00,00,
-1666864172504499,1BFE2219,true,Rx,0,8,00,00,00,00,00,00,00,00,
-1666864172504157,1BFE221B,true,Rx,0,8,00,00,00,00,00,00,00,00,
-1666864172503859,1BFE221C,true,Rx,0,8,00,00,3F,00,00,00,00,00,
-1666864172503517,1BFE221E,true,Rx,0,8,7D,01,00,00,00,00,00,00,
-1666864172503219,1BFE2222,true,Rx,0,8,00,00,58,00,7E,1C,00,00,
-1666864172502920,1BFE2223,true,Rx,0,8,11,01,00,00,00,00,00,00,
-1666864172502579,1BFE2225,true,Rx,0,8,00,00,00,00,00,00,00,00,
-1666864172502280,1BFE2227,true,Rx,0,8,00,00,00,00,00,04,00,00,
-1666864172501939,1BFE2232,true,Rx,0,8,00,00,00,00,00,00,00,00,
-1666864172501640,1BFE2235,true,Rx,0,8,81,04,00,00,00,00,00,00,
-1666864172501299,1BFE2238,true,Rx,0,8,00,00,32,00,01,01,00,00,
-1666864172501000,1BFE2239,true,Rx,0,8,00,01,01,00,00,00,00,00,
-1666864172500659,1BFE223A,true,Rx,0,8,04,01,00,00,51,00,06,00,
-1666864172500360,1BFE223B,true,Rx,0,8,14,00,00,00,00,00,00,00,
-1666864172500019,1BFE223C,true,Rx,0,8,22,00,00,00,00,00,00,00,
-1666864172499720,1BFE223D,true,Rx,0,8,00,00,00,00,00,00,00,5C,
-1666864172499379,1BFE2248,true,Rx,0,8,00,00,00,00,00,00,00,00,
-1666864172426253,0000038B,false,Rx,0,8,00,00,00,00,00,00,00,00,
-1666864172406329,1BFE221A,true,Rx,0,8,00,A5,00,00,7E,00,00,00,
-1666864172406030,1BFE2206,true,Rx,0,8,46,00,00,86,00,0A,02,04,
-1666864172405732,1BFE2215,true,Rx,0,8,60,97,9E,80,80,80,AA,9A,
-1666864172405433,1BFE2216,true,Rx,0,8,00,00,00,00,00,00,BF,FA,
-1666864172405134,1BFE2217,true,Rx,0,8,00,00,CD,B5,A6,00,00,00,
-1666864172404793,1BFE2218,true,Rx,0,8,00,00,00,00,00,00,00,00,
-1666864172404494,1BFE2219,true,Rx,0,8,00,00,00,00,00,00,00,00,
-1666864172404153,1BFE221B,true,Rx,0,8,00,00,00,00,00,00,00,00,
-1666864172403854,1BFE221C,true,Rx,0,8,00,00,3F,00,00,00,00,00,
-1666864172403513,1BFE221E,true,Rx,0,8,7D,01,00,00,00,00,00,00,
-1666864172403214,1BFE2222,true,Rx,0,8,00,00,58,00,7E,1C,00,00,
-1666864172402916,1BFE2223,true,Rx,0,8,11,01,00,00,00,00,00,00,
-1666864172402574,1BFE2225,true,Rx,0,8,00,00,00,00,00,00,00,00,
-1666864172402276,1BFE2227,true,Rx,0,8,00,00,00,00,00,04,00,00,
-1666864172401934,1BFE2232,true,Rx,0,8,00,00,00,00,00,00,00,00,
-1666864172401636,1BFE2235,true,Rx,0,8,81,04,00,00,00,00,00,00,
-1666864172401295,1BFE2238,true,Rx,0,8,00,00,32,00,01,01,00,00,
-1666864172400996,1BFE2239,true,Rx,0,8,00,01,01,00,00,00,00,00,
-1666864172400655,1BFE223A,true,Rx,0,8,04,01,00,00,5B,00,00,00,
-1666864172400356,1BFE223B,true,Rx,0,8,0A,00,00,00,00,00,00,00,
-1666864172400015,1BFE223C,true,Rx,0,8,22,00,00,00,00,00,00,00,
-1666864172399673,1BFE223D,true,Rx,0,8,00,00,00,00,00,00,00,5C,
-1666864172399375,1BFE2248,true,Rx,0,8,00,00,00,00,00,00,00,00,
-1666864172326249,0000038B,false,Rx,0,8,00,00,00,00,00,00,00,00,
-1666864172316223,00000564,false,Rx,0,8,D0,02,00,00,F8,17,3D,00,
-1666864172306367,1BFE221A,true,Rx,0,8,00,A5,00,00,7E,00,00,00,
-1666864172306026,1BFE2209,true,Rx,0,8,00,00,01,00,50,30,00,00,
-1666864172305727,1BFE2215,true,Rx,0,8,60,97,9E,80,80,80,AA,9A,
-1666864172305429,1BFE2216,true,Rx,0,8,00,00,00,00,00,00,C0,FA,
-1666864172305130,1BFE2217,true,Rx,0,8,00,00,CD,B4,A5,00,00,00,
-1666864172304831,1BFE2218,true,Rx,0,8,00,00,00,00,00,00,00,00,
-1666864172304490,1BFE2219,true,Rx,0,8,00,00,00,00,00,00,00,00,
-1666864172304191,1BFE221B,true,Rx,0,8,00,00,00,00,00,00,00,00,
-1666864172303893,1BFE221C,true,Rx,0,8,00,00,3F,00,00,00,00,00,
-1666864172303551,1BFE221E,true,Rx,0,8,7D,01,00,00,00,00,00,00,
-1666864172303253,1BFE2222,true,Rx,0,8,00,00,58,00,7E,1C,00,00,
-1666864172302954,1BFE2223,true,Rx,0,8,11,01,00,00,00,00,00,00,
-1666864172302613,1BFE2225,true,Rx,0,8,00,00,00,00,00,00,00,00,
-1666864172302314,1BFE2227,true,Rx,0,8,00,00,00,00,00,04,00,00,
-1666864172301973,1BFE2232,true,Rx,0,8,00,00,00,00,00,00,00,00,
-1666864172301674,1BFE2235,true,Rx,0,8,81,04,00,00,00,00,00,00,
-1666864172301333,1BFE2238,true,Rx,0,8,00,00,32,00,01,01,00,00,
-1666864172301034,1BFE2239,true,Rx,0,8,00,01,01,00,00,00,00,00,
-1666864172300693,1BFE223A,true,Rx,0,8,04,01,00,00,51,00,06,00,
-1666864172300394,1BFE223B,true,Rx,0,8,14,00,00,00,00,00,00,00,
-1666864172300053,1BFE223C,true,Rx,0,8,22,00,00,00,00,00,00,00,
-1666864172299712,1BFE223D,true,Rx,0,8,00,00,00,00,00,00,00,5C,
-1666864172299413,1BFE2248,true,Rx,0,8,00,00,00,00,00,00,00,00,
-1666864172226244,0000038B,false,Rx,0,8,00,00,00,00,00,00,00,00,
-1666864172206363,1BFE221A,true,Rx,0,8,00,A5,00,00,7E,00,00,00,
-1666864172206064,1BFE2206,true,Rx,0,8,46,00,00,86,00,08,02,04,
-1666864172205765,1BFE2215,true,Rx,0,8,60,97,9E,80,80,80,AA,9A,
-1666864172205467,1BFE2216,true,Rx,0,8,00,00,00,00,00,00,BF,FA,
-1666864172205125,1BFE2217,true,Rx,0,8,00,00,CD,B5,A6,00,00,00,
-1666864172204827,1BFE2218,true,Rx,0,8,00,00,00,00,00,00,00,00,
-1666864172204528,1BFE2219,true,Rx,0,8,00,00,00,00,00,00,00,00,
-1666864172204187,1BFE221B,true,Rx,0,8,00,00,00,00,00,00,00,00,
-1666864172203888,1BFE221C,true,Rx,0,8,00,00,3F,00,00,00,00,00,
-1666864172203547,1BFE221E,true,Rx,0,8,7D,01,00,00,00,00,00,00,
-1666864172203248,1BFE2222,true,Rx,0,8,00,00,58,00,7E,1C,00,00,
-1666864172202950,1BFE2223,true,Rx,0,8,11,01,00,00,00,00,00,00,
-1666864172202608,1BFE2225,true,Rx,0,8,00,00,00,00,00,00,00,00,
-1666864172202310,1BFE2227,true,Rx,0,8,00,00,00,00,00,04,00,00,
-1666864172201968,1BFE2232,true,Rx,0,8,00,00,00,00,00,00,00,00,
-1666864172201670,1BFE2235,true,Rx,0,8,81,04,00,00,00,00,00,00,
-1666864172201328,1BFE2238,true,Rx,0,8,00,00,32,00,01,01,00,00,
-1666864172200987,1BFE2239,true,Rx,0,8,00,01,01,00,00,00,00,00,
-1666864172200688,1BFE223A,true,Rx,0,8,04,01,00,00,5B,00,00,00,
-1666864172200347,1BFE223B,true,Rx,0,8,0A,00,00,00,00,00,00,00,
-1666864172200048,1BFE223C,true,Rx,0,8,22,00,00,00,00,00,00,00,
-1666864172199707,1BFE223D,true,Rx,0,8,00,00,00,00,00,00,00,5C,
-1666864172199408,1BFE2248,true,Rx,0,8,00,00,00,00,00,00,00,00,
-1666864172126282,0000038B,false,Rx,0,8,00,00,00,00,00,00,00,00,
-1666864172106358,1BFE221A,true,Rx,0,8,00,A6,00,00,7E,00,00,00,
-1666864172106060,1BFE2209,true,Rx,0,8,00,00,01,00,40,30,00,00,
-1666864172105761,1BFE2215,true,Rx,0,8,60,97,9E,80,80,80,AA,9A,
-1666864172105462,1BFE2216,true,Rx,0,8,00,00,00,00,00,00,C0,FA,
-1666864172105164,1BFE2217,true,Rx,0,8,00,00,CD,B5,A6,00,00,00,
-1666864172104822,1BFE2218,true,Rx,0,8,00,00,00,00,00,00,00,00,
-1666864172104524,1BFE2219,true,Rx,0,8,00,00,00,00,00,00,00,00,
-1666864172104225,1BFE221B,true,Rx,0,8,00,00,00,00,00,00,00,00,
-1666864172103884,1BFE221C,true,Rx,0,8,00,00,3F,00,00,00,00,00,
-1666864172103585,1BFE221E,true,Rx,0,8,7D,01,00,00,00,00,00,00,
-1666864172103244,1BFE2222,true,Rx,0,8,00,00,58,00,7E,1C,00,00,
-1666864172102945,1BFE2223,true,Rx,0,8,11,01,00,00,00,00,00,00,
-1666864172102647,1BFE2225,true,Rx,0,8,00,00,00,00,00,00,00,00,
-1666864172102305,1BFE2227,true,Rx,0,8,00,00,00,00,00,04,00,00,
-1666864172102007,1BFE2232,true,Rx,0,8,00,00,00,00,00,00,00,00,
-1666864172101665,1BFE2235,true,Rx,0,8,81,04,00,00,00,00,00,00,
-1666864172101367,1BFE2238,true,Rx,0,8,00,00,32,00,01,01,00,00,
-1666864172101025,1BFE2239,true,Rx,0,8,00,01,01,00,00,00,00,00,
-1666864172100727,1BFE223A,true,Rx,0,8,04,01,00,00,51,00,06,00,
-1666864172100385,1BFE223B,true,Rx,0,8,14,00,00,00,00,00,00,00,
-1666864172100044,1BFE223C,true,Rx,0,8,22,00,00,00,00,00,00,00,
-1666864172099745,1BFE223D,true,Rx,0,8,00,00,00,00,00,00,00,5C,
-1666864172099404,1BFE2248,true,Rx,0,8,00,00,00,00,00,00,00,00,
-1666864172026278,0000038B,false,Rx,0,8,00,00,00,00,00,00,00,00,
-1666864172006397,1BFE221A,true,Rx,0,8,00,A5,00,00,7E,00,00,00,
-1666864172006098,1BFE2206,true,Rx,0,8,46,00,00,86,00,06,02,04,
-1666864172005799,1BFE2215,true,Rx,0,8,60,97,9E,80,80,80,AA,9A,
-1666864172005458,1BFE2216,true,Rx,0,8,00,00,00,00,00,00,BF,FA,
-1666864172005159,1BFE2217,true,Rx,0,8,00,00,CD,B5,A6,00,00,00,
-1666864172004861,1BFE2218,true,Rx,0,8,00,00,00,00,00,00,00,00,
-1666864172004519,1BFE2219,true,Rx,0,8,00,00,00,00,00,00,00,00,
-1666864172004221,1BFE221B,true,Rx,0,8,00,00,00,00,00,00,00,00,
-1666864172003922,1BFE221C,true,Rx,0,8,00,00,3F,00,00,00,00,00,
-1666864172003581,1BFE221E,true,Rx,0,8,7D,01,00,00,00,00,00,00,
-1666864172003282,1BFE2222,true,Rx,0,8,00,00,58,00,7E,1C,00,00,
-1666864172002983,1BFE2223,true,Rx,0,8,11,01,00,00,00,00,00,00,
-1666864172002642,1BFE2225,true,Rx,0,8,00,00,00,00,00,00,00,00,
-1666864172002343,1BFE2227,true,Rx,0,8,00,00,00,00,00,04,00,00,
-1666864172002002,1BFE2232,true,Rx,0,8,00,00,00,00,00,00,00,00,
-1666864172001703,1BFE2235,true,Rx,0,8,81,04,00,00,00,00,00,00,
-1666864172001362,1BFE2238,true,Rx,0,8,00,00,32,00,01,01,00,00,
-1666864172001064,1BFE2239,true,Rx,0,8,00,01,01,00,00,00,00,00,
-1666864172000722,1BFE223A,true,Rx,0,8,04,01,00,00,5B,00,00,00,
-1666864172000424,1BFE223B,true,Rx,0,8,0A,00,00,00,00,00,00,00,
-1666864172000082,1BFE223C,true,Rx,0,8,22,00,00,00,00,00,00,00,
-1666864171999741,1BFE223D,true,Rx,0,8,00,00,00,00,00,00,00,5C,
-1666864171999442,1BFE2248,true,Rx,0,8,00,00,00,00,00,00,00,00,
-1666864171926316,0000038B,false,Rx,0,8,00,00,00,00,00,00,00,00,
-1666864171906392,1BFE221A,true,Rx,0,8,00,A5,00,00,7E,00,00,00,
-1666864171906093,1BFE2215,true,Rx,0,8,60,97,9E,80,80,80,AA,9A,
-1666864171905795,1BFE2216,true,Rx,0,8,00,00,00,00,00,00,C0,FA,
-1666864171905496,1BFE2217,true,Rx,0,8,00,00,CD,B5,A5,00,00,00,
-1666864171905155,1BFE2218,true,Rx,0,8,00,00,00,00,00,00,00,00,
-1666864171904856,1BFE2219,true,Rx,0,8,00,00,00,00,00,00,00,00,
-1666864171904558,1BFE221B,true,Rx,0,8,00,00,00,00,00,00,00,00,
-1666864171904216,1BFE221C,true,Rx,0,8,00,00,3F,00,00,00,00,00,
-1666864171903918,1BFE221E,true,Rx,0,8,7D,01,00,00,00,00,00,00,
-1666864171903576,1BFE2222,true,Rx,0,8,00,00,58,00,7E,1C,00,00,
-1666864171903278,1BFE2223,true,Rx,0,8,11,01,00,00,00,00,00,00,
-1666864171902979,1BFE2225,true,Rx,0,8,00,00,00,00,00,00,00,00,
-1666864171902638,1BFE2227,true,Rx,0,8,00,00,00,00,00,04,00,00,
-1666864171902339,1BFE2232,true,Rx,0,8,00,00,00,00,00,00,00,00,
-1666864171901998,1BFE2235,true,Rx,0,8,81,04,00,00,00,00,00,00,
-1666864171901699,1BFE2238,true,Rx,0,8,00,00,32,00,01,01,00,00,
-1666864171901358,1BFE2239,true,Rx,0,8,00,01,01,00,00,00,00,00,
-1666864171901059,1BFE223A,true,Rx,0,8,04,01,00,00,51,00,06,00,
-1666864171900718,1BFE223B,true,Rx,0,8,14,00,00,00,00,00,00,00,
-1666864171900419,1BFE223C,true,Rx,0,8,22,00,00,00,00,00,00,00,
-1666864171900078,1BFE223D,true,Rx,0,8,00,00,00,00,00,00,00,5C,
-1666864171899737,1BFE2248,true,Rx,0,8,00,00,00,00,00,00,00,00,
-1666864171826312,0000038B,false,Rx,0,8,00,00,00,00,00,00,00,00,
-1666864171806388,1BFE221A,true,Rx,0,8,00,A5,00,00,7E,00,00,00,
-1666864171806089,1BFE2209,true,Rx,0,8,00,00,01,00,30,30,00,00,
-1666864171805790,1BFE2215,true,Rx,0,8,60,97,9E,80,80,80,AA,9A,
-1666864171805492,1BFE2216,true,Rx,0,8,00,00,00,00,00,00,C0,FA,
-1666864171805193,1BFE2217,true,Rx,0,8,00,00,CD,B5,A6,00,00,00,
-1666864171804852,1BFE2218,true,Rx,0,8,00,00,00,00,00,00,00,00,
-1666864171804553,1BFE2219,true,Rx,0,8,00,00,00,00,00,00,00,00,
-1666864171804255,1BFE221B,true,Rx,0,8,00,00,00,00,00,00,00,00,
-1666864171803913,1BFE221C,true,Rx,0,8,00,00,3F,00,00,00,00,00,
-1666864171803615,1BFE221E,true,Rx,0,8,7D,01,00,00,00,00,00,00,
-1666864171803273,1BFE2222,true,Rx,0,8,00,00,58,00,7E,1C,00,00,
-1666864171802975,1BFE2223,true,Rx,0,8,11,01,00,00,00,00,00,00,
-1666864171802633,1BFE2225,true,Rx,0,8,00,00,00,00,00,00,00,00,
-1666864171802335,1BFE2227,true,Rx,0,8,00,00,00,00,00,04,00,00,
-1666864171801993,1BFE2232,true,Rx,0,8,00,00,00,00,00,00,00,00,
-1666864171801695,1BFE2235,true,Rx,0,8,81,04,00,00,00,00,00,00,
-1666864171801353,1BFE2238,true,Rx,0,8,00,00,32,00,01,01,00,00,
-1666864171801055,1BFE2239,true,Rx,0,8,00,01,01,00,00,00,00,00,
-1666864171800713,1BFE223A,true,Rx,0,8,04,01,00,00,5B,00,00,00,
-1666864171800415,1BFE223B,true,Rx,0,8,0A,00,00,00,00,00,00,00,
-1666864171800073,1BFE223C,true,Rx,0,8,22,00,00,00,00,00,00,00,
-1666864171799775,1BFE223D,true,Rx,0,8,00,00,00,00,00,00,00,5C,
-1666864171799433,1BFE2248,true,Rx,0,8,00,00,00,00,00,00,00,00,
-1666864171736333,1BFE2234,true,Rx,0,8,00,00,00,00,00,00,00,00,
-1666864171726307,0000038B,false,Rx,0,8,00,00,00,00,00,00,00,00,
-1666864171716324,0000067E,false,Rx,0,8,14,0F,00,00,5B,00,00,40,
-1666864171706396,1BFE221A,true,Rx,0,8,00,A5,00,00,7E,00,00,00,
-1666864171706097,1BFE2202,true,Rx,0,8,90,21,43,06,00,00,00,07,
-1666864171705799,1BFE2206,true,Rx,0,8,46,00,00,86,00,04,02,04,
-1666864171705500,1BFE2208,true,Rx,0,8,32,00,00,00,00,00,00,00,
-1666864171705201,1BFE2215,true,Rx,0,8,60,97,9E,80,80,80,AA,9A,
-1666864171704860,1BFE2216,true,Rx,0,8,00,00,00,00,00,00,C0,FA,
-1666864171704561,1BFE2217,true,Rx,0,8,00,00,CD,B4,A5,00,00,00,
-1666864171704263,1BFE2218,true,Rx,0,8,00,00,00,00,00,00,00,00,
-1666864171703964,1BFE2219,true,Rx,0,8,00,00,00,00,00,00,00,00,
-1666864171703623,1BFE221B,true,Rx,0,8,00,00,00,00,00,00,00,00,
-1666864171703324,1BFE221C,true,Rx,0,8,00,00,3F,00,00,00,00,00,
-1666864171702983,1BFE221E,true,Rx,0,8,7D,01,00,00,00,00,00,00,
-1666864171702684,1BFE2222,true,Rx,0,8,00,00,58,00,7E,1C,00,00,
-1666864171702386,1BFE2223,true,Rx,0,8,11,01,00,00,00,00,00,00,
-1666864171702044,1BFE2225,true,Rx,0,8,00,00,00,00,00,00,00,00,
-1666864171701746,1BFE2227,true,Rx,0,8,00,00,00,00,00,04,00,00,
-1666864171701404,1BFE2232,true,Rx,0,8,00,00,00,00,00,00,00,00,
-1666864171701106,1BFE2235,true,Rx,0,8,81,04,00,00,00,00,00,00,
-1666864171700764,1BFE2238,true,Rx,0,8,00,00,32,00,01,01,00,00,
-1666864171700466,1BFE2239,true,Rx,0,8,00,01,01,00,00,00,00,00,
-1666864171700124,1BFE223A,true,Rx,0,8,04,01,00,00,51,00,06,00,
-1666864171699826,1BFE223B,true,Rx,0,8,14,00,00,00,00,00,00,00,
-1666864171699484,1BFE223C,true,Rx,0,8,22,00,00,00,00,00,00,00,
-1666864171699143,1BFE223D,true,Rx,0,8,00,00,00,00,00,00,00,5C,
-1666864171698844,1BFE2248,true,Rx,0,8,00,00,00,00,00,00,00,00,
-1666864171626316,0000038B,false,Rx,0,8,00,00,00,00,00,00,00,00,
-1666864171606392,1BFE221A,true,Rx,0,8,00,A6,00,00,7E,00,00,00,
-1666864171606093,1BFE2215,true,Rx,0,8,60,97,9E,80,80,80,AA,9A,
-1666864171605794,1BFE2216,true,Rx,0,8,00,00,00,00,00,00,C0,FA,
-1666864171605496,1BFE2217,true,Rx,0,8,00,00,CD,B5,A6,00,00,00,
-1666864171605154,1BFE2218,true,Rx,0,8,00,00,00,00,00,00,00,00,
-1666864171604856,1BFE2219,true,Rx,0,8,00,00,00,00,00,00,00,00,
-1666864171604557,1BFE221B,true,Rx,0,8,00,00,00,00,00,00,00,00,
-1666864171604216,1BFE221C,true,Rx,0,8,00,00,3F,00,00,00,00,00,
-1666864171603917,1BFE221E,true,Rx,0,8,7D,01,00,00,00,00,00,00,
-1666864171603618,1BFE2222,true,Rx,0,8,00,00,58,00,7E,1C,00,00,
-1666864171603277,1BFE2223,true,Rx,0,8,11,01,00,00,00,00,00,00,
-1666864171602978,1BFE2225,true,Rx,0,8,00,00,00,00,00,00,00,00,
-1666864171602637,1BFE2227,true,Rx,0,8,00,00,00,00,00,04,00,00,
-1666864171602338,1BFE2232,true,Rx,0,8,00,00,00,00,00,00,00,00,
-1666864171601997,1BFE2235,true,Rx,0,8,81,04,00,00,00,00,00,00,
-1666864171601698,1BFE2238,true,Rx,0,8,00,00,32,00,01,01,00,00,
-1666864171601357,1BFE2239,true,Rx,0,8,00,01,01,00,00,00,00,00,
-1666864171601059,1BFE223A,true,Rx,0,8,04,01,00,00,5B,00,00,00,
-1666864171600717,1BFE223B,true,Rx,0,8,0A,00,00,00,00,00,00,00,
-1666864171600419,1BFE223C,true,Rx,0,8,22,00,00,00,00,00,00,00,
-1666864171600077,1BFE223D,true,Rx,0,8,00,00,00,00,00,00,00,5C,
-1666864171599736,1BFE2248,true,Rx,0,8,00,00,00,00,00,00,00,00,
-1666864171526311,0000038B,false,Rx,0,8,00,00,00,00,00,00,00,00,
-1666864171506430,1BFE220A,true,Rx,0,8,02,02,02,02,00,00,01,02,
-1666864171506131,1BFE2206,true,Rx,0,8,46,00,00,86,00,02,02,04,
-1666864171505832,1BFE2209,true,Rx,0,8,00,00,01,00,20,30,00,00,
-1666864171505491,1BFE220E,true,Rx,0,8,00,00,00,00,00,00,00,00,
-1666864171505193,1BFE220F,true,Rx,0,8,00,00,00,10,10,00,00,00,
-1666864171504851,1BFE2210,true,Rx,0,8,00,00,00,10,10,00,00,00,
-1666864171504553,1BFE2211,true,Rx,0,8,00,00,00,00,00,00,00,00,
-1666864171504254,1BFE2215,true,Rx,0,8,60,97,9E,80,80,80,AA,9A,
-1666864171503955,1BFE2216,true,Rx,0,8,00,00,00,00,00,00,BF,FA,
-1666864171503657,1BFE2217,true,Rx,0,8,00,00,CD,B4,A5,00,00,00,
-1666864171503358,1BFE2218,true,Rx,0,8,00,00,00,00,00,00,00,00,
-1666864171503017,1BFE2219,true,Rx,0,8,00,00,00,00,00,00,00,00,
-1666864171502718,1BFE221A,true,Rx,0,8,00,A5,00,00,7E,00,00,00,
-1666864171502377,1BFE221B,true,Rx,0,8,00,00,00,00,00,00,00,00,
-1666864171502078,1BFE221C,true,Rx,0,8,00,00,3F,00,00,00,00,00,
-1666864171501779,1BFE221E,true,Rx,0,8,7D,01,00,00,00,00,00,00,
-1666864171501438,1BFE2222,true,Rx,0,8,00,00,58,00,7E,1C,00,00,
-1666864171501139,1BFE2223,true,Rx,0,8,11,01,00,00,00,00,00,00,
-1666864171500841,1BFE2225,true,Rx,0,8,00,00,00,00,00,00,00,00,
-1666864171500499,1BFE2227,true,Rx,0,8,00,00,00,00,00,04,00,00,
-1666864171500201,1BFE2232,true,Rx,0,8,00,00,00,00,00,00,00,00,
-1666864171499860,1BFE2235,true,Rx,0,8,81,04,00,00,00,00,00,00,
-1666864171499561,1BFE2238,true,Rx,0,8,00,00,32,00,01,01,00,00,
-1666864171499220,1BFE2239,true,Rx,0,8,00,01,01,00,00,00,00,00,
-1666864171498921,1BFE223A,true,Rx,0,8,04,01,00,00,51,00,06,00,
-1666864171498580,1BFE223B,true,Rx,0,8,14,00,00,00,00,00,00,00,
-1666864171498281,1BFE223C,true,Rx,0,8,22,00,00,00,00,00,00,00,
-1666864171497940,1BFE223D,true,Rx,0,8,00,00,00,00,00,00,00,5C,
-1666864171497598,1BFE2248,true,Rx,0,8,00,00,00,00,00,00,00,00,
-1666864171426307,0000038B,false,Rx,0,8,00,00,00,00,00,00,00,00,
-1666864171406425,1BFE221A,true,Rx,0,8,00,A6,00,00,7E,00,00,00,
-1666864171406127,1BFE2215,true,Rx,0,8,60,97,9E,80,80,80,AA,9A,
-1666864171405828,1BFE2216,true,Rx,0,8,00,00,00,00,00,00,C0,FA,
-1666864171405487,1BFE2217,true,Rx,0,8,00,00,CD,B5,A6,00,00,00,
-1666864171405188,1BFE2218,true,Rx,0,8,00,00,00,00,00,00,00,00,
-1666864171404889,1BFE2219,true,Rx,0,8,00,00,00,00,00,00,00,00,
-1666864171404548,1BFE221B,true,Rx,0,8,00,00,00,00,00,00,00,00,
-1666864171404250,1BFE221C,true,Rx,0,8,00,00,3F,00,00,00,00,00,
-1666864171403951,1BFE221E,true,Rx,0,8,7D,01,00,00,00,00,00,00,
-1666864171403610,1BFE2222,true,Rx,0,8,00,00,58,00,7E,1C,00,00,
-1666864171403311,1BFE2223,true,Rx,0,8,11,01,00,00,00,00,00,00,
-1666864171402970,1BFE2225,true,Rx,0,8,00,00,00,00,00,00,00,00,
-1666864171402671,1BFE2227,true,Rx,0,8,00,00,00,00,00,04,00,00,
-1666864171402330,1BFE2232,true,Rx,0,8,00,00,00,00,00,00,00,00,
-1666864171402031,1BFE2235,true,Rx,0,8,81,04,00,00,00,00,00,00,
-1666864171401690,1BFE2238,true,Rx,0,8,00,00,32,00,01,01,00,00,
-1666864171401391,1BFE2239,true,Rx,0,8,00,01,01,00,00,00,00,00,
-1666864171401050,1BFE223A,true,Rx,0,8,04,01,00,00,5B,00,00,00,
-1666864171400751,1BFE223B,true,Rx,0,8,0A,00,00,00,00,00,00,00,
-1666864171400410,1BFE223C,true,Rx,0,8,22,00,00,00,00,00,00,00,
-1666864171400068,1BFE223D,true,Rx,0,8,00,00,00,00,00,00,00,5C,
-1666864171399770,1BFE2248,true,Rx,0,8,00,00,00,00,00,00,00,00,
-1666864171326345,0000038B,false,Rx,0,8,00,00,00,00,00,00,00,00,
-1666864171316319,00000564,false,Rx,0,8,D1,03,00,00,F8,17,3D,00,
-1666864171306421,1BFE221A,true,Rx,0,8,00,A5,00,00,7E,00,00,00,
-1666864171306122,1BFE2205,true,Rx,0,8,45,45,00,00,00,41,09,30,
-1666864171305824,1BFE2206,true,Rx,0,8,46,00,00,86,00,00,02,04,
-1666864171305525,1BFE2209,true,Rx,0,8,00,00,01,00,10,30,00,00,
-1666864171305226,1BFE2215,true,Rx,0,8,60,97,9E,80,80,80,AA,9A,
-1666864171304928,1BFE2216,true,Rx,0,8,00,00,00,00,00,00,C0,FA,
-1666864171304629,1BFE2217,true,Rx,0,8,00,00,CD,B5,A5,00,00,00,
-1666864171304288,1BFE2218,true,Rx,0,8,00,00,00,00,00,00,00,00,
-1666864171303989,1BFE2219,true,Rx,0,8,00,00,00,00,00,00,00,00,
-1666864171303690,1BFE221B,true,Rx,0,8,00,00,00,00,00,00,00,00,
-1666864171303349,1BFE221C,true,Rx,0,8,00,00,3F,00,00,00,00,00,
-1666864171303050,1BFE221E,true,Rx,0,8,7D,01,00,00,00,00,00,00,
-1666864171302752,1BFE2222,true,Rx,0,8,00,00,58,00,7E,1C,00,00,
-1666864171302411,1BFE2223,true,Rx,0,8,11,01,00,00,00,00,00,00,
-1666864171302112,1BFE2225,true,Rx,0,8,00,00,00,00,00,00,00,00,
-1666864171301771,1BFE2227,true,Rx,0,8,00,00,00,00,00,04,00,00,
-1666864171301472,1BFE2232,true,Rx,0,8,00,00,00,00,00,00,00,00,
-1666864171301131,1BFE2235,true,Rx,0,8,81,04,00,00,00,00,00,00,
-1666864171300832,1BFE2238,true,Rx,0,8,00,00,32,00,01,01,00,00,
-1666864171300491,1BFE2239,true,Rx,0,8,00,01,01,00,00,00,00,00,
-1666864171300192,1BFE223A,true,Rx,0,8,04,01,00,00,51,00,06,00,
-1666864171299851,1BFE223B,true,Rx,0,8,14,00,00,00,00,00,00,00,
-1666864171299552,1BFE223C,true,Rx,0,8,22,00,00,00,00,00,00,00,
-1666864171299211,1BFE223D,true,Rx,0,8,00,00,00,00,00,00,00,5C,
-1666864171298869,1BFE2248,true,Rx,0,8,00,00,00,00,00,00,00,00,
-1666864171226341,0000038B,false,Rx,0,8,00,00,00,00,00,00,00,00,
-1666864171206459,1BFE221A,true,Rx,0,8,00,A5,00,00,7E,00,00,00,
-1666864171206161,1BFE2215,true,Rx,0,8,60,97,9E,80,80,80,AA,9A,
-1666864171205819,1BFE2216,true,Rx,0,8,00,00,00,00,00,00,C0,FA,
-1666864171205521,1BFE2217,true,Rx,0,8,00,00,CD,B5,A6,00,00,00,
-1666864171205222,1BFE2218,true,Rx,0,8,00,00,00,00,00,00,00,00,
-1666864171204881,1BFE2219,true,Rx,0,8,00,00,00,00,00,00,00,00,
-1666864171204582,1BFE221B,true,Rx,0,8,00,00,00,00,00,00,00,00,
-1666864171204283,1BFE221C,true,Rx,0,8,00,00,3F,00,00,00,00,00,
-1666864171203942,1BFE221E,true,Rx,0,8,7D,01,00,00,00,00,00,00,
-1666864171203643,1BFE2222,true,Rx,0,8,00,00,58,00,7E,1C,00,00,
-1666864171203345,1BFE2223,true,Rx,0,8,11,01,00,00,00,00,00,00,
-1666864171203003,1BFE2225,true,Rx,0,8,00,00,00,00,00,00,00,00,
-1666864171202705,1BFE2227,true,Rx,0,8,00,00,00,00,00,04,00,00,
-1666864171202363,1BFE2232,true,Rx,0,8,00,00,00,00,00,00,00,00,
-1666864171202065,1BFE2235,true,Rx,0,8,81,04,00,00,00,00,00,00,
-1666864171201723,1BFE2238,true,Rx,0,8,00,00,32,00,01,01,00,00,
-1666864171201382,1BFE2239,true,Rx,0,8,00,01,01,00,00,00,00,00,
-1666864171201084,1BFE223A,true,Rx,0,8,04,01,00,00,5B,00,00,00,
-1666864171200785,1BFE223B,true,Rx,0,8,0A,00,00,00,00,00,00,00,
-1666864171200444,1BFE223C,true,Rx,0,8,22,00,00,00,00,00,00,00,
-1666864171200102,1BFE223D,true,Rx,0,8,00,00,00,00,00,00,00,5C,
-1666864171199804,1BFE2248,true,Rx,0,8,00,00,00,00,00,00,00,00,
-1666864171126379,0000038B,false,Rx,0,8,00,00,00,00,00,00,00,00,
-1666864171106455,1BFE221A,true,Rx,0,8,00,A5,00,00,7E,00,00,00,
-1666864171106156,1BFE2206,true,Rx,0,8,46,00,00,86,00,FE,01,04,
-1666864171105857,1BFE2209,true,Rx,0,8,00,00,01,00,00,30,00,00,
-1666864171105559,1BFE2215,true,Rx,0,8,60,97,9E,80,80,80,AA,9A,
-1666864171105218,1BFE2216,true,Rx,0,8,00,00,00,00,00,00,C0,FA,
-1666864171104919,1BFE2217,true,Rx,0,8,00,00,CD,B5,A6,00,00,00,
-1666864171104620,1BFE2218,true,Rx,0,8,00,00,00,00,00,00,00,00,
-1666864171104322,1BFE2219,true,Rx,0,8,00,00,00,00,00,00,00,00,
-1666864171103980,1BFE221B,true,Rx,0,8,00,00,00,00,00,00,00,00,
-1666864171103682,1BFE221C,true,Rx,0,8,00,00,3F,00,00,00,00,00,
-1666864171103340,1BFE221E,true,Rx,0,8,7D,01,00,00,00,00,00,00,
-1666864171103042,1BFE2222,true,Rx,0,8,00,00,58,00,7E,1C,00,00,
-1666864171102743,1BFE2223,true,Rx,0,8,11,01,00,00,00,00,00,00,
-1666864171102402,1BFE2225,true,Rx,0,8,00,00,00,00,00,00,00,00,
-1666864171102103,1BFE2227,true,Rx,0,8,00,00,00,00,00,04,00,00,
-1666864171101762,1BFE2232,true,Rx,0,8,00,00,00,00,00,00,00,00,
-1666864171101463,1BFE2235,true,Rx,0,8,81,04,00,00,00,00,00,00,
-1666864171101122,1BFE2238,true,Rx,0,8,00,00,32,00,01,01,00,00,
-1666864171100823,1BFE2239,true,Rx,0,8,00,01,01,00,00,00,00,00,
-1666864171100482,1BFE223A,true,Rx,0,8,04,01,00,00,51,00,06,00,
-1666864171100183,1BFE223B,true,Rx,0,8,14,00,00,00,00,00,00,00,
-1666864171099842,1BFE223C,true,Rx,0,8,22,00,00,00,00,00,00,00,
-1666864171099543,1BFE223D,true,Rx,0,8,00,00,00,00,00,00,00,5C,
-1666864171099202,1BFE2248,true,Rx,0,8,00,00,00,00,00,00,00,00,
-1666864171026374,0000038B,false,Rx,0,8,00,00,00,00,00,00,00,00,
-1666864171006450,1BFE221A,true,Rx,0,8,00,A6,00,00,7E,00,00,00,
-1666864171006194,1BFE2215,true,Rx,0,8,60,97,9E,80,80,80,AA,9A,
-1666864171005853,1BFE2216,true,Rx,0,8,00,00,00,00,00,00,C0,FA,
-1666864171005554,1BFE2217,true,Rx,0,8,00,00,CD,B5,A6,00,00,00,
-1666864171005256,1BFE2218,true,Rx,0,8,00,00,00,00,00,00,00,00,
-1666864171004914,1BFE2219,true,Rx,0,8,00,00,00,00,00,00,00,00,
-1666864171004616,1BFE221B,true,Rx,0,8,00,00,00,00,00,00,00,00,
-1666864171004275,1BFE221C,true,Rx,0,8,00,00,3F,00,00,00,00,00,
-1666864171003976,1BFE221E,true,Rx,0,8,7D,01,00,00,00,00,00,00,
-1666864171003677,1BFE2222,true,Rx,0,8,00,00,58,00,7E,1C,00,00,
-1666864171003336,1BFE2223,true,Rx,0,8,11,01,00,00,00,00,00,00,
-1666864171003037,1BFE2225,true,Rx,0,8,00,00,00,00,00,00,00,00,
-1666864171002696,1BFE2227,true,Rx,0,8,00,00,00,00,00,04,00,00,
-1666864171002397,1BFE2232,true,Rx,0,8,00,00,00,00,00,00,00,00,
-1666864171002056,1BFE2235,true,Rx,0,8,81,04,00,00,00,00,00,00,
-1666864171001757,1BFE2238,true,Rx,0,8,00,00,32,00,01,01,00,00,
-1666864171001416,1BFE2239,true,Rx,0,8,00,01,01,00,00,00,00,00,
-1666864171001117,1BFE223A,true,Rx,0,8,04,01,00,00,5B,00,00,00,
-1666864171000776,1BFE223B,true,Rx,0,8,0A,00,00,00,00,00,00,00,
-1666864171000477,1BFE223C,true,Rx,0,8,22,00,00,00,00,00,00,00,
-1666864171000136,1BFE223D,true,Rx,0,8,00,00,00,00,00,00,00,5C,
-1666864170999795,1BFE2248,true,Rx,0,8,00,00,00,00,00,00,00,00,
-1666864170926370,0000038B,false,Rx,0,8,00,00,00,00,00,00,00,00,
-1666864170906489,1BFE221A,true,Rx,0,8,00,A5,00,00,7E,00,00,00,
-1666864170906190,1BFE2207,true,Rx,0,8,46,00,00,88,00,02,00,04,
-1666864170905891,1BFE2209,true,Rx,0,8,00,00,01,00,F0,2F,00,00,
-1666864170905593,1BFE2215,true,Rx,0,8,60,97,9E,80,80,80,AA,9A,
-1666864170905251,1BFE2216,true,Rx,0,8,00,00,00,00,00,00,BF,FA,
-1666864170904953,1BFE2217,true,Rx,0,8,00,00,CD,B5,A5,00,00,00,
-1666864170904654,1BFE2218,true,Rx,0,8,00,00,00,00,00,00,00,00,
-1666864170904355,1BFE2219,true,Rx,0,8,00,00,00,00,00,00,00,00,
-1666864170904014,1BFE221B,true,Rx,0,8,00,00,00,00,00,00,00,00,
-1666864170903715,1BFE221C,true,Rx,0,8,00,00,3F,00,00,00,00,00,
-1666864170903374,1BFE221E,true,Rx,0,8,7D,01,00,00,00,00,00,00,
-1666864170903075,1BFE2222,true,Rx,0,8,00,00,58,00,7E,1C,00,00,
-1666864170902777,1BFE2223,true,Rx,0,8,11,01,00,00,00,00,00,00,
-1666864170902436,1BFE2225,true,Rx,0,8,00,00,00,00,00,00,00,00,
-1666864170902137,1BFE2227,true,Rx,0,8,00,00,00,00,00,04,00,00,
-1666864170901796,1BFE2232,true,Rx,0,8,00,00,00,00,00,00,00,00,
-1666864170901497,1BFE2235,true,Rx,0,8,81,04,00,00,00,00,00,00,
-1666864170901156,1BFE2238,true,Rx,0,8,00,00,32,00,01,01,00,00,
-1666864170900857,1BFE2239,true,Rx,0,8,00,01,01,00,00,00,00,00,
-1666864170900516,1BFE223A,true,Rx,0,8,04,01,00,00,51,00,06,00,
-1666864170900217,1BFE223B,true,Rx,0,8,14,00,00,00,00,00,00,00,
-1666864170899876,1BFE223C,true,Rx,0,8,22,00,00,00,00,00,00,00,
-1666864170899534,1BFE223D,true,Rx,0,8,00,00,00,00,00,00,00,5C,
-1666864170899236,1BFE2248,true,Rx,0,8,00,00,00,00,00,00,00,00,
-1666864170826408,0000038B,false,Rx,0,8,00,00,00,00,00,00,00,00,
-1666864170806484,1BFE221A,true,Rx,0,8,00,A6,00,00,7E,00,00,00,
-1666864170806186,1BFE2206,true,Rx,0,8,46,00,00,86,00,FC,01,04,
-1666864170805887,1BFE2215,true,Rx,0,8,60,97,9E,80,80,80,AA,9A,
-1666864170805588,1BFE2216,true,Rx,0,8,00,00,00,00,00,00,C0,FA,
-1666864170805290,1BFE2217,true,Rx,0,8,00,00,CD,B5,A6,00,00,00,
-1666864170804948,1BFE2218,true,Rx,0,8,00,00,00,00,00,00,00,00,
-1666864170804650,1BFE2219,true,Rx,0,8,00,00,00,00,00,00,00,00,
-1666864170804351,1BFE221B,true,Rx,0,8,00,00,00,00,00,00,00,00,
-1666864170804010,1BFE221C,true,Rx,0,8,00,00,3F,00,00,00,00,00,
-1666864170803711,1BFE221E,true,Rx,0,8,7D,01,00,00,00,00,00,00,
-1666864170803412,1BFE2222,true,Rx,0,8,00,00,58,00,7E,1C,00,00,
-1666864170803071,1BFE2223,true,Rx,0,8,11,01,00,00,00,00,00,00,
-1666864170802772,1BFE2225,true,Rx,0,8,00,00,00,00,00,00,00,00,
-1666864170802431,1BFE2227,true,Rx,0,8,00,00,00,00,00,04,00,00,
-1666864170802132,1BFE2232,true,Rx,0,8,00,00,00,00,00,00,00,00,
-1666864170801791,1BFE2235,true,Rx,0,8,81,04,00,00,00,00,00,00,
-1666864170801493,1BFE2238,true,Rx,0,8,00,00,32,00,01,01,00,00,
-1666864170801151,1BFE2239,true,Rx,0,8,00,01,01,00,00,00,00,00,
-1666864170800853,1BFE223A,true,Rx,0,8,04,01,00,00,5B,00,00,00,
-1666864170800511,1BFE223B,true,Rx,0,8,0A,00,00,00,00,00,00,00,
-1666864170800213,1BFE223C,true,Rx,0,8,22,00,00,00,00,00,00,00,
-1666864170799871,1BFE223D,true,Rx,0,8,00,00,00,00,00,00,00,5C,
-1666864170799530,1BFE2248,true,Rx,0,8,00,00,00,00,00,00,00,00,
-1666864170726404,0000038B,false,Rx,0,8,00,00,00,00,00,00,00,00,
-1666864170716420,0000067E,false,Rx,0,8,1B,00,00,00,5B,00,00,40,
-1666864170706522,1BFE221A,true,Rx,0,8,00,A6,00,00,7E,00,00,00,
-1666864170706224,1BFE2209,true,Rx,0,8,00,00,01,00,E0,2F,00,00,
-1666864170705925,1BFE2215,true,Rx,0,8,60,97,9E,80,80,80,AA,9A,
-1666864170705584,1BFE2216,true,Rx,0,8,00,00,00,00,00,00,BF,FA,
-1666864170705318,1BFE2217,true,Rx,0,8,00,00,CD,B4,A5,00,00,00,
-1666864170705020,1BFE2218,true,Rx,0,8,00,00,00,00,00,00,00,00,
-1666864170704721,1BFE2219,true,Rx,0,8,00,00,00,00,00,00,00,00,
-1666864170704380,1BFE221B,true,Rx,0,8,00,00,00,00,00,00,00,00,
-1666864170704081,1BFE221C,true,Rx,0,8,00,00,3F,00,00,00,00,00,
-1666864170703740,1BFE221E,true,Rx,0,8,7D,01,00,00,00,00,00,00,
-1666864170703441,1BFE2222,true,Rx,0,8,00,00,58,00,7E,1C,00,00,
-1666864170703142,1BFE2223,true,Rx,0,8,11,01,00,00,00,00,00,00,
-1666864170702801,1BFE2225,true,Rx,0,8,00,00,00,00,00,00,00,00,
-1666864170702502,1BFE2227,true,Rx,0,8,00,00,00,00,00,04,00,00,
-1666864170702161,1BFE2232,true,Rx,0,8,00,00,00,00,00,00,00,00,
-1666864170701862,1BFE2235,true,Rx,0,8,81,04,00,00,00,00,00,00,
-1666864170701521,1BFE2238,true,Rx,0,8,00,00,32,00,01,01,00,00,
-1666864170701222,1BFE2239,true,Rx,0,8,00,01,01,00,00,00,00,00,
-1666864170700881,1BFE223A,true,Rx,0,8,04,01,00,00,51,00,06,00,
-1666864170700582,1BFE223B,true,Rx,0,8,14,00,00,00,00,00,00,00,
-1666864170700241,1BFE223C,true,Rx,0,8,22,00,00,00,00,00,00,00,
-1666864170699943,1BFE223D,true,Rx,0,8,00,00,00,00,00,00,00,5C,
-1666864170699601,1BFE2248,true,Rx,0,8,00,00,00,00,00,00,00,00,
-1666864170626432,0000038B,false,Rx,0,8,00,00,00,00,00,00,00,00,
-1666864170606551,1BFE221A,true,Rx,0,8,00,A6,00,00,7E,00,00,00,
-1666864170606252,1BFE2206,true,Rx,0,8,46,00,00,86,00,FA,01,04,
-1666864170605954,1BFE2215,true,Rx,0,8,60,97,9E,80,80,80,AA,9A,
-1666864170605655,1BFE2216,true,Rx,0,8,00,00,00,00,00,00,C0,FA,
-1666864170605356,1BFE2217,true,Rx,0,8,00,00,CD,B5,A6,00,00,00,
-1666864170605015,1BFE2218,true,Rx,0,8,00,00,00,00,00,00,00,00,
-1666864170604716,1BFE2219,true,Rx,0,8,00,00,00,00,00,00,00,00,
-1666864170604375,1BFE221B,true,Rx,0,8,00,00,00,00,00,00,00,00,
-1666864170604077,1BFE221C,true,Rx,0,8,00,00,3F,00,00,00,00,00,
-1666864170603778,1BFE221E,true,Rx,0,8,7D,01,00,00,00,00,00,00,
-1666864170603479,1BFE2222,true,Rx,0,8,00,00,58,00,7E,1C,00,00,
-1666864170603138,1BFE2223,true,Rx,0,8,11,01,00,00,00,00,00,00,
-1666864170602839,1BFE2225,true,Rx,0,8,00,00,00,00,00,00,00,00,
-1666864170602498,1BFE2227,true,Rx,0,8,00,00,00,00,00,04,00,00,
-1666864170602199,1BFE2232,true,Rx,0,8,00,00,00,00,00,00,00,00,
-1666864170601858,1BFE2235,true,Rx,0,8,81,04,00,00,00,00,00,00,
-1666864170601559,1BFE2238,true,Rx,0,8,00,00,32,00,01,01,00,00,
-1666864170601218,1BFE2239,true,Rx,0,8,00,01,01,00,00,00,00,00,
-1666864170600919,1BFE223A,true,Rx,0,8,04,01,00,00,5B,00,00,00,
-1666864170600578,1BFE223B,true,Rx,0,8,0A,00,00,00,00,00,00,00,
-1666864170600237,1BFE223C,true,Rx,0,8,22,00,00,00,00,00,00,00,
-1666864170599938,1BFE223D,true,Rx,0,8,00,00,00,00,00,00,00,5C,
-1666864170599597,1BFE2248,true,Rx,0,8,00,00,00,00,00,00,00,00,
-1666864170526471,0000038B,false,Rx,0,8,00,00,00,00,00,00,00,00,
-1666864170506589,1BFE220C,true,Rx,0,8,00,00,00,00,00,00,00,00,
-1666864170506248,1BFE220D,true,Rx,0,8,00,00,00,00,00,00,00,00,
-1666864170505949,1BFE2215,true,Rx,0,8,60,97,9E,80,80,80,AA,9A,
-1666864170505651,1BFE2216,true,Rx,0,8,00,00,00,00,00,00,C0,FA,
-1666864170505352,1BFE2217,true,Rx,0,8,00,00,CD,B5,A6,00,00,00,
-1666864170505011,1BFE2218,true,Rx,0,8,00,00,00,00,00,00,00,00,
-1666864170504712,1BFE2219,true,Rx,0,8,00,00,00,00,00,00,00,00,
-1666864170504413,1BFE221A,true,Rx,0,8,00,A5,00,00,7E,00,00,00,
-1666864170504072,1BFE221B,true,Rx,0,8,00,00,00,00,00,00,00,00,
-1666864170503731,1BFE221C,true,Rx,0,8,00,00,3F,00,00,00,00,00,
-1666864170503432,1BFE221E,true,Rx,0,8,7D,01,00,00,00,00,00,00,
-1666864170503133,1BFE2222,true,Rx,0,8,00,00,58,00,7E,1C,00,00,
-1666864170502835,1BFE2223,true,Rx,0,8,11,01,00,00,00,00,00,00,
-1666864170502494,1BFE2225,true,Rx,0,8,00,00,00,00,00,00,00,00,
-1666864170502195,1BFE2227,true,Rx,0,8,00,00,00,00,00,04,00,00,
-1666864170501854,1BFE2232,true,Rx,0,8,00,00,00,00,00,00,00,00,
-1666864170501555,1BFE2235,true,Rx,0,8,81,04,00,00,00,00,00,00,
-1666864170501214,1BFE2238,true,Rx,0,8,00,00,32,00,01,01,00,00,
-1666864170500872,1BFE2239,true,Rx,0,8,00,01,01,00,00,00,00,00,
-1666864170500574,1BFE223A,true,Rx,0,8,04,01,00,00,51,00,06,00,
-1666864170500232,1BFE223B,true,Rx,0,8,14,00,00,00,00,00,00,00,
-1666864170499934,1BFE223C,true,Rx,0,8,22,00,00,00,00,00,00,00,
-1666864170499592,1BFE223D,true,Rx,0,8,00,00,00,00,00,00,00,5C,
-1666864170499294,1BFE2248,true,Rx,0,8,00,00,00,00,00,00,00,00,
-1666864170426466,0000038B,false,Rx,0,8,00,00,00,00,00,00,00,00,
-1666864170406585,1BFE220B,true,Rx,0,8,00,00,00,00,00,00,11,00,
-1666864170406286,1BFE2205,true,Rx,0,8,45,45,00,00,00,41,09,0A,
-1666864170405988,1BFE2206,true,Rx,0,8,46,00,01,86,00,FA,01,04,
-1666864170405689,1BFE2209,true,Rx,0,8,00,00,01,00,D0,2F,00,00,
-1666864170405390,1BFE2215,true,Rx,0,8,60,97,9E,80,80,80,AA,9A,
-1666864170405049,1BFE2216,true,Rx,0,8,00,00,00,00,00,00,C0,FA,
-1666864170404750,1BFE2217,true,Rx,0,8,00,00,CD,B5,A5,00,00,00,
-1666864170404452,1BFE2218,true,Rx,0,8,00,00,00,00,00,00,00,00,
-1666864170404153,1BFE2219,true,Rx,0,8,00,00,00,00,00,00,00,00,
-1666864170403812,1BFE221A,true,Rx,0,8,00,A5,00,00,7E,00,00,00,
-1666864170403513,1BFE221B,true,Rx,0,8,00,00,00,00,00,00,00,00,
-1666864170403172,1BFE221C,true,Rx,0,8,00,00,3F,00,00,00,00,00,
-1666864170402873,1BFE221E,true,Rx,0,8,7D,01,00,00,00,00,00,00,
-1666864170402574,1BFE2222,true,Rx,0,8,00,00,58,00,7E,1C,00,00,
-1666864170402233,1BFE2223,true,Rx,0,8,11,01,00,00,00,00,00,00,
-1666864170401934,1BFE2225,true,Rx,0,8,00,00,00,00,00,00,00,00,
-1666864170401593,1BFE2227,true,Rx,0,8,00,00,00,00,00,04,00,00,
-1666864170401295,1BFE2232,true,Rx,0,8,00,00,00,00,00,00,00,00,
-1666864170400953,1BFE2235,true,Rx,0,8,81,04,00,00,00,00,00,00,
-1666864170400655,1BFE2238,true,Rx,0,8,00,00,32,00,01,01,00,00,
-1666864170400313,1BFE2239,true,Rx,0,8,00,01,01,00,00,00,00,00,
-1666864170400015,1BFE223A,true,Rx,0,8,04,01,00,00,5B,00,00,00,
-1666864170399673,1BFE223B,true,Rx,0,8,0A,00,00,00,00,00,00,00,
-1666864170399375,1BFE223C,true,Rx,0,8,22,00,00,00,00,00,00,00,
-1666864170399033,1BFE223D,true,Rx,0,8,00,00,00,00,00,00,00,5C,
-1666864170398692,1BFE2248,true,Rx,0,8,00,00,00,00,00,00,00,00,
-1666864170326505,0000038B,false,Rx,0,8,00,00,00,00,00,00,00,00,
-1666864170316478,00000564,false,Rx,0,8,D4,04,02,00,F8,17,3D,00,
-1666864170306580,1BFE221A,true,Rx,0,8,00,A5,00,00,7E,00,00,00,
-1666864170306282,1BFE2203,true,Rx,0,8,00,00,00,18,00,18,00,00,
-1666864170305983,1BFE2205,true,Rx,0,8,45,45,00,00,00,41,09,14,
-1666864170305685,1BFE2206,true,Rx,0,8,46,00,04,86,00,F8,01,04,
-1666864170305386,1BFE2215,true,Rx,0,8,60,97,9E,80,80,80,AA,9A,
-1666864170305087,1BFE2216,true,Rx,0,8,00,00,00,00,00,00,BF,FA,
-1666864170304789,1BFE2217,true,Rx,0,8,00,00,CD,B5,A6,00,00,00,
-1666864170304447,1BFE2218,true,Rx,0,8,00,00,00,00,00,00,00,00,
-1666864170304149,1BFE2219,true,Rx,0,8,00,00,00,00,00,00,00,00,
-1666864170303850,1BFE221B,true,Rx,0,8,00,00,00,00,00,00,00,00,
-1666864170303509,1BFE221C,true,Rx,0,8,00,00,3F,00,00,00,00,00,
-1666864170303210,1BFE221E,true,Rx,0,8,7D,01,00,00,00,00,00,00,
-1666864170302911,1BFE2222,true,Rx,0,8,00,00,58,00,7E,1C,00,00,
-1666864170302570,1BFE2223,true,Rx,0,8,11,01,00,00,00,00,00,00,
-1666864170302271,1BFE2225,true,Rx,0,8,00,00,00,00,00,00,00,00,
-1666864170301930,1BFE2227,true,Rx,0,8,00,00,00,00,00,04,00,00,
-1666864170301631,1BFE2232,true,Rx,0,8,00,00,00,00,00,00,00,00,
-1666864170301290,1BFE2235,true,Rx,0,8,81,04,00,00,00,00,00,00,
-1666864170300991,1BFE2238,true,Rx,0,8,00,00,32,00,01,01,00,00,
-1666864170300650,1BFE2239,true,Rx,0,8,00,01,01,00,00,00,00,00,
-1666864170300352,1BFE223A,true,Rx,0,8,04,01,00,00,51,00,06,00,
-1666864170300010,1BFE223B,true,Rx,0,8,14,00,00,00,00,00,00,00,
-1666864170299712,1BFE223C,true,Rx,0,8,22,00,00,00,00,00,00,00,
-1666864170299370,1BFE223D,true,Rx,0,8,00,00,00,00,00,00,00,5C,
-1666864170299029,1BFE2248,true,Rx,0,8,00,00,00,00,00,00,00,00,
-1666864170226500,0000038B,false,Rx,0,8,00,00,00,00,00,00,00,00,
-1666864170206619,1BFE221A,true,Rx,0,8,00,A6,00,00,7E,00,00,00,
-1666864170206277,1BFE2206,true,Rx,0,8,46,00,0C,86,00,F8,01,04,
-1666864170205979,1BFE2209,true,Rx,0,8,00,00,01,00,C0,2F,00,00,
-1666864170205680,1BFE2215,true,Rx,0,8,60,97,9E,80,80,80,AA,9A,
-1666864170205381,1BFE2216,true,Rx,0,8,00,00,00,00,00,00,C0,FA,
-1666864170205083,1BFE2217,true,Rx,0,8,00,00,CD,B4,A5,00,00,00,
-1666864170204741,1BFE2218,true,Rx,0,8,00,00,00,00,00,00,00,00,
-1666864170204443,1BFE2219,true,Rx,0,8,00,00,00,00,00,00,00,00,
-1666864170204144,1BFE221B,true,Rx,0,8,00,00,00,00,00,00,00,00,
-1666864170203803,1BFE221C,true,Rx,0,8,00,00,3F,00,00,00,00,00,
-1666864170203504,1BFE221E,true,Rx,0,8,7D,01,00,00,00,00,00,00,
-1666864170203206,1BFE2222,true,Rx,0,8,00,00,58,00,7E,1C,00,00,
-1666864170202864,1BFE2223,true,Rx,0,8,11,01,00,00,00,00,00,00,
-1666864170202566,1BFE2225,true,Rx,0,8,00,00,00,00,00,00,00,00,
-1666864170202224,1BFE2227,true,Rx,0,8,00,00,00,00,00,04,00,00,
-1666864170201926,1BFE2232,true,Rx,0,8,00,00,00,00,00,00,00,00,
-1666864170201584,1BFE2235,true,Rx,0,8,81,04,00,00,00,00,00,00,
-1666864170201286,1BFE2238,true,Rx,0,8,00,00,32,00,01,01,00,00,
-1666864170200944,1BFE2239,true,Rx,0,8,00,01,01,00,00,00,00,00,
-1666864170200646,1BFE223A,true,Rx,0,8,04,01,00,00,5B,00,00,00,
-1666864170200304,1BFE223B,true,Rx,0,8,0A,00,00,00,00,00,00,00,
-1666864170200006,1BFE223C,true,Rx,0,8,22,00,00,00,00,00,00,00,
-1666864170199664,1BFE223D,true,Rx,0,8,00,00,00,00,00,00,00,5C,
-1666864170199323,1BFE2248,true,Rx,0,8,00,00,00,00,00,00,00,00,
-1666864170126496,0000038B,false,Rx,0,8,00,00,00,00,00,00,00,00,
-1666864170106614,1BFE221A,true,Rx,0,8,00,A6,00,00,7E,00,00,00,
-1666864170106316,1BFE2206,true,Rx,0,8,46,00,14,86,00,F6,01,04,
-1666864170106017,1BFE2215,true,Rx,0,8,60,97,9E,80,80,80,AA,9A,
-1666864170105718,1BFE2216,true,Rx,0,8,00,00,00,00,00,00,C0,FA,
-1666864170105420,1BFE2217,true,Rx,0,8,00,00,CD,B5,A6,00,00,00,
-1666864170105078,1BFE2218,true,Rx,0,8,00,00,00,00,00,00,00,00,
-1666864170104780,1BFE2219,true,Rx,0,8,00,00,00,00,00,00,00,00,
-1666864170104438,1BFE221B,true,Rx,0,8,00,00,00,00,00,00,00,00,
-1666864170104140,1BFE221C,true,Rx,0,8,00,00,3F,00,00,00,00,00,
-1666864170103841,1BFE221E,true,Rx,0,8,7D,01,00,00,00,00,00,00,
-1666864170103500,1BFE2222,true,Rx,0,8,00,00,58,00,7E,1C,00,00,
-1666864170103201,1BFE2223,true,Rx,0,8,11,01,00,00,00,00,00,00,
-1666864170102903,1BFE2225,true,Rx,0,8,00,00,00,00,00,00,00,00,
-1666864170102561,1BFE2227,true,Rx,0,8,00,00,00,00,00,04,00,00,
-1666864170102263,1BFE2232,true,Rx,0,8,00,00,00,00,00,00,00,00,
-1666864170101921,1BFE2235,true,Rx,0,8,81,04,00,00,00,00,00,00,
-1666864170101623,1BFE2238,true,Rx,0,8,00,00,32,00,01,01,00,00,
-1666864170101281,1BFE2239,true,Rx,0,8,00,01,01,00,00,00,00,00,
-1666864170100983,1BFE223A,true,Rx,0,8,04,01,00,00,51,00,06,00,
-1666864170100641,1BFE223B,true,Rx,0,8,14,00,00,00,00,00,00,00,
-1666864170100343,1BFE223C,true,Rx,0,8,22,00,00,00,00,00,00,00,
-1666864170100001,1BFE223D,true,Rx,0,8,00,00,00,00,00,00,00,5C,
-1666864170099660,1BFE2248,true,Rx,0,8,00,00,00,00,00,00,00,00,
-1666864170026534,0000038B,false,Rx,0,8,00,00,00,00,00,00,00,00,
-1666864170006610,1BFE221A,true,Rx,0,8,00,A6,00,00,7E,00,00,00,
-1666864170006311,1BFE2206,true,Rx,0,8,46,00,19,86,00,F6,01,04,
-1666864170006013,1BFE2209,true,Rx,0,8,00,00,01,00,B0,2F,00,00,
-1666864170005714,1BFE2215,true,Rx,0,8,60,97,9E,80,80,80,AA,9A,
-1666864170005415,1BFE2216,true,Rx,0,8,00,00,00,00,00,00,C0,FA,
-1666864170005117,1BFE2217,true,Rx,0,8,00,00,CD,B5,A5,00,00,00,
-1666864170004775,1BFE2218,true,Rx,0,8,00,00,00,00,00,00,00,00,
-1666864170004477,1BFE2219,true,Rx,0,8,00,00,00,00,00,00,00,00,
-1666864170004178,1BFE221B,true,Rx,0,8,00,00,00,00,00,00,00,00,
-1666864170003837,1BFE221C,true,Rx,0,8,00,00,3F,00,00,00,00,00,
-1666864170003538,1BFE221E,true,Rx,0,8,7D,01,00,00,00,00,00,00,
-1666864170003239,1BFE2222,true,Rx,0,8,00,00,58,00,7E,1C,00,00,
-1666864170002898,1BFE2223,true,Rx,0,8,11,01,00,00,00,00,00,00,
-1666864170002599,1BFE2225,true,Rx,0,8,00,00,00,00,00,00,00,00,
-1666864170002258,1BFE2227,true,Rx,0,8,00,00,00,00,00,04,00,00,
-1666864170001959,1BFE2232,true,Rx,0,8,00,00,00,00,00,00,00,00,
-1666864170001618,1BFE2235,true,Rx,0,8,81,04,00,00,00,00,00,00,
-1666864170001320,1BFE2238,true,Rx,0,8,00,00,32,00,01,01,00,00,
-1666864170000978,1BFE2239,true,Rx,0,8,00,01,01,00,00,00,00,00,
-1666864170000680,1BFE223A,true,Rx,0,8,04,01,00,00,5B,00,00,00,
-1666864170000338,1BFE223B,true,Rx,0,8,0A,00,00,00,00,00,00,00,
-1666864170000040,1BFE223C,true,Rx,0,8,22,00,00,00,00,00,00,00,
-1666864169999698,1BFE223D,true,Rx,0,8,00,00,00,00,00,00,00,5C,
-1666864169999357,1BFE2248,true,Rx,0,8,00,00,00,00,00,00,00,00,
-1666864169926530,0000038B,false,Rx,0,8,00,00,00,00,00,00,00,00,
-1666864169906648,1BFE221A,true,Rx,0,8,00,A5,00,00,7E,00,00,00,
-1666864169906349,1BFE2206,true,Rx,0,8,46,00,1F,86,00,F6,01,04,
-1666864169906051,1BFE2215,true,Rx,0,8,60,97,9E,80,80,80,AA,9A,
-1666864169905752,1BFE2216,true,Rx,0,8,00,00,00,00,00,00,C0,FA,
-1666864169905411,1BFE2217,true,Rx,0,8,00,00,CD,B5,A6,00,00,00,
-1666864169905112,1BFE2218,true,Rx,0,8,00,00,00,00,00,00,00,00,
-1666864169904814,1BFE2219,true,Rx,0,8,00,00,00,00,00,00,00,00,
-1666864169904472,1BFE221B,true,Rx,0,8,00,00,00,00,00,00,00,00,
-1666864169904174,1BFE221C,true,Rx,0,8,00,00,3F,00,00,00,00,00,
-1666864169903875,1BFE221E,true,Rx,0,8,7D,01,00,00,00,00,00,00,
-1666864169903534,1BFE2222,true,Rx,0,8,00,00,58,00,7E,1C,00,00,
-1666864169903235,1BFE2223,true,Rx,0,8,11,01,00,00,00,00,00,00,
-1666864169902894,1BFE2225,true,Rx,0,8,00,00,00,00,00,00,00,00,
-1666864169902595,1BFE2227,true,Rx,0,8,00,00,00,00,00,04,00,00,
-1666864169902254,1BFE2232,true,Rx,0,8,00,00,00,00,00,00,00,00,
-1666864169901955,1BFE2235,true,Rx,0,8,81,04,00,00,00,00,00,00,
-1666864169901614,1BFE2238,true,Rx,0,8,00,00,32,00,01,01,00,00,
-1666864169901315,1BFE2239,true,Rx,0,8,00,01,01,00,00,00,00,00,
-1666864169900974,1BFE223A,true,Rx,0,8,04,01,00,00,51,00,06,00,
-1666864169900675,1BFE223B,true,Rx,0,8,14,00,00,00,00,00,00,00,
-1666864169900334,1BFE223C,true,Rx,0,8,22,00,00,00,00,00,00,00,
-1666864169900035,1BFE223D,true,Rx,0,8,00,00,00,00,00,00,00,5C,
-1666864169899694,1BFE2248,true,Rx,0,8,00,00,00,00,00,00,00,00,
-1666864169826568,0000038B,false,Rx,0,8,00,00,00,00,00,00,00,00,
-1666864169806644,1BFE221A,true,Rx,0,8,00,A5,00,00,7E,00,00,00,
-1666864169806345,1BFE2204,true,Rx,0,8,00,00,00,00,0F,00,00,00,
-1666864169806046,1BFE2206,true,Rx,0,8,46,00,21,86,00,F4,01,04,
-1666864169805748,1BFE2215,true,Rx,0,8,60,97,9E,80,80,80,AA,9A,
-1666864169805449,1BFE2216,true,Rx,0,8,00,00,00,00,00,00,C0,FA,
-1666864169805150,1BFE2217,true,Rx,0,8,00,00,CD,B5,A6,00,00,00,
-1666864169804809,1BFE2218,true,Rx,0,8,00,00,00,00,00,00,00,00,
-1666864169804510,1BFE2219,true,Rx,0,8,00,00,00,00,00,00,00,00,
-1666864169804169,1BFE221B,true,Rx,0,8,00,00,00,00,00,00,00,00,
-1666864169803871,1BFE221C,true,Rx,0,8,00,00,3F,00,00,00,00,00,
-1666864169803572,1BFE221E,true,Rx,0,8,7D,01,00,00,00,00,00,00,
-1666864169803231,1BFE2222,true,Rx,0,8,00,00,58,00,7E,1C,00,00,
-1666864169802932,1BFE2223,true,Rx,0,8,11,01,00,00,00,00,00,00,
-1666864169802591,1BFE2225,true,Rx,0,8,00,00,00,00,00,00,00,00,
-1666864169802292,1BFE2227,true,Rx,0,8,00,00,00,00,00,04,00,00,
-1666864169801993,1BFE2232,true,Rx,0,8,00,00,00,00,00,00,00,00,
-1666864169801652,1BFE2235,true,Rx,0,8,81,04,00,00,00,00,00,00,
-1666864169801311,1BFE2238,true,Rx,0,8,00,00,32,00,01,01,00,00,
-1666864169801012,1BFE2239,true,Rx,0,8,00,01,01,00,00,00,00,00,
-1666864169800713,1BFE223A,true,Rx,0,8,04,01,00,00,5B,00,00,00,
-1666864169800372,1BFE223B,true,Rx,0,8,0A,00,00,00,00,00,00,00,
-1666864169800031,1BFE223C,true,Rx,0,8,22,00,00,00,00,00,00,00,
-1666864169799732,1BFE223D,true,Rx,0,8,00,00,00,00,00,00,00,5C,
-1666864169799391,1BFE2248,true,Rx,0,8,00,00,00,00,00,00,00,00,
-1666864169726563,0000038B,false,Rx,0,8,00,00,00,00,00,00,00,00,
-1666864169716537,0000067E,false,Rx,0,8,1A,01,00,00,5B,00,00,40,
-1666864169706682,1BFE221A,true,Rx,0,8,00,A6,00,00,7E,00,00,00,
-1666864169706383,1BFE2206,true,Rx,0,8,46,00,27,86,00,F4,01,04,
-1666864169706042,1BFE2209,true,Rx,0,8,00,00,01,00,A0,2F,00,00,
-1666864169705743,1BFE2215,true,Rx,0,8,60,97,9E,80,80,80,AA,9A,
-1666864169705415,1BFE2216,true,Rx,0,8,00,00,00,00,00,00,C0,FA,
-1666864169705116,1BFE2217,true,Rx,0,8,00,00,CD,B5,A6,00,00,00,
-1666864169704817,1BFE2218,true,Rx,0,8,00,00,00,00,00,00,00,00,
-1666864169704476,1BFE2219,true,Rx,0,8,00,00,00,00,00,00,00,00,
-1666864169704177,1BFE221B,true,Rx,0,8,00,00,00,00,00,00,00,00,
-1666864169703836,1BFE221C,true,Rx,0,8,00,00,3F,00,00,00,00,00,
-1666864169703537,1BFE221E,true,Rx,0,8,7D,01,00,00,00,00,00,00,
-1666864169703239,1BFE2222,true,Rx,0,8,00,00,58,00,7E,1C,00,00,
-1666864169702898,1BFE2223,true,Rx,0,8,11,01,00,00,00,00,00,00,
-1666864169702599,1BFE2225,true,Rx,0,8,00,00,00,00,00,00,00,00,
-1666864169702258,1BFE2227,true,Rx,0,8,00,00,00,00,00,04,00,00,
-1666864169701959,1BFE2232,true,Rx,0,8,00,00,00,00,00,00,00,00,
-1666864169701618,1BFE2235,true,Rx,0,8,81,04,00,00,00,00,00,00,
-1666864169701319,1BFE2238,true,Rx,0,8,00,00,32,00,01,01,00,00,
-1666864169700978,1BFE2239,true,Rx,0,8,00,01,01,00,00,00,00,00,
-1666864169700679,1BFE223A,true,Rx,0,8,04,01,00,00,51,00,06,00,
-1666864169700338,1BFE223B,true,Rx,0,8,14,00,00,00,00,00,00,00,
-1666864169700039,1BFE223C,true,Rx,0,8,22,00,00,00,00,00,00,00,
-1666864169699698,1BFE223D,true,Rx,0,8,00,00,00,00,00,00,00,5C,
-1666864169699356,1BFE2248,true,Rx,0,8,00,00,00,00,00,00,00,00,
-1666864169626529,0000038B,false,Rx,0,8,00,00,00,00,00,00,00,00,
-1666864169606648,1BFE221A,true,Rx,0,8,00,A5,00,00,7E,00,00,00,
-1666864169606349,1BFE2206,true,Rx,0,8,46,00,2B,86,00,F2,01,04,
-1666864169606050,1BFE2215,true,Rx,0,8,60,97,9E,80,80,80,AA,9A,
-1666864169605752,1BFE2216,true,Rx,0,8,00,00,00,00,00,00,C0,FA,
-1666864169605453,1BFE2217,true,Rx,0,8,00,00,CD,B5,A6,00,00,00,
-1666864169605112,1BFE2218,true,Rx,0,8,00,00,00,00,00,00,00,00,
-1666864169604813,1BFE2219,true,Rx,0,8,00,00,00,00,00,00,00,00,
-1666864169604472,1BFE221B,true,Rx,0,8,00,00,00,00,00,00,00,00,
-1666864169604173,1BFE221C,true,Rx,0,8,00,00,3F,00,00,00,00,00,
-1666864169603874,1BFE221E,true,Rx,0,8,7D,01,00,00,00,00,00,00,
-1666864169603533,1BFE2222,true,Rx,0,8,00,00,58,00,7E,1C,00,00,
-1666864169603234,1BFE2223,true,Rx,0,8,11,01,00,00,00,00,00,00,
-1666864169602936,1BFE2225,true,Rx,0,8,00,00,00,00,00,00,00,00,
-1666864169602594,1BFE2227,true,Rx,0,8,00,00,00,00,00,04,00,00,
-1666864169602296,1BFE2232,true,Rx,0,8,00,00,00,00,00,00,00,00,
-1666864169601954,1BFE2235,true,Rx,0,8,81,04,00,00,00,00,00,00,
-1666864169601656,1BFE2238,true,Rx,0,8,00,00,32,00,01,01,00,00,
-1666864169601315,1BFE2239,true,Rx,0,8,00,01,01,00,00,00,00,00,
-1666864169601016,1BFE223A,true,Rx,0,8,04,01,00,00,5B,00,00,00,
-1666864169600675,1BFE223B,true,Rx,0,8,0A,00,00,00,00,00,00,00,
-1666864169600333,1BFE223C,true,Rx,0,8,22,00,00,00,00,00,00,00,
-1666864169600035,1BFE223D,true,Rx,0,8,00,00,00,00,00,00,00,5C,
-1666864169599693,1BFE2248,true,Rx,0,8,00,00,00,00,00,00,00,00,
-1666864169526567,0000038B,false,Rx,0,8,00,00,00,00,00,00,00,00,
-1666864169506643,1BFE221A,true,Rx,0,8,00,A6,00,00,7E,00,00,00,
-1666864169506344,1BFE2206,true,Rx,0,8,46,00,31,86,00,F2,01,04,
-1666864169506046,1BFE2209,true,Rx,0,8,00,00,01,00,90,2F,00,00,
-1666864169505747,1BFE2215,true,Rx,0,8,60,97,9E,80,80,80,AA,9A,
-1666864169505449,1BFE2216,true,Rx,0,8,00,00,00,00,00,00,C0,FA,
-1666864169505150,1BFE2217,true,Rx,0,8,00,00,CD,B5,A6,00,00,00,
-1666864169504809,1BFE2218,true,Rx,0,8,00,00,00,00,00,00,00,00,
-1666864169504510,1BFE2219,true,Rx,0,8,00,00,00,00,00,00,00,00,
-1666864169504169,1BFE221B,true,Rx,0,8,00,00,00,00,00,00,00,00,
-1666864169503870,1BFE221C,true,Rx,0,8,00,00,3F,00,00,00,00,00,
-1666864169503571,1BFE221E,true,Rx,0,8,7D,01,00,00,00,00,00,00,
-1666864169503273,1BFE2222,true,Rx,0,8,00,00,58,00,7E,1C,00,00,
-1666864169502931,1BFE2223,true,Rx,0,8,11,01,00,00,00,00,00,00,
-1666864169502633,1BFE2225,true,Rx,0,8,00,00,00,00,00,00,00,00,
-1666864169502291,1BFE2227,true,Rx,0,8,00,00,00,00,00,04,00,00,
-1666864169501993,1BFE2232,true,Rx,0,8,00,00,00,00,00,00,00,00,
-1666864169501651,1BFE2235,true,Rx,0,8,81,04,00,00,00,00,00,00,
-1666864169501353,1BFE2238,true,Rx,0,8,00,00,32,00,01,01,00,00,
-1666864169501011,1BFE2239,true,Rx,0,8,00,01,01,00,00,00,00,00,
-1666864169500713,1BFE223A,true,Rx,0,8,04,01,00,00,51,00,06,00,
-1666864169500372,1BFE223B,true,Rx,0,8,14,00,00,00,00,00,00,00,
-1666864169500073,1BFE223C,true,Rx,0,8,22,00,00,00,00,00,00,00,
-1666864169499732,1BFE223D,true,Rx,0,8,00,00,00,00,00,00,00,5C,
-1666864169499390,1BFE2248,true,Rx,0,8,00,00,00,00,00,00,00,00,
-1666864169426563,0000038B,false,Rx,0,8,00,00,00,00,00,00,00,00,
-1666864169406681,1BFE221A,true,Rx,0,8,00,A6,00,00,7E,00,00,00,
-1666864169406383,1BFE2206,true,Rx,0,8,46,00,33,86,00,F2,01,04,
-1666864169406084,1BFE2215,true,Rx,0,8,60,97,9E,80,80,80,AA,9A,
-1666864169405785,1BFE2216,true,Rx,0,8,00,00,00,00,00,00,BF,FA,
-1666864169405444,1BFE2217,true,Rx,0,8,00,00,CD,B5,A5,00,00,00,
-1666864169405145,1BFE2218,true,Rx,0,8,00,00,00,00,00,00,00,00,
-1666864169404847,1BFE2219,true,Rx,0,8,00,00,00,00,00,00,00,00,
-1666864169404505,1BFE221B,true,Rx,0,8,00,00,00,00,00,00,00,00,
-1666864169404207,1BFE221C,true,Rx,0,8,00,00,3F,00,00,00,00,00,
-1666864169403908,1BFE221E,true,Rx,0,8,7D,01,00,00,00,00,00,00,
-1666864169403567,1BFE2222,true,Rx,0,8,00,00,58,00,7E,1C,00,00,
-1666864169403268,1BFE2223,true,Rx,0,8,11,01,00,00,00,00,00,00,
-1666864169402927,1BFE2225,true,Rx,0,8,00,00,00,00,00,00,00,00,
-1666864169402628,1BFE2227,true,Rx,0,8,00,00,00,00,00,04,00,00,
-1666864169402287,1BFE2232,true,Rx,0,8,00,00,00,00,00,00,00,00,
-1666864169401988,1BFE2235,true,Rx,0,8,81,04,00,00,00,00,00,00,
-1666864169401647,1BFE2238,true,Rx,0,8,00,00,32,00,01,01,00,00,
-1666864169401348,1BFE2239,true,Rx,0,8,00,01,01,00,00,00,00,00,
-1666864169401050,1BFE223A,true,Rx,0,8,04,01,00,00,5B,00,00,00,
-1666864169400708,1BFE223B,true,Rx,0,8,0A,00,00,00,00,00,00,00,
-1666864169400367,1BFE223C,true,Rx,0,8,22,00,00,00,00,00,00,00,
-1666864169400068,1BFE223D,true,Rx,0,8,00,00,00,00,00,00,00,5C,
-1666864169399727,1BFE2248,true,Rx,0,8,00,00,00,00,00,00,00,00,
-1666864169326601,0000038B,false,Rx,0,8,00,00,00,00,00,00,00,00,
-1666864169316575,00000564,false,Rx,0,8,FA,05,1D,00,F8,27,3D,00,
-1666864169306677,1BFE221A,true,Rx,0,8,00,A6,00,00,7E,00,00,00,
-1666864169306378,1BFE2206,true,Rx,0,8,46,00,3A,86,00,F2,01,04,
-1666864169306080,1BFE2215,true,Rx,0,8,60,97,9E,80,80,80,AA,9A,
-1666864169305781,1BFE2216,true,Rx,0,8,00,00,00,00,00,00,C0,FA,
-1666864169305482,1BFE2217,true,Rx,0,8,00,00,CD,B4,A5,00,00,00,
-1666864169305184,1BFE2218,true,Rx,0,8,00,00,00,00,00,00,00,00,
-1666864169304842,1BFE2219,true,Rx,0,8,00,00,00,00,00,00,00,00,
-1666864169304544,1BFE221B,true,Rx,0,8,00,00,00,00,00,00,00,00,
-1666864169304202,1BFE221C,true,Rx,0,8,00,00,3F,00,00,00,00,00,
-1666864169303904,1BFE221E,true,Rx,0,8,7D,01,00,00,00,00,00,00,
-1666864169303605,1BFE2222,true,Rx,0,8,00,00,58,00,7E,1C,00,00,
-1666864169303264,1BFE2223,true,Rx,0,8,11,01,00,00,00,00,00,00,
-1666864169302965,1BFE2225,true,Rx,0,8,00,00,00,00,00,00,00,00,
-1666864169302624,1BFE2227,true,Rx,0,8,00,00,00,00,00,04,00,00,
-1666864169302325,1BFE2232,true,Rx,0,8,00,00,00,00,00,00,00,00,
-1666864169301984,1BFE2235,true,Rx,0,8,81,04,00,00,00,00,00,00,
-1666864169301685,1BFE2238,true,Rx,0,8,00,00,32,00,01,01,00,00,
-1666864169301344,1BFE2239,true,Rx,0,8,00,01,01,00,00,00,00,00,
-1666864169301045,1BFE223A,true,Rx,0,8,04,01,00,00,51,00,06,00,
-1666864169300704,1BFE223B,true,Rx,0,8,14,00,00,00,00,00,00,00,
-1666864169300405,1BFE223C,true,Rx,0,8,22,00,00,00,00,00,00,00,
-1666864169300064,1BFE223D,true,Rx,0,8,00,00,00,00,00,00,00,5C,
-1666864169299765,1BFE2248,true,Rx,0,8,00,00,00,00,00,00,00,00,
-1666864169226597,0000038B,false,Rx,0,8,00,00,00,00,00,00,00,00,
-1666864169206673,1BFE221A,true,Rx,0,8,00,A5,00,00,7E,00,00,00,
-1666864169206417,1BFE2206,true,Rx,0,8,46,00,3F,86,00,F2,01,04,
-1666864169206118,1BFE2215,true,Rx,0,8,60,97,9E,80,80,80,AA,9A,
-1666864169205777,1BFE2216,true,Rx,0,8,00,00,00,00,00,00,C0,FA,
-1666864169205478,1BFE2217,true,Rx,0,8,00,00,CD,B5,A6,00,00,00,
-1666864169205179,1BFE2218,true,Rx,0,8,00,00,00,00,00,00,00,00,
-1666864169204838,1BFE2219,true,Rx,0,8,00,00,00,00,00,00,00,00,
-1666864169204539,1BFE221B,true,Rx,0,8,00,00,00,00,00,00,00,00,
-1666864169204241,1BFE221C,true,Rx,0,8,00,00,3F,00,00,00,00,00,
-1666864169203899,1BFE221E,true,Rx,0,8,7D,01,00,00,00,00,00,00,
-1666864169203601,1BFE2222,true,Rx,0,8,00,00,58,00,7E,1C,00,00,
-1666864169203302,1BFE2223,true,Rx,0,8,11,01,00,00,00,00,00,00,
-1666864169202961,1BFE2225,true,Rx,0,8,00,00,00,00,00,00,00,00,
-1666864169202662,1BFE2227,true,Rx,0,8,00,00,00,00,00,04,00,00,
-1666864169202321,1BFE2232,true,Rx,0,8,00,00,00,00,00,00,00,00,
-1666864169202022,1BFE2235,true,Rx,0,8,81,04,00,00,00,00,00,00,
-1666864169201681,1BFE2238,true,Rx,0,8,00,00,32,00,01,01,00,00,
-1666864169201382,1BFE2239,true,Rx,0,8,00,01,01,00,00,00,00,00,
-1666864169201041,1BFE223A,true,Rx,0,8,04,01,00,00,5B,00,00,00,
-1666864169200742,1BFE223B,true,Rx,0,8,0A,00,00,00,00,00,00,00,
-1666864169200401,1BFE223C,true,Rx,0,8,22,00,00,00,00,00,00,00,
-1666864169200060,1BFE223D,true,Rx,0,8,00,00,00,00,00,00,00,5C,
-1666864169199761,1BFE2248,true,Rx,0,8,00,00,00,00,00,00,00,00,
-1666864169126592,0000038B,false,Rx,0,8,00,00,00,00,00,00,00,00,
-1666864169106711,1BFE221A,true,Rx,0,8,00,A6,00,00,7E,00,00,00,
-1666864169106412,1BFE2206,true,Rx,0,8,46,00,42,86,00,F2,01,04,
-1666864169106113,1BFE2215,true,Rx,0,8,60,97,9E,80,80,80,AA,9A,
-1666864169105815,1BFE2216,true,Rx,0,8,00,00,00,00,00,00,C0,FA,
-1666864169105516,1BFE2217,true,Rx,0,8,00,00,CD,B4,A5,00,00,00,
-1666864169105175,1BFE2218,true,Rx,0,8,00,00,00,00,00,00,00,00,
-1666864169104876,1BFE2219,true,Rx,0,8,00,00,00,00,00,00,00,00,
-1666864169104578,1BFE221B,true,Rx,0,8,00,00,00,00,00,00,00,00,
-1666864169104236,1BFE221C,true,Rx,0,8,00,00,3F,00,00,00,00,00,
-1666864169103938,1BFE221E,true,Rx,0,8,7D,01,00,00,00,00,00,00,
-1666864169103639,1BFE2222,true,Rx,0,8,00,00,58,00,7E,1C,00,00,
-1666864169103298,1BFE2223,true,Rx,0,8,11,01,00,00,00,00,00,00,
-1666864169102999,1BFE2225,true,Rx,0,8,00,00,00,00,00,00,00,00,
-1666864169102658,1BFE2227,true,Rx,0,8,00,00,00,00,00,04,00,00,
-1666864169102359,1BFE2232,true,Rx,0,8,00,00,00,00,00,00,00,00,
-1666864169102018,1BFE2235,true,Rx,0,8,81,04,00,00,00,00,00,00,
-1666864169101719,1BFE2238,true,Rx,0,8,00,00,32,00,01,01,00,00,
-1666864169101378,1BFE2239,true,Rx,0,8,00,01,01,00,00,00,00,00,
-1666864169101079,1BFE223A,true,Rx,0,8,04,01,00,00,51,00,06,00,
-1666864169100738,1BFE223B,true,Rx,0,8,14,00,00,00,00,00,00,00,
-1666864169100439,1BFE223C,true,Rx,0,8,22,00,00,00,00,00,00,00,
-1666864169100098,1BFE223D,true,Rx,0,8,00,00,00,00,00,00,00,5C,
-1666864169099757,1BFE2248,true,Rx,0,8,00,00,00,00,00,00,00,00,
-1666864169026630,0000038B,false,Rx,0,8,00,00,00,00,00,00,00,00,
-1666864169006706,1BFE221A,true,Rx,0,8,00,A6,00,00,7E,00,00,00,
-1666864169006408,1BFE2206,true,Rx,0,8,46,00,44,86,00,F2,01,04,
-1666864169006109,1BFE2215,true,Rx,0,8,60,97,9E,80,80,80,AA,9A,
-1666864169005810,1BFE2216,true,Rx,0,8,00,00,00,00,00,00,C0,FA,
-1666864169005512,1BFE2217,true,Rx,0,8,00,00,CD,B5,A6,00,00,00,
-1666864169005213,1BFE2218,true,Rx,0,8,00,00,00,00,00,00,00,00,
-1666864169004872,1BFE2219,true,Rx,0,8,00,00,00,00,00,00,00,00,
-1666864169004573,1BFE221B,true,Rx,0,8,00,00,00,00,00,00,00,00,
-1666864169004232,1BFE221C,true,Rx,0,8,00,00,3F,00,00,00,00,00,
-1666864169003933,1BFE221E,true,Rx,0,8,7D,01,00,00,00,00,00,00,
-1666864169003635,1BFE2222,true,Rx,0,8,00,00,58,00,7E,1C,00,00,
-1666864169003293,1BFE2223,true,Rx,0,8,11,01,00,00,00,00,00,00,
-1666864169002995,1BFE2225,true,Rx,0,8,00,00,00,00,00,00,00,00,
-1666864169002653,1BFE2227,true,Rx,0,8,00,00,00,00,00,04,00,00,
-1666864169002355,1BFE2232,true,Rx,0,8,00,00,00,00,00,00,00,00,
-1666864169002013,1BFE2235,true,Rx,0,8,81,04,00,00,00,00,00,00,
-1666864169001715,1BFE2238,true,Rx,0,8,00,00,32,00,01,01,00,00,
-1666864169001373,1BFE2239,true,Rx,0,8,00,01,01,00,00,00,00,00,
-1666864169001075,1BFE223A,true,Rx,0,8,04,01,00,00,5B,00,00,00,
-1666864169000733,1BFE223B,true,Rx,0,8,0A,00,00,00,00,00,00,00,
-1666864169000435,1BFE223C,true,Rx,0,8,22,00,00,00,00,00,00,00,
-1666864169000093,1BFE223D,true,Rx,0,8,00,00,00,00,00,00,00,5C,
-1666864168999752,1BFE2248,true,Rx,0,8,00,00,00,00,00,00,00,00,
-1666864168926626,0000038B,false,Rx,0,8,00,00,00,00,00,00,00,00,
-1666864168906745,1BFE221A,true,Rx,0,8,00,A6,00,00,7E,00,00,00,
-1666864168906446,1BFE2206,true,Rx,0,8,46,00,49,86,00,F2,01,04,
-1666864168906147,1BFE2215,true,Rx,0,8,60,97,9E,80,80,80,AA,9A,
-1666864168905849,1BFE2216,true,Rx,0,8,00,00,00,00,00,00,C0,FA,
-1666864168905507,1BFE2217,true,Rx,0,8,00,00,CD,B5,A6,00,00,00,
-1666864168905209,1BFE2218,true,Rx,0,8,00,00,00,00,00,00,00,00,
-1666864168904910,1BFE2219,true,Rx,0,8,00,00,00,00,00,00,00,00,
-1666864168904569,1BFE221B,true,Rx,0,8,00,00,00,00,00,00,00,00,
-1666864168904270,1BFE221C,true,Rx,0,8,00,00,3F,00,00,00,00,00,
-1666864168903929,1BFE221E,true,Rx,0,8,7D,01,00,00,00,00,00,00,
-1666864168903630,1BFE2222,true,Rx,0,8,00,00,58,00,7E,1C,00,00,
-1666864168903331,1BFE2223,true,Rx,0,8,11,01,00,00,00,00,00,00,
-1666864168902990,1BFE2225,true,Rx,0,8,00,00,00,00,00,00,00,00,
-1666864168902692,1BFE2227,true,Rx,0,8,00,00,00,00,00,04,00,00,
-1666864168902350,1BFE2232,true,Rx,0,8,00,00,00,00,00,00,00,00,
-1666864168902052,1BFE2235,true,Rx,0,8,81,04,00,00,00,00,00,00,
-1666864168901710,1BFE2238,true,Rx,0,8,00,00,32,00,01,01,00,00,
-1666864168901412,1BFE2239,true,Rx,0,8,00,01,01,00,00,00,00,00,
-1666864168901070,1BFE223A,true,Rx,0,8,04,01,00,00,51,00,06,00,
-1666864168900772,1BFE223B,true,Rx,0,8,14,00,00,00,00,00,00,00,
-1666864168900430,1BFE223C,true,Rx,0,8,22,00,00,00,00,00,00,00,
-1666864168900132,1BFE223D,true,Rx,0,8,00,00,00,00,00,00,00,5C,
-1666864168899790,1BFE2248,true,Rx,0,8,00,00,00,00,00,00,00,00,
-1666864168826622,0000038B,false,Rx,0,8,00,00,00,00,00,00,00,00,
-1666864168806740,1BFE221A,true,Rx,0,8,00,A6,00,00,7E,00,00,00,
-1666864168806442,1BFE2206,true,Rx,0,8,46,00,50,86,00,F2,01,04,
-1666864168806143,1BFE2215,true,Rx,0,8,60,97,9E,80,80,80,AA,9A,
-1666864168805844,1BFE2216,true,Rx,0,8,00,00,00,00,00,00,C0,FA,
-1666864168805546,1BFE2217,true,Rx,0,8,00,00,CD,B5,A6,00,00,00,
-1666864168805204,1BFE2218,true,Rx,0,8,00,00,00,00,00,00,00,00,
-1666864168804906,1BFE2219,true,Rx,0,8,00,00,00,00,00,00,00,00,
-1666864168804607,1BFE221B,true,Rx,0,8,00,00,00,00,00,00,00,00,
-1666864168804266,1BFE221C,true,Rx,0,8,00,00,3F,00,00,00,00,00,
-1666864168803967,1BFE221E,true,Rx,0,8,7D,01,00,00,00,00,00,00,
-1666864168803668,1BFE2222,true,Rx,0,8,00,00,58,00,7E,1C,00,00,
-1666864168803327,1BFE2223,true,Rx,0,8,11,01,00,00,00,00,00,00,
-1666864168803028,1BFE2225,true,Rx,0,8,00,00,00,00,00,00,00,00,
-1666864168802687,1BFE2227,true,Rx,0,8,00,00,00,00,00,04,00,00,
-1666864168802388,1BFE2232,true,Rx,0,8,00,00,00,00,00,00,00,00,
-1666864168802047,1BFE2235,true,Rx,0,8,81,04,00,00,00,00,00,00,
-1666864168801749,1BFE2238,true,Rx,0,8,00,00,32,00,01,01,00,00,
-1666864168801407,1BFE2239,true,Rx,0,8,00,01,01,00,00,00,00,00,
-1666864168801109,1BFE223A,true,Rx,0,8,04,01,00,00,5B,00,00,00,
-1666864168800767,1BFE223B,true,Rx,0,8,0A,00,00,00,00,00,00,00,
-1666864168800469,1BFE223C,true,Rx,0,8,22,00,00,00,00,00,00,00,
-1666864168800127,1BFE223D,true,Rx,0,8,00,00,00,00,00,00,00,5C,
-1666864168799786,1BFE2248,true,Rx,0,8,00,00,00,00,00,00,00,00,
-1666864168736643,1BFE2234,true,Rx,0,8,00,00,00,00,00,00,00,00,
-1666864168726660,0000038B,false,Rx,0,8,00,00,00,00,00,00,00,00,
-1666864168716634,0000067E,false,Rx,0,8,19,02,00,00,5B,00,00,40,
-1666864168706778,1BFE221A,true,Rx,0,8,00,A6,00,00,7E,00,00,00,
-1666864168706437,1BFE2202,true,Rx,0,8,90,21,43,06,00,00,00,07,
-1666864168706181,1BFE2206,true,Rx,0,8,46,00,55,86,00,F2,01,04,
-1666864168705840,1BFE2208,true,Rx,0,8,32,00,00,00,00,00,00,00,
-1666864168705515,1BFE2215,true,Rx,0,8,60,97,9E,80,80,80,AA,9A,
-1666864168705217,1BFE2216,true,Rx,0,8,00,00,00,00,00,00,BF,FA,
-1666864168704918,1BFE2217,true,Rx,0,8,00,00,CD,B4,A6,00,00,00,
-1666864168704619,1BFE2218,true,Rx,0,8,00,00,00,00,00,00,00,00,
-1666864168704278,1BFE2219,true,Rx,0,8,00,00,00,00,00,00,00,00,
-1666864168703979,1BFE221B,true,Rx,0,8,00,00,00,00,00,00,00,00,
-1666864168703638,1BFE221C,true,Rx,0,8,00,00,3F,00,00,00,00,00,
-1666864168703339,1BFE221E,true,Rx,0,8,7D,01,00,00,00,00,00,00,
-1666864168703041,1BFE2222,true,Rx,0,8,00,08,58,00,7E,1C,00,00,
-1666864168702742,1BFE2223,true,Rx,0,8,11,01,00,00,00,00,00,00,
-1666864168702401,1BFE2225,true,Rx,0,8,00,00,00,00,00,00,00,00,
-1666864168702102,1BFE2227,true,Rx,0,8,00,00,00,00,00,04,00,00,
-1666864168701761,1BFE2232,true,Rx,0,8,00,00,00,00,00,00,00,00,
-1666864168701462,1BFE2235,true,Rx,0,8,81,04,00,00,00,00,00,00,
-1666864168701121,1BFE2238,true,Rx,0,8,00,00,32,00,01,01,00,00,
-1666864168700779,1BFE2239,true,Rx,0,8,00,01,01,00,00,00,00,00,
-1666864168700481,1BFE223A,true,Rx,0,8,04,01,00,00,51,00,06,00,
-1666864168700182,1BFE223B,true,Rx,0,8,14,00,00,00,00,00,00,00,
-1666864168699841,1BFE223C,true,Rx,0,8,22,00,00,00,00,00,00,00,
-1666864168699500,1BFE223D,true,Rx,0,8,00,00,00,00,00,00,00,5C,
-1666864168699158,1BFE2248,true,Rx,0,8,00,00,00,00,00,00,00,00,
-1666864168626629,0000038B,false,Rx,0,8,00,00,00,00,00,00,00,00,
-1666864168606748,1BFE221A,true,Rx,0,8,00,A5,00,00,7E,00,00,00,
-1666864168606449,1BFE2206,true,Rx,0,8,46,00,5E,86,00,F2,01,04,
-1666864168606151,1BFE2215,true,Rx,0,8,60,97,9E,80,80,80,AA,9A,
-1666864168605852,1BFE2216,true,Rx,0,8,00,00,00,00,00,00,BF,FA,
-1666864168605553,1BFE2217,true,Rx,0,8,00,00,CD,B4,A5,00,00,00,
-1666864168605212,1BFE2218,true,Rx,0,8,00,00,00,00,00,00,00,00,
-1666864168604913,1BFE2219,true,Rx,0,8,00,00,00,00,00,00,00,00,
-1666864168604572,1BFE221B,true,Rx,0,8,00,00,00,00,00,00,00,00,
-1666864168604274,1BFE221C,true,Rx,0,8,00,00,3F,00,00,00,00,00,
-1666864168603975,1BFE221E,true,Rx,0,8,7D,01,00,00,00,00,00,00,
-1666864168603676,1BFE2222,true,Rx,0,8,00,08,D8,00,7E,1C,00,00,
-1666864168603335,1BFE2223,true,Rx,0,8,11,01,00,00,00,00,00,00,
-1666864168603036,1BFE2225,true,Rx,0,8,00,00,00,00,00,00,00,00,
-1666864168602695,1BFE2227,true,Rx,0,8,00,00,00,00,00,04,00,00,
-1666864168602396,1BFE2232,true,Rx,0,8,00,00,00,00,00,00,00,00,
-1666864168602055,1BFE2235,true,Rx,0,8,81,04,00,00,00,00,00,00,
-1666864168601756,1BFE2238,true,Rx,0,8,00,00,32,00,01,01,00,00,
-1666864168601415,1BFE2239,true,Rx,0,8,00,01,01,00,00,00,00,00,
-1666864168601116,1BFE223A,true,Rx,0,8,04,01,00,00,5B,00,00,00,
-1666864168600775,1BFE223B,true,Rx,0,8,0A,00,00,00,00,00,00,00,
-1666864168600476,1BFE223C,true,Rx,0,8,22,00,00,00,00,00,00,00,
-1666864168600135,1BFE223D,true,Rx,0,8,00,00,00,00,00,00,00,5C,
-1666864168599794,1BFE2248,true,Rx,0,8,00,00,00,00,00,00,00,00,
-1666864168526668,0000038B,false,Rx,0,8,00,00,00,00,00,00,00,00,
-1666864168506786,1BFE220A,true,Rx,0,8,02,02,02,02,00,00,01,02,
-1666864168506445,1BFE2206,true,Rx,0,8,46,00,60,86,00,F0,01,04,
-1666864168506146,1BFE220E,true,Rx,0,8,00,00,00,00,00,00,00,00,
-1666864168505848,1BFE220F,true,Rx,0,8,00,00,00,10,10,00,00,00,
-1666864168505506,1BFE2210,true,Rx,0,8,00,00,00,10,10,00,00,00,
-1666864168505208,1BFE2211,true,Rx,0,8,00,00,00,00,00,00,00,00,
-1666864168504909,1BFE2215,true,Rx,0,8,60,97,9E,80,80,80,AA,9A,
-1666864168504610,1BFE2216,true,Rx,0,8,00,00,00,00,00,00,C0,FA,
-1666864168504312,1BFE2217,true,Rx,0,8,00,00,CD,B5,A6,00,00,00,
-1666864168503970,1BFE2218,true,Rx,0,8,00,00,00,00,00,00,00,00,
-1666864168503672,1BFE2219,true,Rx,0,8,00,00,00,00,00,00,00,00,
-1666864168503373,1BFE221A,true,Rx,0,8,00,A5,00,00,7E,00,00,00,
-1666864168503032,1BFE221B,true,Rx,0,8,00,00,00,00,00,00,00,00,
-1666864168502733,1BFE221C,true,Rx,0,8,00,00,3F,00,00,00,00,00,
-1666864168502392,1BFE221E,true,Rx,0,8,7D,01,00,00,00,00,00,00,
-1666864168502093,1BFE2222,true,Rx,0,8,00,28,D8,00,7E,1C,00,00,
-1666864168501795,1BFE2223,true,Rx,0,8,11,01,00,00,00,00,00,00,
-1666864168501453,1BFE2225,true,Rx,0,8,00,00,00,00,00,00,00,00,
-1666864168501155,1BFE2227,true,Rx,0,8,00,00,00,00,00,04,00,00,
-1666864168500856,1BFE2232,true,Rx,0,8,00,00,00,00,00,00,00,00,
-1666864168500515,1BFE2235,true,Rx,0,8,81,04,00,00,00,00,00,00,
-1666864168500173,1BFE2238,true,Rx,0,8,00,00,32,00,01,01,00,00,
-1666864168499875,1BFE2239,true,Rx,0,8,00,01,01,00,00,00,00,00,
-1666864168499576,1BFE223A,true,Rx,0,8,04,01,00,00,51,00,06,00,
-1666864168499235,1BFE223B,true,Rx,0,8,14,00,00,00,00,00,00,00,
-1666864168498893,1BFE223C,true,Rx,0,8,22,00,00,00,00,00,00,00,
-1666864168498595,1BFE223D,true,Rx,0,8,00,00,00,00,00,00,00,5C,
-1666864168498253,1BFE2248,true,Rx,0,8,00,00,00,00,00,00,00,00,
-1666864168426663,0000038B,false,Rx,0,8,00,00,00,00,00,00,00,00,
-1666864168406782,1BFE221A,true,Rx,0,8,00,A5,00,00,7E,00,00,00,
-1666864168406483,1BFE2206,true,Rx,0,8,46,00,67,86,00,F0,01,04,
-1666864168406185,1BFE2215,true,Rx,0,8,60,97,9E,80,80,80,AA,9A,
-1666864168405886,1BFE2216,true,Rx,0,8,00,00,00,00,00,00,BF,FA,
-1666864168405545,1BFE2217,true,Rx,0,8,00,00,CD,B4,A5,00,00,00,
-1666864168405246,1BFE2218,true,Rx,0,8,00,00,00,00,00,00,00,00,
-1666864168404947,1BFE2219,true,Rx,0,8,00,00,00,00,00,00,00,00,
-1666864168404606,1BFE221B,true,Rx,0,8,00,00,00,00,00,00,00,00,
-1666864168404307,1BFE221C,true,Rx,0,8,00,00,3F,00,00,00,00,00,
-1666864168404009,1BFE221E,true,Rx,0,8,7D,01,00,00,00,00,00,00,
-1666864168403667,1BFE2222,true,Rx,0,8,00,28,D8,00,7E,1C,00,00,
-1666864168403369,1BFE2223,true,Rx,0,8,11,01,00,00,00,00,00,00,
-1666864168403070,1BFE2225,true,Rx,0,8,00,00,00,00,00,00,00,00,
-1666864168402729,1BFE2227,true,Rx,0,8,00,00,00,00,00,04,00,00,
-1666864168402430,1BFE2232,true,Rx,0,8,00,00,00,00,00,00,00,00,
-1666864168402089,1BFE2235,true,Rx,0,8,81,04,00,00,00,00,00,00,
-1666864168401790,1BFE2238,true,Rx,0,8,00,00,32,00,01,01,00,00,
-1666864168401449,1BFE2239,true,Rx,0,8,00,01,01,00,00,00,00,00,
-1666864168401150,1BFE223A,true,Rx,0,8,04,01,00,00,5B,00,00,00,
-1666864168400809,1BFE223B,true,Rx,0,8,0A,00,00,00,00,00,00,00,
-1666864168400468,1BFE223C,true,Rx,0,8,22,00,00,00,00,00,00,00,
-1666864168400169,1BFE223D,true,Rx,0,8,00,00,00,00,00,00,00,5C,
-1666864168399828,1BFE2248,true,Rx,0,8,00,00,00,00,00,00,00,00,
-1666864168326702,0000038B,false,Rx,0,8,00,00,00,00,00,00,00,00,
-1666864168316675,00000564,false,Rx,0,8,52,86,36,00,F8,27,3D,00,
-1666864168306777,1BFE221A,true,Rx,0,8,00,A5,00,00,7E,00,00,00,
-1666864168306479,1BFE2206,true,Rx,0,8,46,00,6D,86,00,F0,01,04,
-1666864168306180,1BFE2215,true,Rx,0,8,60,97,9E,80,80,80,AA,9A,
-1666864168305881,1BFE2216,true,Rx,0,8,00,00,00,00,00,00,C0,FA,
-1666864168305583,1BFE2217,true,Rx,0,8,00,00,CD,B5,A6,00,00,00,
-1666864168305242,1BFE2218,true,Rx,0,8,00,00,00,00,00,00,00,00,
-1666864168304943,1BFE2219,true,Rx,0,8,00,00,00,00,00,00,00,00,
-1666864168304644,1BFE221B,true,Rx,0,8,00,00,00,00,00,00,00,00,
-1666864168304303,1BFE221C,true,Rx,0,8,00,00,3F,00,00,00,00,00,
-1666864168304004,1BFE221E,true,Rx,0,8,7D,01,00,00,00,00,00,00,
-1666864168303706,1BFE2222,true,Rx,0,8,00,28,D8,00,7E,1C,00,00,
-1666864168303364,1BFE2223,true,Rx,0,8,11,01,00,00,00,00,00,00,
-1666864168303066,1BFE2225,true,Rx,0,8,00,00,00,00,00,00,00,00,
-1666864168302724,1BFE2227,true,Rx,0,8,00,00,00,00,00,04,00,00,
-1666864168302426,1BFE2232,true,Rx,0,8,00,00,00,00,00,00,00,00,
-1666864168302084,1BFE2235,true,Rx,0,8,81,04,00,00,00,00,00,00,
-1666864168301786,1BFE2238,true,Rx,0,8,00,00,32,00,01,01,00,00,
-1666864168301444,1BFE2239,true,Rx,0,8,00,01,01,00,00,00,00,00,
-1666864168301146,1BFE223A,true,Rx,0,8,04,01,00,00,51,00,06,00,
-1666864168300804,1BFE223B,true,Rx,0,8,14,00,00,00,00,00,00,00,
-1666864168300506,1BFE223C,true,Rx,0,8,22,00,00,00,00,00,00,00,
-1666864168300165,1BFE223D,true,Rx,0,8,00,00,00,00,00,00,00,5C,
-1666864168299823,1BFE2248,true,Rx,0,8,00,00,00,00,00,00,00,00,
-1666864168226697,0000038B,false,Rx,0,8,00,00,00,00,00,00,00,00,
-1666864168206816,1BFE221A,true,Rx,0,8,00,A5,00,00,7E,00,00,00,
-1666864168206517,1BFE2206,true,Rx,0,8,46,00,72,86,00,F0,01,04,
-1666864168206218,1BFE2215,true,Rx,0,8,60,97,9E,80,80,80,AA,9A,
-1666864168205877,1BFE2216,true,Rx,0,8,00,00,00,00,00,00,C0,FA,
-1666864168205578,1BFE2217,true,Rx,0,8,00,00,CD,B5,A5,00,00,00,
-1666864168205280,1BFE2218,true,Rx,0,8,00,00,00,00,00,00,00,00,
-1666864168204938,1BFE2219,true,Rx,0,8,00,00,00,00,00,00,00,00,
-1666864168204640,1BFE221B,true,Rx,0,8,00,00,00,00,00,00,00,00,
-1666864168204341,1BFE221C,true,Rx,0,8,00,00,3F,00,00,00,00,00,
-1666864168204000,1BFE221E,true,Rx,0,8,7D,01,00,00,00,00,00,00,
-1666864168203701,1BFE2222,true,Rx,0,8,00,28,D8,00,7E,1C,00,00,
-1666864168203403,1BFE2223,true,Rx,0,8,11,01,00,00,00,00,00,00,
-1666864168203061,1BFE2225,true,Rx,0,8,00,00,00,00,00,00,00,00,
-1666864168202763,1BFE2227,true,Rx,0,8,00,00,00,00,00,04,00,00,
-1666864168202421,1BFE2232,true,Rx,0,8,00,00,00,00,00,00,00,00,
-1666864168202123,1BFE2235,true,Rx,0,8,81,04,00,00,00,00,00,00,
-1666864168201781,1BFE2238,true,Rx,0,8,00,00,32,00,01,01,00,00,
-1666864168201483,1BFE2239,true,Rx,0,8,00,01,01,00,00,00,00,00,
-1666864168201141,1BFE223A,true,Rx,0,8,04,01,00,00,5B,00,00,00,
-1666864168200843,1BFE223B,true,Rx,0,8,0A,00,00,00,00,00,00,00,
-1666864168200501,1BFE223C,true,Rx,0,8,22,00,00,00,00,00,00,00,
-1666864168200160,1BFE223D,true,Rx,0,8,00,00,00,00,00,00,00,5C,
-1666864168199861,1BFE2248,true,Rx,0,8,00,00,00,00,00,00,00,00,
-1666864168126693,0000038B,false,Rx,0,8,00,00,00,00,00,00,00,00,
-1666864168106811,1BFE221A,true,Rx,0,8,00,A6,00,00,7E,00,00,00,
-1666864168106513,1BFE2206,true,Rx,0,8,46,00,73,86,00,F0,01,04,
-1666864168106214,1BFE2215,true,Rx,0,8,60,97,9E,80,80,80,AA,9A,
-1666864168105915,1BFE2216,true,Rx,0,8,00,00,00,00,00,00,C0,FA,
-1666864168105574,1BFE2217,true,Rx,0,8,00,00,CD,B5,A6,00,00,00,
-1666864168105275,1BFE2218,true,Rx,0,8,00,00,00,00,00,00,00,00,
-1666864168104977,1BFE2219,true,Rx,0,8,00,00,00,00,00,00,00,00,
-1666864168104635,1BFE221B,true,Rx,0,8,00,00,00,00,00,00,00,00,
-1666864168104337,1BFE221C,true,Rx,0,8,00,00,3F,00,00,00,00,00,
-1666864168103995,1BFE221E,true,Rx,0,8,7D,01,00,00,00,00,00,00,
-1666864168103697,1BFE2222,true,Rx,0,8,00,28,D8,00,7E,1C,00,00,
-1666864168103398,1BFE2223,true,Rx,0,8,11,01,00,00,00,00,00,00,
-1666864168103057,1BFE2225,true,Rx,0,8,00,00,00,00,00,00,00,00,
-1666864168102758,1BFE2227,true,Rx,0,8,00,00,00,00,00,04,00,00,
-1666864168102417,1BFE2232,true,Rx,0,8,00,00,00,00,00,00,00,00,
-1666864168102118,1BFE2235,true,Rx,0,8,81,04,00,00,00,00,00,00,
-1666864168101777,1BFE2238,true,Rx,0,8,00,00,32,00,01,01,00,00,
-1666864168101478,1BFE2239,true,Rx,0,8,00,01,01,00,00,00,00,00,
-1666864168101180,1BFE223A,true,Rx,0,8,04,01,00,00,51,00,06,00,
-1666864168100838,1BFE223B,true,Rx,0,8,14,00,00,00,00,00,00,00,
-1666864168100497,1BFE223C,true,Rx,0,8,22,00,00,00,00,00,00,00,
-1666864168100198,1BFE223D,true,Rx,0,8,00,00,00,00,00,00,00,5C,
-1666864168099857,1BFE2248,true,Rx,0,8,00,00,00,00,00,00,00,00,
-1666864168026731,0000038B,false,Rx,0,8,00,00,00,00,00,00,00,00,
-1666864168006807,1BFE221A,true,Rx,0,8,00,A5,00,00,7E,00,00,00,
-1666864168006508,1BFE2206,true,Rx,0,8,46,00,78,86,00,F0,01,04,
-1666864168006210,1BFE2215,true,Rx,0,8,60,97,9E,80,80,80,AA,9A,
-1666864168005911,1BFE2216,true,Rx,0,8,00,00,00,00,00,00,BF,FA,
-1666864168005612,1BFE2217,true,Rx,0,8,00,00,CD,B5,A6,00,00,00,
-1666864168005314,1BFE2218,true,Rx,0,8,00,00,00,00,00,00,00,00,
-1666864168004972,1BFE2219,true,Rx,0,8,00,00,00,00,00,00,00,00,
-1666864168004674,1BFE221B,true,Rx,0,8,00,00,00,00,00,00,00,00,
-1666864168004332,1BFE221C,true,Rx,0,8,00,00,3F,00,00,00,00,00,
-1666864168004034,1BFE221E,true,Rx,0,8,7D,01,00,00,00,00,00,00,
-1666864168003735,1BFE2222,true,Rx,0,8,00,28,D8,00,7E,1C,00,00,
-1666864168003394,1BFE2223,true,Rx,0,8,11,01,00,00,00,00,00,00,
-1666864168003095,1BFE2225,true,Rx,0,8,00,00,00,00,00,00,00,00,
-1666864168002754,1BFE2227,true,Rx,0,8,00,00,00,00,00,04,00,00,
-1666864168002455,1BFE2232,true,Rx,0,8,00,00,00,00,00,00,00,00,
-1666864168002114,1BFE2235,true,Rx,0,8,81,04,00,00,00,00,00,00,
-1666864168001815,1BFE2238,true,Rx,0,8,00,00,32,00,01,01,00,00,
-1666864168001474,1BFE2239,true,Rx,0,8,00,01,01,00,00,00,00,00,
-1666864168001175,1BFE223A,true,Rx,0,8,04,01,00,00,5B,00,00,00,
-1666864168000834,1BFE223B,true,Rx,0,8,0A,00,00,00,00,00,00,00,
-1666864168000535,1BFE223C,true,Rx,0,8,22,00,00,00,00,00,00,00,
-1666864168000194,1BFE223D,true,Rx,0,8,00,00,00,00,00,00,00,5C,
-1666864167999853,1BFE2248,true,Rx,0,8,00,00,00,00,00,00,00,00,
-1666864167926727,0000038B,false,Rx,0,8,00,00,00,00,00,00,00,00,
-1666864167906845,1BFE221A,true,Rx,0,8,00,A6,00,00,7E,00,00,00,
-1666864167906546,1BFE2206,true,Rx,0,8,46,00,7C,86,00,F0,01,04,
-1666864167906248,1BFE2207,true,Rx,0,8,46,00,00,88,00,02,00,04,
-1666864167905949,1BFE2215,true,Rx,0,8,60,97,9E,80,80,80,AA,9A,
-1666864167905608,1BFE2216,true,Rx,0,8,00,00,00,00,00,00,C0,FA,
-1666864167905309,1BFE2217,true,Rx,0,8,00,00,CD,B5,A6,00,00,00,
-1666864167905011,1BFE2218,true,Rx,0,8,00,00,00,00,00,00,00,00,
-1666864167904669,1BFE2219,true,Rx,0,8,00,00,00,00,00,00,00,00,
-1666864167904371,1BFE221B,true,Rx,0,8,00,00,00,00,00,00,00,00,
-1666864167904029,1BFE221C,true,Rx,0,8,00,00,3F,00,00,00,00,00,
-1666864167903731,1BFE221E,true,Rx,0,8,7D,01,00,00,00,00,00,00,
-1666864167903432,1BFE2222,true,Rx,0,8,00,28,D8,00,7E,1C,00,00,
-1666864167903133,1BFE2223,true,Rx,0,8,11,01,00,00,00,00,00,00,
-1666864167902792,1BFE2225,true,Rx,0,8,00,00,00,00,00,00,00,00,
-1666864167902493,1BFE2227,true,Rx,0,8,00,00,00,00,00,04,00,00,
-1666864167902152,1BFE2232,true,Rx,0,8,00,00,00,00,00,00,00,00,
-1666864167901811,1BFE2235,true,Rx,0,8,81,04,00,00,00,00,00,00,
-1666864167901512,1BFE2238,true,Rx,0,8,00,00,32,00,01,01,00,00,
-1666864167901171,1BFE2239,true,Rx,0,8,00,01,01,00,00,00,00,00,
-1666864167900872,1BFE223A,true,Rx,0,8,04,01,00,00,51,00,06,00,
-1666864167900531,1BFE223B,true,Rx,0,8,14,00,00,00,00,00,00,00,
-1666864167900232,1BFE223C,true,Rx,0,8,22,00,00,00,00,00,00,00,
-1666864167899891,1BFE223D,true,Rx,0,8,00,00,00,00,00,00,00,5C,
-1666864167899592,1BFE2248,true,Rx,0,8,00,00,00,00,00,00,00,00,
-1666864167826765,0000038B,false,Rx,0,8,00,00,00,00,00,00,00,00,
-1666864167806841,1BFE221A,true,Rx,0,8,00,A5,00,00,7E,00,00,00,
-1666864167806542,1BFE2206,true,Rx,0,8,46,00,7D,86,00,F0,01,04,
-1666864167806243,1BFE2209,true,Rx,0,8,00,00,01,00,80,2F,00,00,
-1666864167805945,1BFE2215,true,Rx,0,8,60,97,9E,80,80,80,AA,9A,
-1666864167805646,1BFE2216,true,Rx,0,8,00,00,00,00,00,00,BF,FA,
-1666864167805305,1BFE2217,true,Rx,0,8,00,00,CD,B5,A5,00,00,00,
-1666864167805006,1BFE2218,true,Rx,0,8,00,00,00,00,00,00,00,00,
-1666864167804707,1BFE2219,true,Rx,0,8,00,00,00,00,00,00,00,00,
-1666864167804366,1BFE221B,true,Rx,0,8,00,00,00,00,00,00,00,00,
-1666864167804068,1BFE221C,true,Rx,0,8,00,00,3F,00,00,00,00,00,
-1666864167803769,1BFE221E,true,Rx,0,8,7D,01,00,00,00,00,00,00,
-1666864167803428,1BFE2222,true,Rx,0,8,00,28,D8,00,7E,1C,00,00,
-1666864167803129,1BFE2223,true,Rx,0,8,11,01,00,00,00,00,00,00,
-1666864167802830,1BFE2225,true,Rx,0,8,00,00,00,00,00,00,00,00,
-1666864167802489,1BFE2227,true,Rx,0,8,00,00,00,00,00,04,00,00,
-1666864167802190,1BFE2232,true,Rx,0,8,00,00,00,00,00,00,00,00,
-1666864167801849,1BFE2235,true,Rx,0,8,81,04,00,00,00,00,00,00,
-1666864167801508,1BFE2238,true,Rx,0,8,00,00,32,00,01,01,00,00,
-1666864167801209,1BFE2239,true,Rx,0,8,00,01,01,00,00,00,00,00,
-1666864167800910,1BFE223A,true,Rx,0,8,04,01,00,00,5B,00,00,00,
-1666864167800569,1BFE223B,true,Rx,0,8,0A,00,00,00,00,00,00,00,
-1666864167800228,1BFE223C,true,Rx,0,8,22,00,00,00,00,00,00,00,
-1666864167799929,1BFE223D,true,Rx,0,8,00,00,00,00,00,00,00,5C,
-1666864167799588,1BFE2248,true,Rx,0,8,00,00,00,00,00,00,00,00,
-1666864167726760,0000038B,false,Rx,0,8,00,00,00,00,00,00,00,00,
-1666864167716734,0000067E,false,Rx,0,8,18,03,00,00,5B,00,00,40,
-1666864167706879,1BFE221A,true,Rx,0,8,00,A6,00,00,7E,00,00,00,
-1666864167706580,1BFE2206,true,Rx,0,8,46,00,7E,86,00,F0,01,04,
-1666864167706282,1BFE2215,true,Rx,0,8,60,97,9E,80,80,80,AA,9A,
-1666864167705940,1BFE2216,true,Rx,0,8,00,00,00,00,00,00,C0,FA,
-1666864167705672,1BFE2217,true,Rx,0,8,00,00,CD,B5,A6,00,00,00,
-1666864167705373,1BFE2218,true,Rx,0,8,00,00,00,00,00,00,00,00,
-1666864167705032,1BFE2219,true,Rx,0,8,00,00,00,00,00,00,00,00,
-1666864167704733,1BFE221B,true,Rx,0,8,00,00,00,00,00,00,00,00,
-1666864167704392,1BFE221C,true,Rx,0,8,00,00,3F,00,00,00,00,00,
-1666864167704093,1BFE221E,true,Rx,0,8,7D,01,00,00,00,00,00,00,
-1666864167703794,1BFE2222,true,Rx,0,8,00,28,D8,00,7E,1C,00,00,
-1666864167703496,1BFE2223,true,Rx,0,8,11,01,00,00,00,00,00,00,
-1666864167703155,1BFE2225,true,Rx,0,8,00,00,00,00,00,00,00,00,
-1666864167702856,1BFE2227,true,Rx,0,8,00,00,00,00,00,04,00,00,
-1666864167702515,1BFE2232,true,Rx,0,8,00,00,00,00,00,00,00,00,
-1666864167702216,1BFE2235,true,Rx,0,8,81,04,00,00,00,00,00,00,
-1666864167701875,1BFE2238,true,Rx,0,8,00,00,32,00,01,01,00,00,
-1666864167701533,1BFE2239,true,Rx,0,8,00,01,01,00,00,00,00,00,
-1666864167701235,1BFE223A,true,Rx,0,8,04,01,00,00,51,00,06,00,
-1666864167700936,1BFE223B,true,Rx,0,8,14,00,00,00,00,00,00,00,
-1666864167700595,1BFE223C,true,Rx,0,8,22,00,00,00,00,00,00,00,
-1666864167700253,1BFE223D,true,Rx,0,8,00,00,00,00,00,00,00,5C,
-1666864167699955,1BFE2248,true,Rx,0,8,00,00,00,00,00,00,00,00,
-1666864167626786,0000038B,false,Rx,0,8,00,00,00,00,00,00,00,00,
-1666864167606905,1BFE221A,true,Rx,0,8,00,A5,00,00,7E,00,00,00,
-1666864167606606,1BFE2206,true,Rx,0,8,46,00,81,86,00,F0,01,04,
-1666864167606307,1BFE2215,true,Rx,0,8,60,97,9E,80,80,80,AA,9A,
-1666864167606009,1BFE2216,true,Rx,0,8,00,00,00,00,00,00,C0,FA,
-1666864167605667,1BFE2217,true,Rx,0,8,00,00,CD,B5,A6,00,00,00,
-1666864167605369,1BFE2218,true,Rx,0,8,00,00,00,00,00,00,00,00,
-1666864167605070,1BFE2219,true,Rx,0,8,00,00,00,00,00,00,00,00,
-1666864167604729,1BFE221B,true,Rx,0,8,00,00,00,00,00,00,00,00,
-1666864167604430,1BFE221C,true,Rx,0,8,00,00,3F,00,00,00,00,00,
-1666864167604089,1BFE221E,true,Rx,0,8,7D,01,00,00,00,00,00,00,
-1666864167603790,1BFE2222,true,Rx,0,8,00,28,D8,00,7E,1C,00,00,
-1666864167603491,1BFE2223,true,Rx,0,8,11,01,00,00,00,00,00,00,
-1666864167603150,1BFE2225,true,Rx,0,8,00,00,00,00,00,00,00,00,
-1666864167602851,1BFE2227,true,Rx,0,8,00,00,00,00,00,04,00,00,
-1666864167602510,1BFE2232,true,Rx,0,8,00,00,00,00,00,00,00,00,
-1666864167602211,1BFE2235,true,Rx,0,8,81,04,00,00,00,00,00,00,
-1666864167601870,1BFE2238,true,Rx,0,8,00,00,32,00,01,01,00,00,
-1666864167601572,1BFE2239,true,Rx,0,8,00,01,01,00,00,00,00,00,
-1666864167601230,1BFE223A,true,Rx,0,8,04,01,00,00,5B,00,00,00,
-1666864167600932,1BFE223B,true,Rx,0,8,0A,00,00,00,00,00,00,00,
-1666864167600590,1BFE223C,true,Rx,0,8,22,00,00,00,00,00,00,00,
-1666864167600292,1BFE223D,true,Rx,0,8,00,00,00,00,00,00,00,5C,
-1666864167599950,1BFE2248,true,Rx,0,8,00,00,00,00,00,00,00,00,
-1666864167526824,0000038B,false,Rx,0,8,00,00,00,00,00,00,00,00,
-1666864167506900,1BFE220C,true,Rx,0,8,00,00,00,00,00,00,00,00,
-1666864167506601,1BFE2205,true,Rx,0,8,45,45,00,00,00,41,09,12,
-1666864167506303,1BFE220D,true,Rx,0,8,00,00,00,00,00,00,00,00,
-1666864167506004,1BFE2215,true,Rx,0,8,60,97,9E,80,80,80,AA,9A,
-1666864167505706,1BFE2216,true,Rx,0,8,00,00,00,00,00,00,C0,FA,
-1666864167505407,1BFE2217,true,Rx,0,8,00,00,CD,B5,A6,00,00,00,
-1666864167505066,1BFE2218,true,Rx,0,8,00,00,00,00,00,00,00,00,
-1666864167504767,1BFE2219,true,Rx,0,8,00,00,00,00,00,00,00,00,
-1666864167504426,1BFE221A,true,Rx,0,8,00,A5,00,00,7E,00,00,00,
-1666864167504127,1BFE221B,true,Rx,0,8,00,00,00,00,00,00,00,00,
-1666864167503828,1BFE221C,true,Rx,0,8,00,00,3F,00,00,00,00,00,
-1666864167503487,1BFE221E,true,Rx,0,8,7D,01,00,00,00,00,00,00,
-1666864167503188,1BFE2222,true,Rx,0,8,00,28,D8,00,7E,1C,00,00,
-1666864167502890,1BFE2223,true,Rx,0,8,11,01,00,00,00,00,00,00,
-1666864167502548,1BFE2225,true,Rx,0,8,00,00,00,00,00,00,00,00,
-1666864167502250,1BFE2227,true,Rx,0,8,00,00,00,00,00,04,00,00,
-1666864167501908,1BFE2232,true,Rx,0,8,00,00,00,00,00,00,00,00,
-1666864167501610,1BFE2235,true,Rx,0,8,81,04,00,00,00,00,00,00,
-1666864167501268,1BFE2238,true,Rx,0,8,00,00,32,00,01,01,00,00,
-1666864167500970,1BFE2239,true,Rx,0,8,00,01,01,00,00,00,00,00,
-1666864167500628,1BFE223A,true,Rx,0,8,04,01,00,00,51,00,06,00,
-1666864167500330,1BFE223B,true,Rx,0,8,14,00,00,00,00,00,00,00,
-1666864167499989,1BFE223C,true,Rx,0,8,22,00,00,00,00,00,00,00,
-1666864167499690,1BFE223D,true,Rx,0,8,00,00,00,00,00,00,00,5C,
-1666864167499349,1BFE2248,true,Rx,0,8,00,00,00,00,00,00,00,00,
-1666864167426820,0000038B,false,Rx,0,8,00,00,00,00,00,00,00,00,
-1666864167406938,1BFE220B,true,Rx,0,8,00,00,00,00,00,00,11,00,
-1666864167406640,1BFE2205,true,Rx,0,8,45,45,00,00,00,41,09,14,
-1666864167406341,1BFE2206,true,Rx,0,8,46,00,85,86,00,F0,01,04,
-1666864167406042,1BFE2215,true,Rx,0,8,60,97,9E,80,80,80,AA,9A,
-1666864167405744,1BFE2216,true,Rx,0,8,00,00,00,00,00,00,BF,FA,
-1666864167405445,1BFE2217,true,Rx,0,8,00,00,CD,B4,A5,00,00,00,
-1666864167405104,1BFE2218,true,Rx,0,8,00,00,00,00,00,00,00,00,
-1666864167404805,1BFE2219,true,Rx,0,8,00,00,00,00,00,00,00,00,
-1666864167404507,1BFE221A,true,Rx,0,8,00,A5,00,00,7E,00,00,00,
-1666864167404165,1BFE221B,true,Rx,0,8,00,00,00,00,00,00,00,00,
-1666864167403867,1BFE221C,true,Rx,0,8,00,00,3F,00,00,00,00,00,
-1666864167403568,1BFE221E,true,Rx,0,8,7D,01,00,00,00,00,00,00,
-1666864167403227,1BFE2222,true,Rx,0,8,00,28,D8,00,7E,1C,00,00,
-1666864167402928,1BFE2223,true,Rx,0,8,11,01,00,00,00,00,00,00,
-1666864167402629,1BFE2225,true,Rx,0,8,00,00,00,00,00,00,00,00,
-1666864167402288,1BFE2227,true,Rx,0,8,00,00,00,00,00,04,00,00,
-1666864167401989,1BFE2232,true,Rx,0,8,00,00,00,00,00,00,00,00,
-1666864167401648,1BFE2235,true,Rx,0,8,81,04,00,00,00,00,00,00,
-1666864167401349,1BFE2238,true,Rx,0,8,00,00,32,00,01,01,00,00,
-1666864167401008,1BFE2239,true,Rx,0,8,00,01,01,00,00,00,00,00,
-1666864167400709,1BFE223A,true,Rx,0,8,04,01,00,00,5B,00,00,00,
-1666864167400368,1BFE223B,true,Rx,0,8,0A,00,00,00,00,00,00,00,
-1666864167400027,1BFE223C,true,Rx,0,8,22,00,00,00,00,00,00,00,
-1666864167399728,1BFE223D,true,Rx,0,8,00,00,00,00,00,00,00,5C,
-1666864167399387,1BFE2248,true,Rx,0,8,00,00,00,00,00,00,00,00,
-1666864167326858,0000038B,false,Rx,0,8,00,00,00,00,00,00,00,00,
-1666864167316832,00000564,false,Rx,0,8,21,87,44,00,F8,27,3D,00,
-1666864167306934,1BFE221A,true,Rx,0,8,00,A6,00,00,7E,00,00,00,
-1666864167306635,1BFE2203,true,Rx,0,8,00,00,00,18,00,18,00,00,
-1666864167306337,1BFE2206,true,Rx,0,8,46,00,90,86,00,F0,01,04,
-1666864167306038,1BFE2215,true,Rx,0,8,60,97,9E,80,80,80,AA,9A,
-1666864167305697,1BFE2216,true,Rx,0,8,00,00,00,00,00,00,C0,FA,
-1666864167305398,1BFE2217,true,Rx,0,8,00,00,CD,B5,A6,00,00,00,
-1666864167305099,1BFE2218,true,Rx,0,8,00,00,00,00,00,00,00,00,
-1666864167304801,1BFE2219,true,Rx,0,8,00,00,00,00,00,00,00,00,
-1666864167304459,1BFE221B,true,Rx,0,8,00,00,00,00,00,00,00,00,
-1666864167304161,1BFE221C,true,Rx,0,8,00,00,3F,00,00,00,00,00,
-1666864167303819,1BFE221E,true,Rx,0,8,7D,01,00,00,00,00,00,00,
-1666864167303521,1BFE2222,true,Rx,0,8,00,28,D8,00,7E,1C,00,00,
-1666864167303222,1BFE2223,true,Rx,0,8,11,01,00,00,00,00,00,00,
-1666864167302881,1BFE2225,true,Rx,0,8,00,00,00,00,00,00,00,00,
-1666864167302582,1BFE2227,true,Rx,0,8,00,00,00,00,00,04,00,00,
-1666864167302241,1BFE2232,true,Rx,0,8,00,00,00,00,00,00,00,00,
-1666864167301942,1BFE2235,true,Rx,0,8,81,04,00,00,00,00,00,00,
-1666864167301601,1BFE2238,true,Rx,0,8,00,00,32,00,01,01,00,00,
-1666864167301302,1BFE2239,true,Rx,0,8,00,01,01,00,00,00,00,00,
-1666864167300961,1BFE223A,true,Rx,0,8,04,01,00,00,51,00,06,00,
-1666864167300662,1BFE223B,true,Rx,0,8,14,00,00,00,00,00,00,00,
-1666864167300321,1BFE223C,true,Rx,0,8,22,00,00,00,00,00,00,00,
-1666864167300022,1BFE223D,true,Rx,0,8,00,00,00,00,00,00,00,5C,
-1666864167299681,1BFE2248,true,Rx,0,8,00,00,00,00,00,00,00,00,
-1666864167226854,0000038B,false,Rx,0,8,00,00,00,00,00,00,00,00,
-1666864167206930,1BFE221A,true,Rx,0,8,00,A6,00,00,7E,00,00,00,
-1666864167206631,1BFE2205,true,Rx,0,8,45,45,00,00,00,41,09,12,
-1666864167206375,1BFE2206,true,Rx,0,8,46,00,92,86,00,F0,01,04,
-1666864167206034,1BFE2209,true,Rx,0,8,00,00,01,00,80,0F,00,00,
-1666864167205735,1BFE2215,true,Rx,0,8,60,97,9E,80,80,80,AA,9A,
-1666864167205436,1BFE2216,true,Rx,0,8,00,00,00,00,00,00,C0,FA,
-1666864167205138,1BFE2217,true,Rx,0,8,00,00,CD,B4,A5,00,00,00,
-1666864167204839,1BFE2218,true,Rx,0,8,00,00,00,00,00,00,00,00,
-1666864167204498,1BFE2219,true,Rx,0,8,00,00,00,00,00,00,00,00,
-1666864167204199,1BFE221B,true,Rx,0,8,00,00,00,00,00,00,00,00,
-1666864167203858,1BFE221C,true,Rx,0,8,00,00,3F,00,00,00,00,00,
-1666864167203559,1BFE221E,true,Rx,0,8,7D,01,00,00,00,00,00,00,
-1666864167203260,1BFE2222,true,Rx,0,8,00,28,D8,00,7E,1C,00,00,
-1666864167202962,1BFE2223,true,Rx,0,8,11,01,00,00,00,00,00,00,
-1666864167202620,1BFE2225,true,Rx,0,8,00,00,00,00,00,00,00,00,
-1666864167202322,1BFE2227,true,Rx,0,8,00,00,00,00,00,04,00,00,
-1666864167201980,1BFE2232,true,Rx,0,8,00,00,00,00,00,00,00,00,
-1666864167201639,1BFE2235,true,Rx,0,8,81,04,00,00,00,00,00,00,
-1666864167201341,1BFE2238,true,Rx,0,8,00,00,32,00,01,01,00,00,
-1666864167200999,1BFE2239,true,Rx,0,8,00,01,01,00,00,00,00,00,
-1666864167200701,1BFE223A,true,Rx,0,8,04,01,00,00,5B,00,00,00,
-1666864167200359,1BFE223B,true,Rx,0,8,0A,00,00,00,00,00,00,00,
-1666864167200061,1BFE223C,true,Rx,0,8,22,00,00,00,00,00,00,00,
-1666864167199719,1BFE223D,true,Rx,0,8,00,00,00,00,00,00,00,5C,
-1666864167199421,1BFE2248,true,Rx,0,8,00,00,00,00,00,00,00,00,
-1666864167126849,0000038B,false,Rx,0,8,00,00,00,00,00,00,00,00,
-1666864167106968,1BFE221A,true,Rx,0,8,00,A5,00,00,7E,00,00,00,
-1666864167106669,1BFE2205,true,Rx,0,8,45,45,00,00,00,41,09,14,
-1666864167106370,1BFE2206,true,Rx,0,8,46,00,9A,86,00,F0,01,04,
-1666864167106072,1BFE2209,true,Rx,0,8,00,00,01,00,80,2F,00,00,
-1666864167105773,1BFE2215,true,Rx,0,8,60,97,9E,80,80,80,AA,9A,
-1666864167105475,1BFE2216,true,Rx,0,8,00,00,00,00,00,00,C0,FA,
-1666864167105176,1BFE2217,true,Rx,0,8,00,00,CD,B5,A6,00,00,00,
-1666864167104835,1BFE2218,true,Rx,0,8,00,00,00,00,00,00,00,00,
-1666864167104536,1BFE2219,true,Rx,0,8,00,00,00,00,00,00,00,00,
-1666864167104195,1BFE221B,true,Rx,0,8,00,00,00,00,00,00,00,00,
-1666864167103896,1BFE221C,true,Rx,0,8,00,00,3F,00,00,00,00,00,
-1666864167103597,1BFE221E,true,Rx,0,8,7D,01,00,00,00,00,00,00,
-1666864167103256,1BFE2222,true,Rx,0,8,00,28,D8,00,7E,1C,00,00,
-1666864167102957,1BFE2223,true,Rx,0,8,11,01,00,00,00,00,00,00,
-1666864167102659,1BFE2225,true,Rx,0,8,00,00,00,00,00,00,00,00,
-1666864167102317,1BFE2227,true,Rx,0,8,00,00,00,00,00,04,00,00,
-1666864167102019,1BFE2232,true,Rx,0,8,00,00,00,00,00,00,00,00,
-1666864167101677,1BFE2235,true,Rx,0,8,81,04,00,00,00,00,00,00,
-1666864167101379,1BFE2238,true,Rx,0,8,00,00,32,00,01,01,00,00,
-1666864167101037,1BFE2239,true,Rx,0,8,00,01,01,00,00,00,00,00,
-1666864167100739,1BFE223A,true,Rx,0,8,04,01,00,00,51,00,06,00,
-1666864167100398,1BFE223B,true,Rx,0,8,14,00,00,00,00,00,00,00,
-1666864167100099,1BFE223C,true,Rx,0,8,22,00,00,00,00,00,00,00,
-1666864167099758,1BFE223D,true,Rx,0,8,00,00,00,00,00,00,00,5C,
-1666864167099416,1BFE2248,true,Rx,0,8,00,00,00,00,00,00,00,00,
-1666864167026887,0000038B,false,Rx,0,8,00,00,00,00,00,00,00,00,
-1666864167006963,1BFE221A,true,Rx,0,8,00,A5,00,00,7E,00,00,00,
-1666864167006665,1BFE2206,true,Rx,0,8,46,00,A0,86,00,F0,01,04,
-1666864167006366,1BFE2215,true,Rx,0,8,60,97,9E,80,80,80,AA,9A,
-1666864167006067,1BFE2216,true,Rx,0,8,00,00,00,00,00,00,BF,FA,
-1666864167005769,1BFE2217,true,Rx,0,8,00,00,CD,B4,A5,00,00,00,
-1666864167005470,1BFE2218,true,Rx,0,8,00,00,00,00,00,00,00,00,
-1666864167005129,1BFE2219,true,Rx,0,8,00,00,00,00,00,00,00,00,
-1666864167004830,1BFE221B,true,Rx,0,8,00,00,00,00,00,00,00,00,
-1666864167004489,1BFE221C,true,Rx,0,8,00,00,3F,00,00,00,00,00,
-1666864167004190,1BFE221E,true,Rx,0,8,7D,01,00,00,00,00,00,00,
-1666864167003892,1BFE2222,true,Rx,0,8,00,28,D8,00,7E,1C,00,00,
-1666864167003593,1BFE2223,true,Rx,0,8,11,01,00,00,00,00,00,00,
-1666864167003252,1BFE2225,true,Rx,0,8,00,00,00,00,00,00,00,00,
-1666864167002953,1BFE2227,true,Rx,0,8,00,00,00,00,00,04,00,00,
-1666864167002612,1BFE2232,true,Rx,0,8,00,00,00,00,00,00,00,00,
-1666864167002270,1BFE2235,true,Rx,0,8,81,04,00,00,00,00,00,00,
-1666864167001972,1BFE2238,true,Rx,0,8,00,00,32,00,01,01,00,00,
-1666864167001630,1BFE2239,true,Rx,0,8,00,01,01,00,00,00,00,00,
-1666864167001332,1BFE223A,true,Rx,0,8,04,01,00,00,5B,00,00,00,
-1666864167000990,1BFE223B,true,Rx,0,8,0A,00,00,00,00,00,00,00,
-1666864167000692,1BFE223C,true,Rx,0,8,22,00,00,00,00,00,00,00,
-1666864167000350,1BFE223D,true,Rx,0,8,00,00,00,00,00,00,00,5C,
-1666864167000052,1BFE2248,true,Rx,0,8,00,00,00,00,00,00,00,00,
-1666864166926883,0000038B,false,Rx,0,8,00,00,00,00,00,00,00,00,
-1666864166907002,1BFE221A,true,Rx,0,8,00,A6,00,00,7E,00,00,00,
-1666864166906703,1BFE2206,true,Rx,0,8,46,00,A4,86,00,EE,01,04,
-1666864166906404,1BFE2215,true,Rx,0,8,60,97,9E,80,80,80,AA,9A,
-1666864166906063,1BFE2216,true,Rx,0,8,00,00,00,00,00,00,C0,FA,
-1666864166905764,1BFE2217,true,Rx,0,8,00,00,CD,B5,A6,00,00,00,
-1666864166905466,1BFE2218,true,Rx,0,8,00,00,00,00,00,00,00,00,
-1666864166905124,1BFE2219,true,Rx,0,8,00,00,00,00,00,00,00,00,
-1666864166904826,1BFE221B,true,Rx,0,8,00,00,00,00,00,00,00,00,
-1666864166904527,1BFE221C,true,Rx,0,8,00,00,3F,00,00,00,00,00,
-1666864166904186,1BFE221E,true,Rx,0,8,7D,01,00,00,00,00,00,00,
-1666864166903887,1BFE2222,true,Rx,0,8,00,28,D8,00,7E,1C,00,00,
-1666864166903588,1BFE2223,true,Rx,0,8,11,01,00,00,00,00,00,00,
-1666864166903247,1BFE2225,true,Rx,0,8,00,00,00,00,00,00,00,00,
-1666864166902949,1BFE2227,true,Rx,0,8,00,00,00,00,00,04,00,00,
-1666864166902607,1BFE2232,true,Rx,0,8,00,00,00,00,00,00,00,00,
-1666864166902309,1BFE2235,true,Rx,0,8,81,04,00,00,00,00,00,00,
-1666864166901967,1BFE2238,true,Rx,0,8,00,00,32,00,01,01,00,00,
-1666864166901669,1BFE2239,true,Rx,0,8,00,01,01,00,00,00,00,00,
-1666864166901327,1BFE223A,true,Rx,0,8,04,01,00,00,51,00,06,00,
-1666864166901029,1BFE223B,true,Rx,0,8,14,00,00,00,00,00,00,00,
-1666864166900687,1BFE223C,true,Rx,0,8,22,00,00,00,00,00,00,00,
-1666864166900389,1BFE223D,true,Rx,0,8,00,00,00,00,00,00,00,5C,
-1666864166900047,1BFE2248,true,Rx,0,8,00,00,00,00,00,00,00,00,
-1666864166826879,0000038B,false,Rx,0,8,00,00,00,00,00,00,00,00,
-1666864166806997,1BFE221A,true,Rx,0,8,00,A5,00,00,7E,00,00,00,
-1666864166806699,1BFE2204,true,Rx,0,8,00,00,00,00,0F,00,00,00,
-1666864166806400,1BFE2206,true,Rx,0,8,46,00,A6,86,00,F0,01,04,
-1666864166806101,1BFE2215,true,Rx,0,8,60,97,9E,80,80,80,AA,9A,
-1666864166805803,1BFE2216,true,Rx,0,8,00,00,00,00,00,00,BF,FA,
-1666864166805461,1BFE2217,true,Rx,0,8,00,00,CD,B4,A5,00,00,00,
-1666864166805163,1BFE2218,true,Rx,0,8,00,00,00,00,00,00,00,00,
-1666864166804864,1BFE2219,true,Rx,0,8,00,00,00,00,00,00,00,00,
-1666864166804523,1BFE221B,true,Rx,0,8,00,00,00,00,00,00,00,00,
-1666864166804224,1BFE221C,true,Rx,0,8,00,00,3F,00,00,00,00,00,
-1666864166803925,1BFE221E,true,Rx,0,8,7D,01,00,00,00,00,00,00,
-1666864166803584,1BFE2222,true,Rx,0,8,00,28,D8,00,7E,1C,00,00,
-1666864166803285,1BFE2223,true,Rx,0,8,11,01,00,00,00,00,00,00,
-1666864166802987,1BFE2225,true,Rx,0,8,00,00,00,00,00,00,00,00,
-1666864166802645,1BFE2227,true,Rx,0,8,00,00,00,00,00,04,00,00,
-1666864166802347,1BFE2232,true,Rx,0,8,00,00,00,00,00,00,00,00,
-1666864166802005,1BFE2235,true,Rx,0,8,81,04,00,00,00,00,00,00,
-1666864166801664,1BFE2238,true,Rx,0,8,00,00,32,00,01,01,00,00,
-1666864166801366,1BFE2239,true,Rx,0,8,00,01,01,00,00,00,00,00,
-1666864166801067,1BFE223A,true,Rx,0,8,04,01,00,00,5B,00,00,00,
-1666864166800726,1BFE223B,true,Rx,0,8,0A,00,00,00,00,00,00,00,
-1666864166800384,1BFE223C,true,Rx,0,8,22,00,00,00,00,00,00,00,
-1666864166800086,1BFE223D,true,Rx,0,8,00,00,00,00,00,00,00,5C,
-1666864166799744,1BFE2248,true,Rx,0,8,00,00,00,00,00,00,00,00,
-1666864166726917,0000038B,false,Rx,0,8,00,00,00,00,00,00,00,00,
-1666864166716891,0000067E,false,Rx,0,8,1F,04,00,00,5B,00,00,40,
-1666864166706993,1BFE221A,true,Rx,0,8,00,A6,00,00,7E,00,00,00,
-1666864166706737,1BFE2206,true,Rx,0,8,46,00,AC,86,00,EE,01,04,
-1666864166706438,1BFE2215,true,Rx,0,8,60,97,9E,80,80,80,AA,9A,
-1666864166706097,1BFE2216,true,Rx,0,8,00,00,00,00,00,00,C0,FA,
-1666864166705768,1BFE2217,true,Rx,0,8,00,00,CD,B5,A6,00,00,00,
-1666864166705470,1BFE2218,true,Rx,0,8,00,00,00,00,00,00,00,00,
-1666864166705128,1BFE2219,true,Rx,0,8,00,00,00,00,00,00,00,00,
-1666864166704830,1BFE221B,true,Rx,0,8,00,00,00,00,00,00,00,00,
-1666864166704488,1BFE221C,true,Rx,0,8,00,00,3F,00,00,00,00,00,
-1666864166704190,1BFE221E,true,Rx,0,8,7D,01,00,00,00,00,00,00,
-1666864166703891,1BFE2222,true,Rx,0,8,00,28,D8,00,7E,1C,00,00,
-1666864166703550,1BFE2223,true,Rx,0,8,11,01,00,00,00,00,00,00,
-1666864166703251,1BFE2225,true,Rx,0,8,00,00,00,00,00,00,00,00,
-1666864166702952,1BFE2227,true,Rx,0,8,00,00,00,00,00,04,00,00,
-1666864166702611,1BFE2232,true,Rx,0,8,00,00,00,00,00,00,00,00,
-1666864166702270,1BFE2235,true,Rx,0,8,81,04,00,00,00,00,00,00,
-1666864166701971,1BFE2238,true,Rx,0,8,00,00,32,00,01,01,00,00,
-1666864166701630,1BFE2239,true,Rx,0,8,00,01,01,00,00,00,00,00,
-1666864166701331,1BFE223A,true,Rx,0,8,04,01,00,00,51,00,06,00,
-1666864166701032,1BFE223B,true,Rx,0,8,14,00,00,00,00,00,00,00,
-1666864166700691,1BFE223C,true,Rx,0,8,22,00,00,00,00,00,00,00,
-1666864166700350,1BFE223D,true,Rx,0,8,00,00,00,00,00,00,00,5C,
-1666864166700051,1BFE2248,true,Rx,0,8,00,00,00,00,00,00,00,00,
-1666864166626882,0000038B,false,Rx,0,8,00,00,00,00,00,00,00,00,
-1666864166607001,1BFE221A,true,Rx,0,8,00,A5,00,00,7E,00,00,00,
-1666864166606702,1BFE2206,true,Rx,0,8,46,00,AE,86,00,EE,01,04,
-1666864166606404,1BFE2215,true,Rx,0,8,60,97,9E,80,80,80,AA,9A,
-1666864166606105,1BFE2216,true,Rx,0,8,00,00,00,00,00,00,C0,FA,
-1666864166605764,1BFE2217,true,Rx,0,8,00,00,CD,B5,A6,00,00,00,
-1666864166605465,1BFE2218,true,Rx,0,8,00,00,00,00,00,00,00,00,
-1666864166605166,1BFE2219,true,Rx,0,8,00,00,00,00,00,00,00,00,
-1666864166604825,1BFE221B,true,Rx,0,8,00,00,00,00,00,00,00,00,
-1666864166604527,1BFE221C,true,Rx,0,8,00,00,3F,00,00,00,00,00,
-1666864166604185,1BFE221E,true,Rx,0,8,7D,01,00,00,00,00,00,00,
-1666864166603887,1BFE2222,true,Rx,0,8,00,28,D8,00,7E,1C,00,00,
-1666864166603588,1BFE2223,true,Rx,0,8,11,01,00,00,00,00,00,00,
-1666864166603247,1BFE2225,true,Rx,0,8,00,00,00,00,00,00,00,00,
-1666864166602948,1BFE2227,true,Rx,0,8,00,00,00,00,00,04,00,00,
-1666864166602607,1BFE2232,true,Rx,0,8,00,00,00,00,00,00,00,00,
-1666864166602308,1BFE2235,true,Rx,0,8,81,04,00,00,00,00,00,00,
-1666864166601967,1BFE2238,true,Rx,0,8,00,00,32,00,01,01,00,00,
-1666864166601668,1BFE2239,true,Rx,0,8,00,01,01,00,00,00,00,00,
-1666864166601327,1BFE223A,true,Rx,0,8,04,01,00,00,5B,00,00,00,
-1666864166601028,1BFE223B,true,Rx,0,8,0A,00,00,00,00,00,00,00,
-1666864166600687,1BFE223C,true,Rx,0,8,22,00,00,00,00,00,00,00,
-1666864166600388,1BFE223D,true,Rx,0,8,00,00,00,00,00,00,00,5C,
-1666864166600047,1BFE2248,true,Rx,0,8,00,00,00,00,00,00,00,00,
-1666864166526921,0000038B,false,Rx,0,8,00,00,00,00,00,00,00,00,
-1666864166506997,1BFE221A,true,Rx,0,8,00,A5,00,00,7E,00,00,00,
-1666864166506698,1BFE2206,true,Rx,0,8,46,00,B0,86,00,EE,01,04,
-1666864166506399,1BFE2215,true,Rx,0,8,60,97,9E,80,80,80,AA,9A,
-1666864166506101,1BFE2216,true,Rx,0,8,00,00,00,00,00,00,C0,FA,
-1666864166505802,1BFE2217,true,Rx,0,8,00,00,CD,B5,A6,00,00,00,
-1666864166505461,1BFE2218,true,Rx,0,8,00,00,00,00,00,00,00,00,
-1666864166505162,1BFE2219,true,Rx,0,8,00,00,00,00,00,00,00,00,
-1666864166504863,1BFE221B,true,Rx,0,8,00,00,00,00,00,00,00,00,
-1666864166504522,1BFE221C,true,Rx,0,8,00,00,3F,00,00,00,00,00,
-1666864166504223,1BFE221E,true,Rx,0,8,7D,01,00,00,00,00,00,00,
-1666864166503925,1BFE2222,true,Rx,0,8,00,28,D8,00,7E,1C,00,00,
-1666864166503583,1BFE2223,true,Rx,0,8,11,01,00,00,00,00,00,00,
-1666864166503285,1BFE2225,true,Rx,0,8,00,00,00,00,00,00,00,00,
-1666864166502944,1BFE2227,true,Rx,0,8,00,00,00,00,00,04,00,00,
-1666864166502645,1BFE2232,true,Rx,0,8,00,00,00,00,00,00,00,00,
-1666864166502304,1BFE2235,true,Rx,0,8,81,04,00,00,00,00,00,00,
-1666864166502005,1BFE2238,true,Rx,0,8,00,00,32,00,01,01,00,00,
-1666864166501664,1BFE2239,true,Rx,0,8,00,01,01,00,00,00,00,00,
-1666864166501365,1BFE223A,true,Rx,0,8,04,01,00,00,51,00,06,00,
-1666864166501024,1BFE223B,true,Rx,0,8,14,00,00,00,00,00,00,00,
-1666864166500725,1BFE223C,true,Rx,0,8,22,00,00,00,00,00,00,00,
