Time Stamp,ID,Extended,Dir,Bus,LEN,D1,D2,D3,D4,D5,D6,D7,D8
-1666864171402467,0000038B,false,Rx,0,8,00,00,00,00,00,00,00,00,
-1666864171382586,1BFE221A,true,Rx,0,8,00,A5,00,00,7E,00,00,00,
-1666864171382287,1BFE2215,true,Rx,0,8,60,97,9E,80,80,80,AA,9A,
-1666864171381946,1BFE2216,true,Rx,0,8,00,00,00,00,00,00,C0,FA,
-1666864171381647,1BFE2217,true,Rx,0,8,00,00,CD,B4,A5,00,00,00,
-1666864171381348,1BFE2218,true,Rx,0,8,00,00,00,00,00,00,00,00,
-1666864171381050,1BFE2219,true,Rx,0,8,00,00,00,00,00,00,00,00,
-1666864171380708,1BFE221B,true,Rx,0,8,00,00,00,00,00,00,00,00,
-1666864171380410,1BFE221C,true,Rx,0,8,00,00,3F,00,00,00,00,00,
-1666864171380068,1BFE221E,true,Rx,0,8,7D,01,00,00,00,00,00,00,
-1666864171379770,1BFE2222,true,Rx,0,8,00,00,58,00,7E,1C,00,00,
-1666864171379471,1BFE2223,true,Rx,0,8,11,01,00,00,00,00,00,00,
-1666864171379130,1BFE2225,true,Rx,0,8,00,00,00,00,00,00,00,00,
-1666864171378831,1BFE2227,true,Rx,0,8,00,00,00,00,00,04,00,00,
-1666864171378490,1BFE2232,true,Rx,0,8,00,00,00,00,00,00,00,00,
-1666864171378191,1BFE2235,true,Rx,0,8,81,04,00,00,00,00,00,00,
-1666864171377850,1BFE2238,true,Rx,0,8,00,00,32,00,01,01,00,00,
-1666864171377509,1BFE2239,true,Rx,0,8,00,01,01,00,00,00,00,00,
-1666864171377210,1BFE223A,true,Rx,0,8,04,01,00,00,53,00,00,00,
-1666864171376911,1BFE223B,true,Rx,0,8,02,00,00,00,00,00,00,00,
-1666864171376570,1BFE223C,true,Rx,0,8,22,00,00,00,00,00,00,00,
-1666864171376229,1BFE223D,true,Rx,0,8,00,00,00,00,00,00,00,5C,
-1666864171375930,1BFE2248,true,Rx,0,8,00,00,00,00,00,00,00,00,
-1666864171302505,0000038B,false,Rx,0,8,00,00,00,00,00,00,00,00,
-1666864171282581,1BFE221A,true,Rx,0,8,00,A5,00,00,7E,00,00,00,
-1666864171282282,1BFE2207,true,Rx,0,8,46,00,00,86,00,40,00,04,
-1666864171281984,1BFE2215,true,Rx,0,8,60,97,9E,80,80,80,AA,9A,
-1666864171281685,1BFE2216,true,Rx,0,8,00,00,00,00,00,00,C0,FA,
-1666864171281387,1BFE2217,true,Rx,0,8,00,00,CD,B4,A5,00,00,00,
-1666864171281045,1BFE2218,true,Rx,0,8,00,00,00,00,00,00,00,00,
-1666864171280747,1BFE2219,true,Rx,0,8,00,00,00,00,00,00,00,00,
-1666864171280448,1BFE221B,true,Rx,0,8,00,00,00,00,00,00,00,00,
-1666864171280107,1BFE221C,true,Rx,0,8,00,00,3F,00,00,00,00,00,
-1666864171279808,1BFE221E,true,Rx,0,8,7D,01,00,00,00,00,00,00,
-1666864171279467,1BFE2222,true,Rx,0,8,00,00,58,00,7E,1C,00,00,
-1666864171279168,1BFE2223,true,Rx,0,8,11,01,00,00,00,00,00,00,
-1666864171278869,1BFE2225,true,Rx,0,8,00,00,00,00,00,00,00,00,
-1666864171278528,1BFE2227,true,Rx,0,8,00,00,00,00,00,04,00,00,
-1666864171278229,1BFE2232,true,Rx,0,8,00,00,00,00,00,00,00,00,
-1666864171277888,1BFE2235,true,Rx,0,8,81,04,00,00,00,00,00,00,
-1666864171277589,1BFE2238,true,Rx,0,8,00,00,32,00,01,01,00,00,
-1666864171277248,1BFE2239,true,Rx,0,8,00,01,01,00,00,00,00,00,
-1666864171276949,1BFE223A,true,Rx,0,8,04,01,00,00,5D,00,00,00,
-1666864171276608,1BFE223B,true,Rx,0,8,0C,00,00,00,00,00,00,00,
-1666864171276310,1BFE223C,true,Rx,0,8,22,00,00,00,00,00,00,00,
-1666864171275968,1BFE223D,true,Rx,0,8,00,00,00,00,00,00,00,5C,
-1666864171275627,1BFE2248,true,Rx,0,8,00,00,00,00,00,00,00,00,
-1666864171202501,0000038B,false,Rx,0,8,00,00,00,00,00,00,00,00,
-1666864171182577,1BFE221A,true,Rx,0,8,00,A5,00,00,7E,00,00,00,
-1666864171182278,1BFE2207,true,Rx,0,8,46,00,00,88,00,40,00,04,
-1666864171181979,1BFE2215,true,Rx,0,8,60,97,9E,80,80,80,AA,9A,
-1666864171181681,1BFE2216,true,Rx,0,8,00,00,00,00,00,00,C0,FA,
-1666864171181382,1BFE2217,true,Rx,0,8,00,00,CD,B4,A5,00,00,00,
-1666864171181083,1BFE2218,true,Rx,0,8,00,00,00,00,00,00,00,00,
-1666864171180742,1BFE2219,true,Rx,0,8,00,00,00,00,00,00,00,00,
-1666864171180444,1BFE221B,true,Rx,0,8,00,00,00,00,00,00,00,00,
-1666864171180102,1BFE221C,true,Rx,0,8,00,00,3F,00,00,00,00,00,
-1666864171179804,1BFE221E,true,Rx,0,8,7D,01,00,00,00,00,00,00,
-1666864171179505,1BFE2222,true,Rx,0,8,00,00,58,00,7E,1C,00,00,
-1666864171179164,1BFE2223,true,Rx,0,8,11,01,00,00,00,00,00,00,
-1666864171178865,1BFE2225,true,Rx,0,8,00,00,00,00,00,00,00,00,
-1666864171178524,1BFE2227,true,Rx,0,8,00,00,00,00,00,04,00,00,
-1666864171178225,1BFE2232,true,Rx,0,8,00,00,00,00,00,00,00,00,
-1666864171177884,1BFE2235,true,Rx,0,8,81,04,00,00,00,00,00,00,
-1666864171177585,1BFE2238,true,Rx,0,8,00,00,32,00,01,01,00,00,
-1666864171177244,1BFE2239,true,Rx,0,8,00,01,01,00,00,00,00,00,
-1666864171176945,1BFE223A,true,Rx,0,8,04,01,00,00,53,00,00,00,
-1666864171176604,1BFE223B,true,Rx,0,8,02,00,00,00,00,00,00,00,
-1666864171176305,1BFE223C,true,Rx,0,8,22,00,00,00,00,00,00,00,
-1666864171175964,1BFE223D,true,Rx,0,8,00,00,00,00,00,00,00,5C,
-1666864171175665,1BFE2248,true,Rx,0,8,00,00,00,00,00,00,00,00,
-1666864171102496,0000038B,false,Rx,0,8,00,00,00,00,00,00,00,00,
-1666864171092513,0000067E,false,Rx,0,8,1E,05,00,00,5B,00,00,40,
-1666864171082615,1BFE221A,true,Rx,0,8,00,A5,00,00,7E,00,00,00,
-1666864171082316,1BFE2215,true,Rx,0,8,60,97,9E,80,80,80,AA,9A,
-1666864171082018,1BFE2216,true,Rx,0,8,00,00,00,00,00,00,C0,FA,
-1666864171081719,1BFE2217,true,Rx,0,8,00,00,CD,B4,A5,00,00,00,
-1666864171081378,1BFE2218,true,Rx,0,8,00,00,00,00,00,00,00,00,
-1666864171081079,1BFE2219,true,Rx,0,8,00,00,00,00,00,00,00,00,
-1666864171080738,1BFE221B,true,Rx,0,8,00,00,00,00,00,00,00,00,
-1666864171080439,1BFE221C,true,Rx,0,8,00,00,3F,00,00,00,00,00,
-1666864171080140,1BFE221E,true,Rx,0,8,7D,01,00,00,00,00,00,00,
-1666864171079799,1BFE2222,true,Rx,0,8,00,00,58,00,7E,1C,00,00,
-1666864171079500,1BFE2223,true,Rx,0,8,11,01,00,00,00,00,00,00,
-1666864171079159,1BFE2225,true,Rx,0,8,00,00,00,00,00,00,00,00,
-1666864171078861,1BFE2227,true,Rx,0,8,00,00,00,00,00,04,00,00,
-1666864171078519,1BFE2232,true,Rx,0,8,00,00,00,00,00,00,00,00,
-1666864171078221,1BFE2235,true,Rx,0,8,81,04,00,00,00,00,00,00,
-1666864171077879,1BFE2238,true,Rx,0,8,00,00,32,00,01,01,00,00,
-1666864171077581,1BFE2239,true,Rx,0,8,00,01,01,00,00,00,00,00,
-1666864171077239,1BFE223A,true,Rx,0,8,04,01,00,00,5D,00,00,00,
-1666864171076941,1BFE223B,true,Rx,0,8,0C,00,00,00,00,00,00,00,
-1666864171076599,1BFE223C,true,Rx,0,8,22,00,00,00,00,00,00,00,
-1666864171076301,1BFE223D,true,Rx,0,8,00,00,00,00,00,00,00,5C,
-1666864171075959,1BFE2248,true,Rx,0,8,00,00,00,00,00,00,00,00,
-1666864171002505,0000038B,false,Rx,0,8,00,00,00,00,00,00,00,00,
-1666864170982581,1BFE221A,true,Rx,0,8,00,A5,00,00,7E,00,00,00,
-1666864170982282,1BFE2215,true,Rx,0,8,60,97,9E,80,80,80,AA,9A,
-1666864170981983,1BFE2216,true,Rx,0,8,00,00,00,00,00,00,C0,FA,
-1666864170981685,1BFE2217,true,Rx,0,8,00,00,CD,B4,A5,00,00,00,
-1666864170981343,1BFE2218,true,Rx,0,8,00,00,00,00,00,00,00,00,
-1666864170981045,1BFE2219,true,Rx,0,8,00,00,00,00,00,00,00,00,
-1666864170980746,1BFE221B,true,Rx,0,8,00,00,00,00,00,00,00,00,
-1666864170980405,1BFE221C,true,Rx,0,8,00,00,3F,00,00,00,00,00,
-1666864170980106,1BFE221E,true,Rx,0,8,7D,01,00,00,00,00,00,00,
-1666864170979765,1BFE2222,true,Rx,0,8,00,00,58,00,7E,1C,00,00,
-1666864170979466,1BFE2223,true,Rx,0,8,11,01,00,00,00,00,00,00,
-1666864170979167,1BFE2225,true,Rx,0,8,00,00,00,00,00,00,00,00,
-1666864170978826,1BFE2227,true,Rx,0,8,00,00,00,00,00,04,00,00,
-1666864170978527,1BFE2232,true,Rx,0,8,00,00,00,00,00,00,00,00,
-1666864170978186,1BFE2235,true,Rx,0,8,81,04,00,00,00,00,00,00,
-1666864170977887,1BFE2238,true,Rx,0,8,00,00,32,00,01,01,00,00,
-1666864170977546,1BFE2239,true,Rx,0,8,00,01,01,00,00,00,00,00,
-1666864170977248,1BFE223A,true,Rx,0,8,04,01,00,00,53,00,00,00,
-1666864170976906,1BFE223B,true,Rx,0,8,02,00,00,00,00,00,00,00,
-1666864170976608,1BFE223C,true,Rx,0,8,22,00,00,00,00,00,00,00,
-1666864170976266,1BFE223D,true,Rx,0,8,00,00,00,00,00,00,00,5C,
-1666864170975925,1BFE2248,true,Rx,0,8,00,00,00,00,00,00,00,00,
-1666864170902500,0000038B,false,Rx,0,8,00,00,00,00,00,00,00,00,
-1666864170882619,1BFE221A,true,Rx,0,8,00,A5,00,00,7E,00,00,00,
-1666864170882320,1BFE2209,true,Rx,0,8,00,00,01,00,D0,00,04,00,
-1666864170882021,1BFE2215,true,Rx,0,8,60,97,9E,80,80,80,AA,9A,
-1666864170881680,1BFE2216,true,Rx,0,8,00,00,00,00,00,00,BF,FA,
-1666864170881382,1BFE2217,true,Rx,0,8,00,00,CD,B4,A5,00,00,00,
-1666864170881083,1BFE2218,true,Rx,0,8,00,00,00,00,00,00,00,00,
-1666864170880784,1BFE2219,true,Rx,0,8,00,00,00,00,00,00,00,00,
-1666864170880443,1BFE221B,true,Rx,0,8,00,00,00,00,00,00,00,00,
-1666864170880144,1BFE221C,true,Rx,0,8,00,00,3F,00,00,00,00,00,
-1666864170879803,1BFE221E,true,Rx,0,8,7D,01,00,00,00,00,00,00,
-1666864170879504,1BFE2222,true,Rx,0,8,00,00,58,00,7E,1C,00,00,
-1666864170879206,1BFE2223,true,Rx,0,8,11,01,00,00,00,00,00,00,
-1666864170878864,1BFE2225,true,Rx,0,8,00,00,00,00,00,00,00,00,
-1666864170878566,1BFE2227,true,Rx,0,8,00,00,00,00,00,04,00,00,
-1666864170878224,1BFE2232,true,Rx,0,8,00,00,00,00,00,00,00,00,
-1666864170877926,1BFE2235,true,Rx,0,8,81,04,00,00,00,00,00,00,
-1666864170877584,1BFE2238,true,Rx,0,8,00,00,32,00,01,01,00,00,
-1666864170877286,1BFE2239,true,Rx,0,8,00,01,01,00,00,00,00,00,
-1666864170876944,1BFE223A,true,Rx,0,8,04,01,00,00,5D,00,00,00,
-1666864170876646,1BFE223B,true,Rx,0,8,0C,00,00,00,00,00,00,00,
-1666864170876305,1BFE223C,true,Rx,0,8,22,00,00,00,00,00,00,00,
-1666864170875963,1BFE223D,true,Rx,0,8,00,00,00,00,00,00,00,5C,
-1666864170875665,1BFE2248,true,Rx,0,8,00,00,00,00,00,00,00,00,
-1666864170802496,0000038B,false,Rx,0,8,00,00,00,00,00,00,00,00,
-1666864170782614,1BFE221A,true,Rx,0,8,00,A6,00,00,7E,00,00,00,
-1666864170782316,1BFE2204,true,Rx,0,8,00,00,00,00,0F,00,00,00,
-1666864170782017,1BFE2209,true,Rx,0,8,00,00,01,00,D0,E0,03,00,
-1666864170781718,1BFE2215,true,Rx,0,8,60,97,9E,80,80,80,AA,9A,
-1666864170781377,1BFE2216,true,Rx,0,8,00,00,00,00,00,00,C0,FA,
-1666864170781078,1BFE2217,true,Rx,0,8,00,00,CD,B4,A4,00,00,00,
-1666864170780780,1BFE2218,true,Rx,0,8,00,00,00,00,00,00,00,00,
-1666864170780439,1BFE2219,true,Rx,0,8,00,00,00,00,00,00,00,00,
-1666864170780140,1BFE221B,true,Rx,0,8,00,00,00,00,00,00,00,00,
-1666864170779799,1BFE221C,true,Rx,0,8,00,00,3F,00,00,00,00,00,
-1666864170779500,1BFE221E,true,Rx,0,8,7D,01,00,00,00,00,00,00,
-1666864170779201,1BFE2222,true,Rx,0,8,00,00,58,00,7E,1C,00,00,
-1666864170778903,1BFE2223,true,Rx,0,8,11,01,00,00,00,00,00,00,
-1666864170778561,1BFE2225,true,Rx,0,8,00,00,00,00,00,00,00,00,
-1666864170778263,1BFE2227,true,Rx,0,8,00,00,00,00,00,04,00,00,
-1666864170777921,1BFE2232,true,Rx,0,8,00,00,00,00,00,00,00,00,
-1666864170777623,1BFE2235,true,Rx,0,8,81,04,00,00,00,00,00,00,
-1666864170777281,1BFE2238,true,Rx,0,8,00,00,32,00,01,01,00,00,
-1666864170776940,1BFE2239,true,Rx,0,8,00,01,01,00,00,00,00,00,
-1666864170776641,1BFE223A,true,Rx,0,8,04,01,00,00,53,00,00,00,
-1666864170776343,1BFE223B,true,Rx,0,8,02,00,00,00,00,00,00,00,
-1666864170776001,1BFE223C,true,Rx,0,8,22,00,00,00,00,00,00,00,
-1666864170775660,1BFE223D,true,Rx,0,8,00,00,00,00,00,00,00,5C,
-1666864170775361,1BFE2248,true,Rx,0,8,00,00,00,00,00,00,00,00,
-1666864170702534,0000038B,false,Rx,0,8,00,00,00,00,00,00,00,00,
-1666864170692551,00000564,false,Rx,0,8,DB,09,00,00,F8,17,3D,00,
-1666864170682610,1BFE221A,true,Rx,0,8,00,A6,00,00,7E,00,00,00,
-1666864170682311,1BFE2209,true,Rx,0,8,00,00,01,00,D0,00,04,00,
-1666864170682013,1BFE2215,true,Rx,0,8,60,97,9E,80,80,80,AA,9A,
-1666864170681714,1BFE2216,true,Rx,0,8,00,00,00,00,00,00,C0,FA,
-1666864170681415,1BFE2217,true,Rx,0,8,00,00,CD,B4,A5,00,00,00,
-1666864170681117,1BFE2218,true,Rx,0,8,00,00,00,00,00,00,00,00,
-1666864170680775,1BFE2219,true,Rx,0,8,00,00,00,00,00,00,00,00,
-1666864170680477,1BFE221B,true,Rx,0,8,00,00,00,00,00,00,00,00,
-1666864170680135,1BFE221C,true,Rx,0,8,00,00,3F,00,00,00,00,00,
-1666864170679837,1BFE221E,true,Rx,0,8,7D,01,00,00,00,00,00,00,
-1666864170679538,1BFE2222,true,Rx,0,8,00,00,58,00,7E,1C,00,00,
-1666864170679239,1BFE2223,true,Rx,0,8,11,01,00,00,00,00,00,00,
-1666864170678898,1BFE2225,true,Rx,0,8,00,00,00,00,00,00,00,00,
-1666864170678600,1BFE2227,true,Rx,0,8,00,00,00,00,00,04,00,00,
-1666864170678258,1BFE2232,true,Rx,0,8,00,00,00,00,00,00,00,00,
-1666864170677960,1BFE2235,true,Rx,0,8,81,04,00,00,00,00,00,00,
-1666864170677618,1BFE2238,true,Rx,0,8,00,00,32,00,01,01,00,00,
-1666864170677277,1BFE2239,true,Rx,0,8,00,01,01,00,00,00,00,00,
-1666864170676978,1BFE223A,true,Rx,0,8,04,01,00,00,5D,00,00,00,
-1666864170676637,1BFE223B,true,Rx,0,8,0C,00,00,00,00,00,00,00,
-1666864170676338,1BFE223C,true,Rx,0,8,22,00,00,00,00,00,00,00,
-1666864170675997,1BFE223D,true,Rx,0,8,00,00,00,00,00,00,00,5C,
-1666864170675698,1BFE2248,true,Rx,0,8,00,00,00,00,00,00,00,00,
-1666864170602530,0000038B,false,Rx,0,8,00,00,00,00,00,00,00,00,
-1666864170582648,1BFE221A,true,Rx,0,8,00,A6,00,00,7E,00,00,00,
-1666864170582350,1BFE2207,true,Rx,0,8,46,00,00,88,00,3E,00,04,
-1666864170582051,1BFE2215,true,Rx,0,8,60,97,9E,80,80,80,AA,9A,
-1666864170581710,1BFE2216,true,Rx,0,8,00,00,00,00,00,00,C0,FA,
-1666864170581411,1BFE2217,true,Rx,0,8,00,00,CD,B4,A5,00,00,00,
-1666864170581112,1BFE2218,true,Rx,0,8,00,00,00,00,00,00,00,00,
-1666864170580814,1BFE2219,true,Rx,0,8,00,00,00,00,00,00,00,00,
-1666864170580472,1BFE221B,true,Rx,0,8,00,00,00,00,00,00,00,00,
-1666864170580174,1BFE221C,true,Rx,0,8,00,00,3F,00,00,00,00,00,
-1666864170579832,1BFE221E,true,Rx,0,8,7D,01,00,00,00,00,00,00,
-1666864170579534,1BFE2222,true,Rx,0,8,00,00,58,00,7E,1C,00,00,
-1666864170579235,1BFE2223,true,Rx,0,8,11,01,00,00,00,00,00,00,
-1666864170578894,1BFE2225,true,Rx,0,8,00,00,00,00,00,00,00,00,
-1666864170578595,1BFE2227,true,Rx,0,8,00,00,00,00,00,04,00,00,
-1666864170578254,1BFE2232,true,Rx,0,8,00,00,00,00,00,00,00,00,
-1666864170577955,1BFE2235,true,Rx,0,8,81,04,00,00,00,00,00,00,
-1666864170577614,1BFE2238,true,Rx,0,8,00,00,32,00,01,01,00,00,
-1666864170577315,1BFE2239,true,Rx,0,8,00,01,01,00,00,00,00,00,
-1666864170576974,1BFE223A,true,Rx,0,8,04,01,00,00,53,00,00,00,
-1666864170576675,1BFE223B,true,Rx,0,8,02,00,00,00,00,00,00,00,
-1666864170576334,1BFE223C,true,Rx,0,8,22,00,00,00,00,00,00,00,
-1666864170575993,1BFE223D,true,Rx,0,8,00,00,00,00,00,00,00,5C,
-1666864170575694,1BFE2248,true,Rx,0,8,00,00,00,00,00,00,00,00,
-1666864170502568,0000038B,false,Rx,0,8,00,00,00,00,00,00,00,00,
-1666864170482644,1BFE221A,true,Rx,0,8,00,A5,00,00,7E,00,00,00,
-1666864170482345,1BFE2215,true,Rx,0,8,60,97,9E,80,80,80,AA,9A,
-1666864170482046,1BFE2216,true,Rx,0,8,00,00,00,00,00,00,BF,FB,
-1666864170481748,1BFE2217,true,Rx,0,8,00,00,CD,B4,A5,00,00,00,
-1666864170481407,1BFE2218,true,Rx,0,8,00,00,00,00,00,00,00,00,
-1666864170481108,1BFE2219,true,Rx,0,8,00,00,00,00,00,00,00,00,
-1666864170480809,1BFE221B,true,Rx,0,8,00,00,00,00,00,00,00,00,
-1666864170480468,1BFE221C,true,Rx,0,8,00,00,3F,00,00,00,00,00,
-1666864170480169,1BFE221E,true,Rx,0,8,7D,01,00,00,00,00,00,00,
-1666864170479828,1BFE2222,true,Rx,0,8,00,00,58,00,7E,1C,00,00,
-1666864170479529,1BFE2223,true,Rx,0,8,11,01,00,00,00,00,00,00,
-1666864170479188,1BFE2225,true,Rx,0,8,00,00,00,00,00,00,00,00,
-1666864170478889,1BFE2227,true,Rx,0,8,00,00,00,00,00,04,00,00,
-1666864170478591,1BFE2232,true,Rx,0,8,00,00,00,00,00,00,00,00,
-1666864170478249,1BFE2235,true,Rx,0,8,81,04,00,00,00,00,00,00,
-1666864170477908,1BFE2238,true,Rx,0,8,00,00,32,00,01,01,00,00,
-1666864170477609,1BFE2239,true,Rx,0,8,00,01,01,00,00,00,00,00,
-1666864170477311,1BFE223A,true,Rx,0,8,04,01,00,00,5D,00,00,00,
-1666864170476969,1BFE223B,true,Rx,0,8,0C,00,00,00,00,00,00,00,
-1666864170476628,1BFE223C,true,Rx,0,8,22,00,00,00,00,00,00,00,
-1666864170476330,1BFE223D,true,Rx,0,8,00,00,00,00,00,00,00,5C,
-1666864170475988,1BFE2248,true,Rx,0,8,00,00,00,00,00,00,00,00,
-1666864170402563,0000038B,false,Rx,0,8,00,00,00,00,00,00,00,00,
-1666864170382639,1BFE221A,true,Rx,0,8,00,A6,00,00,7E,00,00,00,
-1666864170382341,1BFE2207,true,Rx,0,8,46,00,00,86,00,3E,00,04,
-1666864170382042,1BFE2215,true,Rx,0,8,60,97,9E,80,80,80,AA,9A,
-1666864170381743,1BFE2216,true,Rx,0,8,00,00,00,00,00,00,C0,FA,
-1666864170381445,1BFE2217,true,Rx,0,8,00,00,CD,B4,A4,00,00,00,
-1666864170381146,1BFE2218,true,Rx,0,8,00,00,00,00,00,00,00,00,
-1666864170380805,1BFE2219,true,Rx,0,8,00,00,00,00,00,00,00,00,
-1666864170380506,1BFE221B,true,Rx,0,8,00,00,00,00,00,00,00,00,
-1666864170380165,1BFE221C,true,Rx,0,8,00,00,3F,00,00,00,00,00,
-1666864170379866,1BFE221E,true,Rx,0,8,7D,01,00,00,00,00,00,00,
-1666864170379568,1BFE2222,true,Rx,0,8,00,00,58,00,7E,1C,00,00,
-1666864170379269,1BFE2223,true,Rx,0,8,11,01,00,00,00,00,00,00,
-1666864170378928,1BFE2225,true,Rx,0,8,00,00,00,00,00,00,00,00,
-1666864170378629,1BFE2227,true,Rx,0,8,00,00,00,00,00,04,00,00,
-1666864170378288,1BFE2232,true,Rx,0,8,00,00,00,00,00,00,00,00,
-1666864170377989,1BFE2235,true,Rx,0,8,81,04,00,00,00,00,00,00,
-1666864170377648,1BFE2238,true,Rx,0,8,00,00,32,00,01,01,00,00,
-1666864170377306,1BFE2239,true,Rx,0,8,00,01,01,00,00,00,00,00,
-1666864170377008,1BFE223A,true,Rx,0,8,04,01,00,00,53,00,00,00,
-1666864170376709,1BFE223B,true,Rx,0,8,02,00,00,00,00,00,00,00,
-1666864170376368,1BFE223C,true,Rx,0,8,22,00,00,00,00,00,00,00,
-1666864170376026,1BFE223D,true,Rx,0,8,00,00,00,00,00,00,00,5C,
-1666864170375728,1BFE2248,true,Rx,0,8,00,00,00,00,00,00,00,00,
-1666864170302559,0000038B,false,Rx,0,8,00,00,00,00,00,00,00,00,
-1666864170282678,1BFE221A,true,Rx,0,8,00,A5,00,00,7E,00,00,00,
-1666864170282379,1BFE2207,true,Rx,0,8,46,00,00,88,00,3E,00,04,
-1666864170282080,1BFE2215,true,Rx,0,8,60,97,9E,80,80,80,AA,9A,
-1666864170281782,1BFE2216,true,Rx,0,8,00,00,00,00,00,00,C0,FA,
-1666864170281483,1BFE2217,true,Rx,0,8,00,00,CD,B4,A5,00,00,00,
-1666864170281142,1BFE2218,true,Rx,0,8,00,00,00,00,00,00,00,00,
-1666864170280843,1BFE2219,true,Rx,0,8,00,00,00,00,00,00,00,00,
-1666864170280502,1BFE221B,true,Rx,0,8,00,00,00,00,00,00,00,00,
-1666864170280203,1BFE221C,true,Rx,0,8,00,00,3F,00,00,00,00,00,
-1666864170279904,1BFE221E,true,Rx,0,8,7D,01,00,00,00,00,00,00,
-1666864170279563,1BFE2222,true,Rx,0,8,00,00,58,00,7E,1C,00,00,
-1666864170279264,1BFE2223,true,Rx,0,8,11,01,00,00,00,00,00,00,
-1666864170278923,1BFE2225,true,Rx,0,8,00,00,00,00,00,00,00,00,
-1666864170278625,1BFE2227,true,Rx,0,8,00,00,00,00,00,04,00,00,
-1666864170278326,1BFE2232,true,Rx,0,8,00,00,00,00,00,00,00,00,
-1666864170277985,1BFE2235,true,Rx,0,8,81,04,00,00,00,00,00,00,
-1666864170277643,1BFE2238,true,Rx,0,8,00,00,32,00,01,01,00,00,
-1666864170277345,1BFE2239,true,Rx,0,8,00,01,01,00,00,00,00,00,
-1666864170277046,1BFE223A,true,Rx,0,8,04,01,00,00,5D,00,00,00,
-1666864170276705,1BFE223B,true,Rx,0,8,0C,00,00,00,00,00,00,00,
-1666864170276363,1BFE223C,true,Rx,0,8,22,00,00,00,00,00,00,00,
-1666864170276065,1BFE223D,true,Rx,0,8,00,00,00,00,00,00,00,5C,
-1666864170275723,1BFE2248,true,Rx,0,8,00,00,00,00,00,00,00,00,
-1666864170202597,0000038B,false,Rx,0,8,00,00,00,00,00,00,00,00,
-1666864170182673,1BFE221A,true,Rx,0,8,00,A5,00,00,7E,00,00,00,
-1666864170182375,1BFE2215,true,Rx,0,8,60,97,9E,80,80,80,AA,9A,
-1666864170182076,1BFE2216,true,Rx,0,8,00,00,00,00,00,00,C0,FA,
-1666864170181777,1BFE2217,true,Rx,0,8,00,00,CD,B4,A5,00,00,00,
-1666864170181479,1BFE2218,true,Rx,0,8,00,00,00,00,00,00,00,00,
-1666864170181137,1BFE2219,true,Rx,0,8,00,00,00,00,00,00,00,00,
-1666864170180839,1BFE221B,true,Rx,0,8,00,00,00,00,00,00,00,00,
-1666864170180497,1BFE221C,true,Rx,0,8,00,00,3F,00,00,00,00,00,
-1666864170180199,1BFE221E,true,Rx,0,8,7D,01,00,00,00,00,00,00,
-1666864170179900,1BFE2222,true,Rx,0,8,00,00,58,00,7E,1C,00,00,
-1666864170179559,1BFE2223,true,Rx,0,8,11,01,00,00,00,00,00,00,
-1666864170179260,1BFE2225,true,Rx,0,8,00,00,00,00,00,00,00,00,
-1666864170178919,1BFE2227,true,Rx,0,8,00,00,00,00,00,04,00,00,
-1666864170178620,1BFE2232,true,Rx,0,8,00,00,00,00,00,00,00,00,
-1666864170178279,1BFE2235,true,Rx,0,8,81,04,00,00,00,00,00,00,
-1666864170177980,1BFE2238,true,Rx,0,8,00,00,32,00,01,01,00,00,
-1666864170177639,1BFE2239,true,Rx,0,8,00,01,01,00,00,00,00,00,
-1666864170177340,1BFE223A,true,Rx,0,8,04,01,00,00,53,00,00,00,
-1666864170176999,1BFE223B,true,Rx,0,8,02,00,00,00,00,00,00,00,
-1666864170176700,1BFE223C,true,Rx,0,8,22,00,00,00,00,00,00,00,
-1666864170176359,1BFE223D,true,Rx,0,8,00,00,00,00,00,00,00,5C,
-1666864170176060,1BFE2248,true,Rx,0,8,00,00,00,00,00,00,00,00,
-1666864170112619,1BFE2234,true,Rx,0,8,00,00,00,00,00,00,00,00,
-1666864170102593,0000038B,false,Rx,0,8,00,00,00,00,00,00,00,00,
-1666864170092609,0000067E,false,Rx,0,8,1D,06,00,00,5B,00,00,40,
-1666864170082711,1BFE221A,true,Rx,0,8,00,A5,00,00,7E,00,00,00,
-1666864170082370,1BFE2202,true,Rx,0,8,90,21,43,06,00,00,00,07,
-1666864170082071,1BFE2208,true,Rx,0,8,32,00,00,00,00,00,00,00,
-1666864170081773,1BFE2215,true,Rx,0,8,60,97,9E,80,80,80,AA,9A,
-1666864170081474,1BFE2216,true,Rx,0,8,00,00,00,00,00,00,C0,FA,
-1666864170081176,1BFE2217,true,Rx,0,8,00,00,CD,B4,A5,00,00,00,
-1666864170080877,1BFE2218,true,Rx,0,8,00,00,00,00,00,00,00,00,
-1666864170080536,1BFE2219,true,Rx,0,8,00,00,00,00,00,00,00,00,
-1666864170080237,1BFE221B,true,Rx,0,8,00,00,00,00,00,00,00,00,
-1666864170079896,1BFE221C,true,Rx,0,8,00,00,3F,00,00,00,00,00,
-1666864170079597,1BFE221E,true,Rx,0,8,7D,01,00,00,00,00,00,00,
-1666864170079298,1BFE2222,true,Rx,0,8,00,00,58,00,7E,1C,00,00,
-1666864170078957,1BFE2223,true,Rx,0,8,11,01,00,00,00,00,00,00,
-1666864170078658,1BFE2225,true,Rx,0,8,00,00,00,00,00,00,00,00,
-1666864170078317,1BFE2227,true,Rx,0,8,00,00,00,00,00,04,00,00,
-1666864170078018,1BFE2232,true,Rx,0,8,00,00,00,00,00,00,00,00,
-1666864170077677,1BFE2235,true,Rx,0,8,81,04,00,00,00,00,00,00,
-1666864170077378,1BFE2238,true,Rx,0,8,00,00,32,00,01,01,00,00,
-1666864170077037,1BFE2239,true,Rx,0,8,00,01,01,00,00,00,00,00,
-1666864170076738,1BFE223A,true,Rx,0,8,04,01,00,00,5D,00,00,00,
-1666864170076397,1BFE223B,true,Rx,0,8,0C,00,00,00,00,00,00,00,
-1666864170076099,1BFE223C,true,Rx,0,8,22,00,00,00,00,00,00,00,
-1666864170075757,1BFE223D,true,Rx,0,8,00,00,00,00,00,00,00,5C,
-1666864170075416,1BFE2248,true,Rx,0,8,00,00,00,00,00,00,00,00,
-1666864170002558,0000038B,false,Rx,0,8,00,00,00,00,00,00,00,00,
-1666864169982677,1BFE221A,true,Rx,0,8,00,A6,00,00,7E,00,00,00,
-1666864169982378,1BFE2207,true,Rx,0,8,46,00,00,88,00,40,00,04,
-1666864169982080,1BFE2209,true,Rx,0,8,00,00,01,00,D0,E0,03,00,
-1666864169981781,1BFE2215,true,Rx,0,8,60,97,9E,80,80,80,AA,9A,
-1666864169981440,1BFE2216,true,Rx,0,8,00,00,00,00,00,00,C0,FA,
-1666864169981141,1BFE2217,true,Rx,0,8,00,00,CD,B4,A5,00,00,00,
-1666864169980842,1BFE2218,true,Rx,0,8,00,00,00,00,00,00,00,00,
-1666864169980544,1BFE2219,true,Rx,0,8,00,00,00,00,00,00,00,00,
-1666864169980203,1BFE221B,true,Rx,0,8,00,00,00,00,00,00,00,00,
-1666864169979904,1BFE221C,true,Rx,0,8,00,00,3F,00,00,00,00,00,
-1666864169979563,1BFE221E,true,Rx,0,8,7D,01,00,00,00,00,00,00,
-1666864169979264,1BFE2222,true,Rx,0,8,00,00,58,00,7E,1C,00,00,
-1666864169978965,1BFE2223,true,Rx,0,8,11,01,00,00,00,00,00,00,
-1666864169978624,1BFE2225,true,Rx,0,8,00,00,00,00,00,00,00,00,
-1666864169978325,1BFE2227,true,Rx,0,8,00,00,00,00,00,04,00,00,
-1666864169977984,1BFE2232,true,Rx,0,8,00,00,00,00,00,00,00,00,
-1666864169977685,1BFE2235,true,Rx,0,8,81,04,00,00,00,00,00,00,
-1666864169977344,1BFE2238,true,Rx,0,8,00,00,32,00,01,01,00,00,
-1666864169977045,1BFE2239,true,Rx,0,8,00,01,01,00,00,00,00,00,
-1666864169976704,1BFE223A,true,Rx,0,8,04,01,00,00,53,00,00,00,
-1666864169976405,1BFE223B,true,Rx,0,8,02,00,00,00,00,00,00,00,
-1666864169976064,1BFE223C,true,Rx,0,8,22,00,00,00,00,00,00,00,
-1666864169975765,1BFE223D,true,Rx,0,8,00,00,00,00,00,00,00,5C,
-1666864169975424,1BFE2248,true,Rx,0,8,00,00,00,00,00,00,00,00,
-1666864169902597,0000038B,false,Rx,0,8,00,00,00,00,00,00,00,00,
-1666864169882715,1BFE220A,true,Rx,0,8,02,02,02,02,00,00,01,02,
-1666864169882374,1BFE220E,true,Rx,0,8,00,00,00,00,00,00,00,00,
-1666864169882075,1BFE220F,true,Rx,0,8,00,00,00,10,10,00,00,00,
-1666864169881734,1BFE2211,true,Rx,0,8,00,00,00,00,00,00,00,00,
-1666864169881478,1BFE2215,true,Rx,0,8,60,97,9E,80,80,80,AA,9A,
-1666864169881137,1BFE2216,true,Rx,0,8,00,00,00,00,00,00,C0,FA,
-1666864169880838,1BFE2217,true,Rx,0,8,00,00,CD,B4,A5,00,00,00,
-1666864169880539,1BFE2218,true,Rx,0,8,00,00,00,00,00,00,00,00,
-1666864169880241,1BFE2219,true,Rx,0,8,00,00,00,00,00,00,00,00,
-1666864169879899,1BFE221A,true,Rx,0,8,00,A6,00,00,7E,00,00,00,
-1666864169879601,1BFE221B,true,Rx,0,8,00,00,00,00,00,00,00,00,
-1666864169879259,1BFE221C,true,Rx,0,8,00,00,3F,00,00,00,00,00,
-1666864169878961,1BFE221E,true,Rx,0,8,7D,01,00,00,00,00,00,00,
-1666864169878662,1BFE2222,true,Rx,0,8,00,00,58,00,7E,1C,00,00,
-1666864169878321,1BFE2223,true,Rx,0,8,11,01,00,00,00,00,00,00,
-1666864169878022,1BFE2225,true,Rx,0,8,00,00,00,00,00,00,00,00,
-1666864169877681,1BFE2227,true,Rx,0,8,00,00,00,00,00,04,00,00,
-1666864169877382,1BFE2232,true,Rx,0,8,00,00,00,00,00,00,00,00,
-1666864169877041,1BFE2235,true,Rx,0,8,81,04,00,00,00,00,00,00,
-1666864169876742,1BFE2238,true,Rx,0,8,00,00,32,00,01,01,00,00,
-1666864169876401,1BFE2239,true,Rx,0,8,00,01,01,00,00,00,00,00,
-1666864169876102,1BFE223A,true,Rx,0,8,04,01,00,00,5D,00,00,00,
-1666864169875761,1BFE223B,true,Rx,0,8,0C,00,00,00,00,00,00,00,
-1666864169875462,1BFE223C,true,Rx,0,8,22,00,00,00,00,00,00,00,
-1666864169875121,1BFE223D,true,Rx,0,8,00,00,00,00,00,00,00,5C,
-1666864169874780,1BFE2248,true,Rx,0,8,00,00,00,00,00,00,00,00,
-1666864169802592,0000038B,false,Rx,0,8,00,00,00,00,00,00,00,00,
-1666864169782711,1BFE221A,true,Rx,0,8,00,A6,00,00,7E,00,00,00,
-1666864169782412,1BFE2207,true,Rx,0,8,46,00,00,88,00,3E,00,04,
-1666864169782071,1BFE2209,true,Rx,0,8,00,00,01,00,D0,00,04,00,
-1666864169781772,1BFE2215,true,Rx,0,8,60,97,9E,80,80,80,AA,9A,
-1666864169781474,1BFE2216,true,Rx,0,8,00,00,00,00,00,00,C0,FA,
-1666864169781175,1BFE2217,true,Rx,0,8,00,00,CD,B4,A5,00,00,00,
-1666864169780876,1BFE2218,true,Rx,0,8,00,00,00,00,00,00,00,00,
-1666864169780535,1BFE2219,true,Rx,0,8,00,00,00,00,00,00,00,00,
-1666864169780236,1BFE221B,true,Rx,0,8,00,00,00,00,00,00,00,00,
-1666864169779938,1BFE221C,true,Rx,0,8,00,00,3F,00,00,00,00,00,
-1666864169779596,1BFE221E,true,Rx,0,8,7D,01,00,00,00,00,00,00,
-1666864169779298,1BFE2222,true,Rx,0,8,00,00,58,00,7E,1C,00,00,
-1666864169778999,1BFE2223,true,Rx,0,8,11,01,00,00,00,00,00,00,
-1666864169778658,1BFE2225,true,Rx,0,8,00,00,00,00,00,00,00,00,
-1666864169778359,1BFE2227,true,Rx,0,8,00,00,00,00,00,04,00,00,
-1666864169778018,1BFE2232,true,Rx,0,8,00,00,00,00,00,00,00,00,
-1666864169777719,1BFE2235,true,Rx,0,8,81,04,00,00,00,00,00,00,
-1666864169777378,1BFE2238,true,Rx,0,8,00,00,32,00,01,01,00,00,
-1666864169777079,1BFE2239,true,Rx,0,8,00,01,01,00,00,00,00,00,
-1666864169776738,1BFE223A,true,Rx,0,8,04,01,00,00,53,00,00,00,
-1666864169776439,1BFE223B,true,Rx,0,8,02,00,00,00,00,00,00,00,
-1666864169776098,1BFE223C,true,Rx,0,8,22,00,00,00,00,00,00,00,
-1666864169775757,1BFE223D,true,Rx,0,8,00,00,00,00,00,00,00,5C,
-1666864169775458,1BFE2248,true,Rx,0,8,00,00,00,00,00,00,00,00,
-1666864169702631,0000038B,false,Rx,0,8,00,00,00,00,00,00,00,00,
-1666864169692647,00000564,false,Rx,0,8,D8,0A,00,00,F8,17,3D,00,
-1666864169682706,1BFE221A,true,Rx,0,8,00,A5,00,00,7E,00,00,00,
-1666864169682408,1BFE2215,true,Rx,0,8,60,97,9E,80,80,80,AA,9A,
-1666864169682109,1BFE2216,true,Rx,0,8,00,00,00,00,00,00,C0,FA,
-1666864169681811,1BFE2217,true,Rx,0,8,00,00,CD,B4,A5,00,00,00,
-1666864169681512,1BFE2218,true,Rx,0,8,00,00,00,00,00,00,00,00,
-1666864169681171,1BFE2219,true,Rx,0,8,00,00,00,00,00,00,00,00,
-1666864169680872,1BFE221B,true,Rx,0,8,00,00,00,00,00,00,00,00,
-1666864169680531,1BFE221C,true,Rx,0,8,00,00,3F,00,00,00,00,00,
-1666864169680232,1BFE221E,true,Rx,0,8,7D,01,00,00,00,00,00,00,
-1666864169679933,1BFE2222,true,Rx,0,8,00,00,58,00,7E,1C,00,00,
-1666864169679592,1BFE2223,true,Rx,0,8,11,01,00,00,00,00,00,00,
-1666864169679293,1BFE2225,true,Rx,0,8,00,00,00,00,00,00,00,00,
-1666864169678952,1BFE2227,true,Rx,0,8,00,00,00,00,00,04,00,00,
-1666864169678653,1BFE2232,true,Rx,0,8,00,00,00,00,00,00,00,00,
-1666864169678312,1BFE2235,true,Rx,0,8,81,04,00,00,00,00,00,00,
-1666864169678013,1BFE2238,true,Rx,0,8,00,00,32,00,01,01,00,00,
-1666864169677672,1BFE2239,true,Rx,0,8,00,01,01,00,00,00,00,00,
-1666864169677373,1BFE223A,true,Rx,0,8,04,01,00,00,5D,00,00,00,
-1666864169677032,1BFE223B,true,Rx,0,8,0C,00,00,00,00,00,00,00,
-1666864169676691,1BFE223C,true,Rx,0,8,22,00,00,00,00,00,00,00,
-1666864169676392,1BFE223D,true,Rx,0,8,00,00,00,00,00,00,00,5C,
-1666864169676051,1BFE2248,true,Rx,0,8,00,00,00,00,00,00,00,00,
-1666864169602626,0000038B,false,Rx,0,8,00,00,00,00,00,00,00,00,
-1666864169582745,1BFE221A,true,Rx,0,8,00,A5,00,00,7E,00,00,00,
-1666864169582403,1BFE2209,true,Rx,0,8,00,00,01,00,D0,E0,03,00,
-1666864169582147,1BFE2215,true,Rx,0,8,60,97,9E,80,80,80,AA,9A,
-1666864169581806,1BFE2216,true,Rx,0,8,00,00,00,00,00,00,C0,FA,
-1666864169581507,1BFE2217,true,Rx,0,8,00,00,CD,B4,A5,00,00,00,
-1666864169581209,1BFE2218,true,Rx,0,8,00,00,00,00,00,00,00,00,
-1666864169580867,1BFE2219,true,Rx,0,8,00,00,00,00,00,00,00,00,
-1666864169580569,1BFE221B,true,Rx,0,8,00,00,00,00,00,00,00,00,
-1666864169580270,1BFE221C,true,Rx,0,8,00,00,3F,00,00,00,00,00,
-1666864169579929,1BFE221E,true,Rx,0,8,7D,01,00,00,00,00,00,00,
-1666864169579630,1BFE2222,true,Rx,0,8,00,00,58,00,7E,1C,00,00,
-1666864169579332,1BFE2223,true,Rx,0,8,11,01,00,00,00,00,00,00,
-1666864169578990,1BFE2225,true,Rx,0,8,00,00,00,00,00,00,00,00,
-1666864169578692,1BFE2227,true,Rx,0,8,00,00,00,00,00,04,00,00,
-1666864169578350,1BFE2232,true,Rx,0,8,00,00,00,00,00,00,00,00,
-1666864169578052,1BFE2235,true,Rx,0,8,81,04,00,00,00,00,00,00,
-1666864169577710,1BFE2238,true,Rx,0,8,00,00,32,00,01,01,00,00,
-1666864169577412,1BFE2239,true,Rx,0,8,00,01,01,00,00,00,00,00,
-1666864169577070,1BFE223A,true,Rx,0,8,04,01,00,00,53,00,00,00,
-1666864169576772,1BFE223B,true,Rx,0,8,02,00,00,00,00,00,00,00,
-1666864169576430,1BFE223C,true,Rx,0,8,22,00,00,00,00,00,00,00,
-1666864169576089,1BFE223D,true,Rx,0,8,00,00,00,00,00,00,00,5C,
-1666864169575790,1BFE2248,true,Rx,0,8,00,00,00,00,00,00,00,00,
-1666864169502622,0000038B,false,Rx,0,8,00,00,00,00,00,00,00,00,
-1666864169482740,1BFE221A,true,Rx,0,8,00,A6,00,00,7E,00,00,00,
-1666864169482442,1BFE2206,true,Rx,0,8,46,00,00,86,00,1A,00,04,
-1666864169482143,1BFE2209,true,Rx,0,8,00,00,01,00,D0,00,04,00,
-1666864169481844,1BFE2215,true,Rx,0,8,60,97,9E,80,80,80,AA,9A,
-1666864169481503,1BFE2216,true,Rx,0,8,00,00,00,00,00,00,C0,FA,
-1666864169481204,1BFE2217,true,Rx,0,8,00,00,CD,B4,A4,00,00,00,
-1666864169480906,1BFE2218,true,Rx,0,8,00,00,00,00,00,00,00,00,
-1666864169480607,1BFE2219,true,Rx,0,8,00,00,00,00,00,00,00,00,
-1666864169480266,1BFE221B,true,Rx,0,8,00,00,00,00,00,00,00,00,
-1666864169479967,1BFE221C,true,Rx,0,8,00,00,3F,00,00,00,00,00,
-1666864169479626,1BFE221E,true,Rx,0,8,7D,01,00,00,00,00,00,00,
-1666864169479327,1BFE2222,true,Rx,0,8,00,00,58,00,7E,1C,00,00,
-1666864169479029,1BFE2223,true,Rx,0,8,11,01,00,00,00,00,00,00,
-1666864169478687,1BFE2225,true,Rx,0,8,00,00,00,00,00,00,00,00,
-1666864169478389,1BFE2227,true,Rx,0,8,00,00,00,00,00,04,00,00,
-1666864169478047,1BFE2232,true,Rx,0,8,00,00,00,00,00,00,00,00,
-1666864169477749,1BFE2235,true,Rx,0,8,81,04,00,00,00,00,00,00,
-1666864169477407,1BFE2238,true,Rx,0,8,00,00,32,00,01,01,00,00,
-1666864169477109,1BFE2239,true,Rx,0,8,00,01,01,00,00,00,00,00,
-1666864169476767,1BFE223A,true,Rx,0,8,04,01,00,00,5D,00,00,00,
-1666864169476469,1BFE223B,true,Rx,0,8,0C,00,00,00,00,00,00,00,
-1666864169476127,1BFE223C,true,Rx,0,8,22,00,00,00,00,00,00,00,
-1666864169475786,1BFE223D,true,Rx,0,8,00,00,00,00,00,00,00,5C,
-1666864169475487,1BFE2248,true,Rx,0,8,00,00,00,00,00,00,00,00,
-1666864169402660,0000038B,false,Rx,0,8,00,00,00,00,00,00,00,00,
-1666864169382736,1BFE221A,true,Rx,0,8,00,A5,00,00,7E,00,00,00,
-1666864169382437,1BFE2209,true,Rx,0,8,00,00,01,00,D0,E0,03,00,
-1666864169382139,1BFE2215,true,Rx,0,8,60,97,9E,80,80,80,AA,9A,
-1666864169381840,1BFE2216,true,Rx,0,8,00,00,00,00,00,00,C0,FA,
-1666864169381541,1BFE2217,true,Rx,0,8,00,00,CD,B4,A5,00,00,00,
-1666864169381243,1BFE2218,true,Rx,0,8,00,00,00,00,00,00,00,00,
-1666864169380901,1BFE2219,true,Rx,0,8,00,00,00,00,00,00,00,00,
-1666864169380603,1BFE221B,true,Rx,0,8,00,00,00,00,00,00,00,00,
-1666864169380261,1BFE221C,true,Rx,0,8,00,00,3F,00,00,00,00,00,
-1666864169379963,1BFE221E,true,Rx,0,8,7D,01,00,00,00,00,00,00,
-1666864169379664,1BFE2222,true,Rx,0,8,00,00,58,00,7E,1C,00,00,
-1666864169379323,1BFE2223,true,Rx,0,8,11,01,00,00,00,00,00,00,
-1666864169379024,1BFE2225,true,Rx,0,8,00,00,00,00,00,00,00,00,
-1666864169378683,1BFE2227,true,Rx,0,8,00,00,00,00,00,04,00,00,
-1666864169378384,1BFE2232,true,Rx,0,8,00,00,00,00,00,00,00,00,
-1666864169378043,1BFE2235,true,Rx,0,8,81,04,00,00,00,00,00,00,
-1666864169377744,1BFE2238,true,Rx,0,8,00,00,32,00,01,01,00,00,
-1666864169377403,1BFE2239,true,Rx,0,8,00,01,01,00,00,00,00,00,
-1666864169377104,1BFE223A,true,Rx,0,8,04,01,00,00,53,00,00,00,
-1666864169376763,1BFE223B,true,Rx,0,8,02,00,00,00,00,00,00,00,
-1666864169376464,1BFE223C,true,Rx,0,8,22,00,00,00,00,00,00,00,
-1666864169376123,1BFE223D,true,Rx,0,8,00,00,00,00,00,00,00,5C,
-1666864169375782,1BFE2248,true,Rx,0,8,00,00,00,00,00,00,00,00,
-1666864169302656,0000038B,false,Rx,0,8,00,00,00,00,00,00,00,00,
-1666864169282774,1BFE221A,true,Rx,0,8,00,A5,00,00,7E,00,00,00,
-1666864169282475,1BFE2207,true,Rx,0,8,46,00,00,88,00,40,00,04,
-1666864169282177,1BFE2215,true,Rx,0,8,60,97,9E,80,80,80,AA,9A,
-1666864169281878,1BFE2216,true,Rx,0,8,00,00,00,00,00,00,C0,FA,
-1666864169281580,1BFE2217,true,Rx,0,8,00,00,CD,B4,A5,00,00,00,
-1666864169281238,1BFE2218,true,Rx,0,8,00,00,00,00,00,00,00,00,
-1666864169280940,1BFE2219,true,Rx,0,8,00,00,00,00,00,00,00,00,
-1666864169280598,1BFE221B,true,Rx,0,8,00,00,00,00,00,00,00,00,
-1666864169280300,1BFE221C,true,Rx,0,8,00,00,3F,00,00,00,00,00,
-1666864169280001,1BFE221E,true,Rx,0,8,7D,01,00,00,00,00,00,00,
-1666864169279660,1BFE2222,true,Rx,0,8,00,00,58,00,7E,1C,00,00,
-1666864169279361,1BFE2223,true,Rx,0,8,11,01,00,00,00,00,00,00,
-1666864169279020,1BFE2225,true,Rx,0,8,00,00,00,00,00,00,00,00,
-1666864169278721,1BFE2227,true,Rx,0,8,00,00,00,00,00,04,00,00,
-1666864169278380,1BFE2232,true,Rx,0,8,00,00,00,00,00,00,00,00,
-1666864169278081,1BFE2235,true,Rx,0,8,81,04,00,00,00,00,00,00,
-1666864169277740,1BFE2238,true,Rx,0,8,00,00,32,00,01,01,00,00,
-1666864169277441,1BFE2239,true,Rx,0,8,00,01,01,00,00,00,00,00,
-1666864169277100,1BFE223A,true,Rx,0,8,04,01,00,00,5D,00,00,00,
-1666864169276801,1BFE223B,true,Rx,0,8,0C,00,00,00,00,00,00,00,
-1666864169276460,1BFE223C,true,Rx,0,8,22,00,00,00,00,00,00,00,
-1666864169276161,1BFE223D,true,Rx,0,8,00,00,00,00,00,00,00,5C,
-1666864169275820,1BFE2248,true,Rx,0,8,00,00,00,00,00,00,00,00,
-1666864169202694,0000038B,false,Rx,0,8,00,00,00,00,00,00,00,00,
-1666864169182770,1BFE221A,true,Rx,0,8,00,A6,00,00,7E,00,00,00,
-1666864169182471,1BFE2207,true,Rx,0,8,46,00,00,88,00,3E,00,04,
-1666864169182172,1BFE2209,true,Rx,0,8,00,00,01,00,D0,00,04,00,
-1666864169181874,1BFE2215,true,Rx,0,8,60,97,9E,80,80,80,AA,9A,
-1666864169181575,1BFE2216,true,Rx,0,8,00,00,00,00,00,00,C0,FA,
-1666864169181234,1BFE2217,true,Rx,0,8,00,00,CD,B4,A4,00,00,00,
-1666864169180935,1BFE2218,true,Rx,0,8,00,00,00,00,00,00,00,00,
-1666864169180636,1BFE2219,true,Rx,0,8,00,00,00,00,00,00,00,00,
-1666864169180295,1BFE221B,true,Rx,0,8,00,00,00,00,00,00,00,00,
-1666864169179997,1BFE221C,true,Rx,0,8,00,00,3F,00,00,00,00,00,
-1666864169179655,1BFE221E,true,Rx,0,8,7D,01,00,00,00,00,00,00,
-1666864169179357,1BFE2222,true,Rx,0,8,00,00,58,00,7E,1C,00,00,
-1666864169179058,1BFE2223,true,Rx,0,8,11,01,00,00,00,00,00,00,
-1666864169178717,1BFE2225,true,Rx,0,8,00,00,00,00,00,00,00,00,
-1666864169178418,1BFE2227,true,Rx,0,8,00,00,00,00,00,04,00,00,
-1666864169178077,1BFE2232,true,Rx,0,8,00,00,00,00,00,00,00,00,
-1666864169177778,1BFE2235,true,Rx,0,8,81,04,00,00,00,00,00,00,
-1666864169177437,1BFE2238,true,Rx,0,8,00,00,32,00,01,01,00,00,
-1666864169177138,1BFE2239,true,Rx,0,8,00,01,01,00,00,00,00,00,
-1666864169176797,1BFE223A,true,Rx,0,8,04,01,00,00,53,00,00,00,
-1666864169176498,1BFE223B,true,Rx,0,8,02,00,00,00,00,00,00,00,
-1666864169176157,1BFE223C,true,Rx,0,8,22,00,00,00,00,00,00,00,
-1666864169175858,1BFE223D,true,Rx,0,8,00,00,00,00,00,00,00,5C,
-1666864169175517,1BFE2248,true,Rx,0,8,00,00,00,00,00,00,00,00,
-1666864169102689,0000038B,false,Rx,0,8,00,00,00,00,00,00,00,00,
-1666864169092706,0000067E,false,Rx,0,8,1C,07,00,00,5B,00,00,40,
-1666864169082808,1BFE221A,true,Rx,0,8,00,A6,00,00,7E,00,00,00,
-1666864169082467,1BFE2209,true,Rx,0,8,00,00,01,00,D0,E0,03,00,
-1666864169082168,1BFE2210,true,Rx,0,8,00,00,00,10,10,00,00,00,
-1666864169081869,1BFE2215,true,Rx,0,8,60,97,9E,80,80,80,AA,9A,
-1666864169081571,1BFE2216,true,Rx,0,8,00,00,00,00,00,00,C0,FA,
-1666864169081272,1BFE2217,true,Rx,0,8,00,00,CD,B4,A5,00,00,00,
-1666864169080931,1BFE2218,true,Rx,0,8,00,00,00,00,00,00,00,00,
-1666864169080632,1BFE2219,true,Rx,0,8,00,00,00,00,00,00,00,00,
-1666864169080333,1BFE221B,true,Rx,0,8,00,00,00,00,00,00,00,00,
-1666864169079992,1BFE221C,true,Rx,0,8,00,00,3F,00,00,00,00,00,
-1666864169079693,1BFE221E,true,Rx,0,8,7D,01,00,00,00,00,00,00,
-1666864169079395,1BFE2222,true,Rx,0,8,00,00,58,00,7E,1C,00,00,
-1666864169079054,1BFE2223,true,Rx,0,8,11,01,00,00,00,00,00,00,
-1666864169078755,1BFE2225,true,Rx,0,8,00,00,00,00,00,00,00,00,
-1666864169078414,1BFE2227,true,Rx,0,8,00,00,00,00,00,04,00,00,
-1666864169078115,1BFE2232,true,Rx,0,8,00,00,00,00,00,00,00,00,
-1666864169077774,1BFE2235,true,Rx,0,8,81,04,00,00,00,00,00,00,
-1666864169077475,1BFE2238,true,Rx,0,8,00,00,32,00,01,01,00,00,
-1666864169077134,1BFE2239,true,Rx,0,8,00,01,01,00,00,00,00,00,
-1666864169076835,1BFE223A,true,Rx,0,8,04,01,00,00,5D,00,00,00,
-1666864169076494,1BFE223B,true,Rx,0,8,0C,00,00,00,00,00,00,00,
-1666864169076195,1BFE223C,true,Rx,0,8,22,00,00,00,00,00,00,00,
-1666864169075854,1BFE223D,true,Rx,0,8,00,00,00,00,00,00,00,5C,
-1666864169075512,1BFE2248,true,Rx,0,8,00,00,00,00,00,00,00,00,
-1666864169002655,0000038B,false,Rx,0,8,00,00,00,00,00,00,00,00,
-1666864168982774,1BFE221A,true,Rx,0,8,00,A6,00,00,7E,00,00,00,
-1666864168982475,1BFE2215,true,Rx,0,8,60,97,9E,80,80,80,AA,9A,
-1666864168982176,1BFE2216,true,Rx,0,8,00,00,00,00,00,00,C0,FA,
-1666864168981878,1BFE2217,true,Rx,0,8,00,00,CD,B4,A5,00,00,00,
-1666864168981536,1BFE2218,true,Rx,0,8,00,00,00,00,00,00,00,00,
-1666864168981238,1BFE2219,true,Rx,0,8,00,00,00,00,00,00,00,00,
-1666864168980896,1BFE221B,true,Rx,0,8,00,00,00,00,00,00,00,00,
-1666864168980598,1BFE221C,true,Rx,0,8,00,00,3F,00,00,00,00,00,
-1666864168980299,1BFE221E,true,Rx,0,8,7D,01,00,00,00,00,00,00,
-1666864168979958,1BFE2222,true,Rx,0,8,00,00,58,00,7E,1C,00,00,
-1666864168979659,1BFE2223,true,Rx,0,8,11,01,00,00,00,00,00,00,
-1666864168979360,1BFE2225,true,Rx,0,8,00,00,00,00,00,00,00,00,
-1666864168979019,1BFE2227,true,Rx,0,8,00,00,00,00,00,04,00,00,
-1666864168978720,1BFE2232,true,Rx,0,8,00,00,00,00,00,00,00,00,
-1666864168978379,1BFE2235,true,Rx,0,8,81,04,00,00,00,00,00,00,
-1666864168978080,1BFE2238,true,Rx,0,8,00,00,32,00,01,01,00,00,
-1666864168977739,1BFE2239,true,Rx,0,8,00,01,01,00,00,00,00,00,
-1666864168977441,1BFE223A,true,Rx,0,8,04,01,00,00,53,00,00,00,
-1666864168977099,1BFE223B,true,Rx,0,8,02,00,00,00,00,00,00,00,
-1666864168976758,1BFE223C,true,Rx,0,8,22,00,00,00,00,00,00,00,
-1666864168976459,1BFE223D,true,Rx,0,8,00,00,00,00,00,00,00,5C,
-1666864168976118,1BFE2248,true,Rx,0,8,00,00,00,00,00,00,00,00,
-1666864168902693,0000038B,false,Rx,0,8,00,00,00,00,00,00,00,00,
-1666864168882769,1BFE220C,true,Rx,0,8,00,00,00,00,00,00,00,00,
-1666864168882470,1BFE220D,true,Rx,0,8,00,00,00,00,00,00,00,00,
-1666864168882172,1BFE2215,true,Rx,0,8,60,97,9E,80,80,80,AA,9A,
-1666864168881873,1BFE2216,true,Rx,0,8,00,00,00,00,00,00,C0,FA,
-1666864168881575,1BFE2217,true,Rx,0,8,00,00,CD,B4,A5,00,00,00,
-1666864168881233,1BFE2218,true,Rx,0,8,00,00,00,00,00,00,00,00,
-1666864168880935,1BFE2219,true,Rx,0,8,00,00,00,00,00,00,00,00,
-1666864168880636,1BFE221A,true,Rx,0,8,00,A5,00,00,7E,00,00,00,
-1666864168880295,1BFE221B,true,Rx,0,8,00,00,00,00,00,00,00,00,
-1666864168879996,1BFE221C,true,Rx,0,8,00,00,3F,00,00,00,00,00,
-1666864168879655,1BFE221E,true,Rx,0,8,7D,01,00,00,00,00,00,00,
-1666864168879356,1BFE2222,true,Rx,0,8,00,00,58,00,7E,1C,00,00,
-1666864168879057,1BFE2223,true,Rx,0,8,11,01,00,00,00,00,00,00,
-1666864168878716,1BFE2225,true,Rx,0,8,00,00,00,00,00,00,00,00,
-1666864168878417,1BFE2227,true,Rx,0,8,00,00,00,00,00,04,00,00,
-1666864168878076,1BFE2232,true,Rx,0,8,00,00,00,00,00,00,00,00,
-1666864168877777,1BFE2235,true,Rx,0,8,81,04,00,00,00,00,00,00,
-1666864168877436,1BFE2238,true,Rx,0,8,00,00,32,00,01,01,00,00,
-1666864168877137,1BFE2239,true,Rx,0,8,00,01,01,00,00,00,00,00,
-1666864168876796,1BFE223A,true,Rx,0,8,04,01,00,00,5D,00,00,00,
-1666864168876498,1BFE223B,true,Rx,0,8,0C,00,00,00,00,00,00,00,
-1666864168876156,1BFE223C,true,Rx,0,8,22,00,00,00,00,00,00,00,
-1666864168875815,1BFE223D,true,Rx,0,8,00,00,00,00,00,00,00,5C,
-1666864168875516,1BFE2248,true,Rx,0,8,00,00,00,00,00,00,00,00,
-1666864168802689,0000038B,false,Rx,0,8,00,00,00,00,00,00,00,00,
-1666864168782807,1BFE220B,true,Rx,0,8,00,00,00,00,00,00,11,00,
-1666864168782509,1BFE2215,true,Rx,0,8,60,97,9E,80,80,80,AA,9A,
-1666864168782210,1BFE2216,true,Rx,0,8,00,00,00,00,00,00,C0,FA,
-1666864168781911,1BFE2217,true,Rx,0,8,00,00,CD,B4,A5,00,00,00,
-1666864168781570,1BFE2218,true,Rx,0,8,00,00,00,00,00,00,00,00,
-1666864168781271,1BFE2219,true,Rx,0,8,00,00,00,00,00,00,00,00,
-1666864168780930,1BFE221A,true,Rx,0,8,00,A6,00,00,7E,00,00,00,
-1666864168780631,1BFE221B,true,Rx,0,8,00,00,00,00,00,00,00,00,
-1666864168780333,1BFE221C,true,Rx,0,8,00,00,3F,00,00,00,00,00,
-1666864168779992,1BFE221E,true,Rx,0,8,7D,01,00,00,00,00,00,00,
-1666864168779693,1BFE2222,true,Rx,0,8,00,00,58,00,7E,1C,00,00,
-1666864168779394,1BFE2223,true,Rx,0,8,11,01,00,00,00,00,00,00,
-1666864168779053,1BFE2225,true,Rx,0,8,00,00,00,00,00,00,00,00,
-1666864168778754,1BFE2227,true,Rx,0,8,00,00,00,00,00,04,00,00,
-1666864168778413,1BFE2232,true,Rx,0,8,00,00,00,00,00,00,00,00,
-1666864168778114,1BFE2235,true,Rx,0,8,81,04,00,00,00,00,00,00,
-1666864168777773,1BFE2238,true,Rx,0,8,00,00,32,00,01,01,00,00,
-1666864168777474,1BFE2239,true,Rx,0,8,00,01,01,00,00,00,00,00,
-1666864168777133,1BFE223A,true,Rx,0,8,04,01,00,00,53,00,00,00,
-1666864168776834,1BFE223B,true,Rx,0,8,02,00,00,00,00,00,00,00,
-1666864168776493,1BFE223C,true,Rx,0,8,22,00,00,00,00,00,00,00,
-1666864168776152,1BFE223D,true,Rx,0,8,00,00,00,00,00,00,00,5C,
-1666864168775853,1BFE2248,true,Rx,0,8,00,00,00,00,00,00,00,00,
-1666864168702727,0000038B,false,Rx,0,8,00,00,00,00,00,00,00,00,
-1666864168692744,00000564,false,Rx,0,8,D9,0B,00,00,F8,17,3D,00,
-1666864168682803,1BFE221A,true,Rx,0,8,00,A6,00,00,7E,00,00,00,
-1666864168682504,1BFE2203,true,Rx,0,8,00,00,00,18,00,18,00,00,
-1666864168682206,1BFE2215,true,Rx,0,8,60,97,9E,80,80,80,AA,9A,
-1666864168681907,1BFE2216,true,Rx,0,8,00,00,00,00,00,00,C0,FA,
-1666864168681608,1BFE2217,true,Rx,0,8,00,00,CD,B4,A5,00,00,00,
-1666864168681267,1BFE2218,true,Rx,0,8,00,00,00,00,00,00,00,00,
-1666864168680968,1BFE2219,true,Rx,0,8,00,00,00,00,00,00,00,00,
-1666864168680670,1BFE221B,true,Rx,0,8,00,00,00,00,00,00,00,00,
-1666864168680328,1BFE221C,true,Rx,0,8,00,00,3F,00,00,00,00,00,
-1666864168680030,1BFE221E,true,Rx,0,8,7D,01,00,00,00,00,00,00,
-1666864168679688,1BFE2222,true,Rx,0,8,00,00,58,00,7E,1C,00,00,
-1666864168679390,1BFE2223,true,Rx,0,8,11,01,00,00,00,00,00,00,
-1666864168679091,1BFE2225,true,Rx,0,8,00,00,00,00,00,00,00,00,
-1666864168678750,1BFE2227,true,Rx,0,8,00,00,00,00,00,04,00,00,
-1666864168678451,1BFE2232,true,Rx,0,8,00,00,00,00,00,00,00,00,
-1666864168678110,1BFE2235,true,Rx,0,8,81,04,00,00,00,00,00,00,
-1666864168677811,1BFE2238,true,Rx,0,8,00,00,32,00,01,01,00,00,
-1666864168677470,1BFE2239,true,Rx,0,8,00,01,01,00,00,00,00,00,
-1666864168677171,1BFE223A,true,Rx,0,8,04,01,00,00,5D,00,00,00,
-1666864168676830,1BFE223B,true,Rx,0,8,0C,00,00,00,00,00,00,00,
-1666864168676489,1BFE223C,true,Rx,0,8,22,00,00,00,00,00,00,00,
-1666864168676190,1BFE223D,true,Rx,0,8,00,00,00,00,00,00,00,5C,
-1666864168675849,1BFE2248,true,Rx,0,8,00,00,00,00,00,00,00,00,
-1666864168602723,0000038B,false,Rx,0,8,00,00,00,00,00,00,00,00,
-1666864168582799,1BFE221A,true,Rx,0,8,00,A5,00,00,7E,00,00,00,
-1666864168582543,1BFE2205,true,Rx,0,8,45,45,00,00,00,41,09,30,
-1666864168582244,1BFE2215,true,Rx,0,8,60,97,9E,80,80,80,AA,9A,
-1666864168581903,1BFE2216,true,Rx,0,8,00,00,00,00,00,00,C0,FA,
-1666864168581604,1BFE2217,true,Rx,0,8,00,00,CD,B4,A5,00,00,00,
-1666864168581305,1BFE2218,true,Rx,0,8,00,00,00,00,00,00,00,00,
-1666864168581007,1BFE2219,true,Rx,0,8,00,00,00,00,00,00,00,00,
-1666864168580665,1BFE221B,true,Rx,0,8,00,00,00,00,00,00,00,00,
-1666864168580367,1BFE221C,true,Rx,0,8,00,00,3F,00,00,00,00,00,
-1666864168580025,1BFE221E,true,Rx,0,8,7D,01,00,00,00,00,00,00,
-1666864168579727,1BFE2222,true,Rx,0,8,00,00,58,00,7E,1C,00,00,
-1666864168579428,1BFE2223,true,Rx,0,8,11,01,00,00,00,00,00,00,
-1666864168579087,1BFE2225,true,Rx,0,8,00,00,00,00,00,00,00,00,
-1666864168578788,1BFE2227,true,Rx,0,8,00,00,00,00,00,04,00,00,
-1666864168578447,1BFE2232,true,Rx,0,8,00,00,00,00,00,00,00,00,
-1666864168578148,1BFE2235,true,Rx,0,8,81,04,00,00,00,00,00,00,
-1666864168577807,1BFE2238,true,Rx,0,8,00,00,32,00,01,01,00,00,
-1666864168577508,1BFE2239,true,Rx,0,8,00,01,01,00,00,00,00,00,
-1666864168577167,1BFE223A,true,Rx,0,8,04,01,00,00,53,00,00,00,
-1666864168576868,1BFE223B,true,Rx,0,8,02,00,00,00,00,00,00,00,
-1666864168576527,1BFE223C,true,Rx,0,8,22,00,00,00,00,00,00,00,
-1666864168576228,1BFE223D,true,Rx,0,8,00,00,00,00,00,00,00,5C,
-1666864168575887,1BFE2248,true,Rx,0,8,00,00,00,00,00,00,00,00,
-1666864168502718,0000038B,false,Rx,0,8,00,00,00,00,00,00,00,00,
-1666864168482837,1BFE221A,true,Rx,0,8,00,A5,00,00,7E,00,00,00,
-1666864168482538,1BFE2215,true,Rx,0,8,60,97,9E,80,80,80,AA,9A,
-1666864168482239,1BFE2216,true,Rx,0,8,00,00,00,00,00,00,BF,FB,
-1666864168481941,1BFE2217,true,Rx,0,8,00,00,CD,B4,A5,00,00,00,
-1666864168481600,1BFE2218,true,Rx,0,8,00,00,00,00,00,00,00,00,
-1666864168481301,1BFE2219,true,Rx,0,8,00,00,00,00,00,00,00,00,
-1666864168481002,1BFE221B,true,Rx,0,8,00,00,00,00,00,00,00,00,
-1666864168480661,1BFE221C,true,Rx,0,8,00,00,3F,00,00,00,00,00,
-1666864168480362,1BFE221E,true,Rx,0,8,7D,01,00,00,00,00,00,00,
-1666864168480021,1BFE2222,true,Rx,0,8,00,00,58,00,7E,1C,00,00,
-1666864168479722,1BFE2223,true,Rx,0,8,11,01,00,00,00,00,00,00,
-1666864168479381,1BFE2225,true,Rx,0,8,00,00,00,00,00,00,00,00,
-1666864168479082,1BFE2227,true,Rx,0,8,00,00,00,00,00,04,00,00,
-1666864168478741,1BFE2232,true,Rx,0,8,00,00,00,00,00,00,00,00,
-1666864168478442,1BFE2235,true,Rx,0,8,81,04,00,00,00,00,00,00,
-1666864168478101,1BFE2238,true,Rx,0,8,00,00,32,00,01,01,00,00,
-1666864168477802,1BFE2239,true,Rx,0,8,00,01,01,00,00,00,00,00,
-1666864168477461,1BFE223A,true,Rx,0,8,04,01,00,00,5D,00,00,00,
-1666864168477162,1BFE223B,true,Rx,0,8,0C,00,00,00,00,00,00,00,
-1666864168476821,1BFE223C,true,Rx,0,8,22,00,00,00,00,00,00,00,
-1666864168476523,1BFE223D,true,Rx,0,8,00,00,00,00,00,00,00,5C,
-1666864168476181,1BFE2248,true,Rx,0,8,00,00,00,00,00,00,00,00,
-1666864168402756,0000038B,false,Rx,0,8,00,00,00,00,00,00,00,00,
-1666864168382832,1BFE221A,true,Rx,0,8,00,A5,00,00,7E,00,00,00,
-1666864168382534,1BFE2215,true,Rx,0,8,60,97,9E,80,80,80,AA,9A,
-1666864168382235,1BFE2216,true,Rx,0,8,00,00,00,00,00,00,C0,FA,
-1666864168381936,1BFE2217,true,Rx,0,8,00,00,CD,B4,A5,00,00,00,
-1666864168381595,1BFE2218,true,Rx,0,8,00,00,00,00,00,00,00,00,
-1666864168381296,1BFE2219,true,Rx,0,8,00,00,00,00,00,00,00,00,
-1666864168380998,1BFE221B,true,Rx,0,8,00,00,00,00,00,00,00,00,
-1666864168380656,1BFE221C,true,Rx,0,8,00,00,3F,00,00,00,00,00,
-1666864168380358,1BFE221E,true,Rx,0,8,7D,01,00,00,00,00,00,00,
-1666864168380017,1BFE2222,true,Rx,0,8,00,00,58,00,7E,1C,00,00,
-1666864168379718,1BFE2223,true,Rx,0,8,11,01,00,00,00,00,00,00,
-1666864168379377,1BFE2225,true,Rx,0,8,00,00,00,00,00,00,00,00,
-1666864168379078,1BFE2227,true,Rx,0,8,00,00,00,00,00,04,00,00,
-1666864168378779,1BFE2232,true,Rx,0,8,00,00,00,00,00,00,00,00,
-1666864168378438,1BFE2235,true,Rx,0,8,81,04,00,00,00,00,00,00,
-1666864168378097,1BFE2238,true,Rx,0,8,00,00,32,00,01,01,00,00,
-1666864168377798,1BFE2239,true,Rx,0,8,00,01,01,00,00,00,00,00,
-1666864168377499,1BFE223A,true,Rx,0,8,04,01,00,00,53,00,00,00,
-1666864168377158,1BFE223B,true,Rx,0,8,02,00,00,00,00,00,00,00,
-1666864168376817,1BFE223C,true,Rx,0,8,22,00,00,00,00,00,00,00,
-1666864168376518,1BFE223D,true,Rx,0,8,00,00,00,00,00,00,00,5C,
-1666864168376177,1BFE2248,true,Rx,0,8,00,00,00,00,00,00,00,00,
-1666864168302752,0000038B,false,Rx,0,8,00,00,00,00,00,00,00,00,
-1666864168282871,1BFE221A,true,Rx,0,8,00,A5,00,00,7E,00,00,00,
-1666864168282572,1BFE2215,true,Rx,0,8,60,97,9E,80,80,80,AA,9A,
-1666864168282231,1BFE2216,true,Rx,0,8,00,00,00,00,00,00,C0,FA,
-1666864168281932,1BFE2217,true,Rx,0,8,00,00,CD,B4,A5,00,00,00,
-1666864168281633,1BFE2218,true,Rx,0,8,00,00,00,00,00,00,00,00,
-1666864168281335,1BFE2219,true,Rx,0,8,00,00,00,00,00,00,00,00,
-1666864168280993,1BFE221B,true,Rx,0,8,00,00,00,00,00,00,00,00,
-1666864168280695,1BFE221C,true,Rx,0,8,00,00,3F,00,00,00,00,00,
-1666864168280396,1BFE221E,true,Rx,0,8,7D,01,00,00,00,00,00,00,
-1666864168280055,1BFE2222,true,Rx,0,8,00,00,58,00,7E,1C,00,00,
-1666864168279756,1BFE2223,true,Rx,0,8,11,01,00,00,00,00,00,00,
-1666864168279415,1BFE2225,true,Rx,0,8,00,00,00,00,00,00,00,00,
-1666864168279116,1BFE2227,true,Rx,0,8,00,00,00,00,00,04,00,00,
-1666864168278775,1BFE2232,true,Rx,0,8,00,00,00,00,00,00,00,00,
-1666864168278476,1BFE2235,true,Rx,0,8,81,04,00,00,00,00,00,00,
-1666864168278135,1BFE2238,true,Rx,0,8,00,00,32,00,01,01,00,00,
-1666864168277836,1BFE2239,true,Rx,0,8,00,01,01,00,00,00,00,00,
-1666864168277495,1BFE223A,true,Rx,0,8,04,01,00,00,5D,00,00,00,
-1666864168277196,1BFE223B,true,Rx,0,8,0C,00,00,00,00,00,00,00,
-1666864168276855,1BFE223C,true,Rx,0,8,22,00,00,00,00,00,00,00,
-1666864168276514,1BFE223D,true,Rx,0,8,00,00,00,00,00,00,00,5C,
-1666864168276215,1BFE2248,true,Rx,0,8,00,00,00,00,00,00,00,00,
-1666864168202748,0000038B,false,Rx,0,8,00,00,00,00,00,00,00,00,
-1666864168182866,1BFE221A,true,Rx,0,8,00,A6,00,00,7E,00,00,00,
-1666864168182568,1BFE2215,true,Rx,0,8,60,97,9E,80,80,80,AA,9A,
-1666864168182269,1BFE2216,true,Rx,0,8,00,00,00,00,00,00,C0,FA,
-1666864168181970,1BFE2217,true,Rx,0,8,00,00,CD,B4,A5,00,00,00,
-1666864168181629,1BFE2218,true,Rx,0,8,00,00,00,00,00,00,00,00,
-1666864168181330,1BFE2219,true,Rx,0,8,00,00,00,00,00,00,00,00,
-1666864168181032,1BFE221B,true,Rx,0,8,00,00,00,00,00,00,00,00,
-1666864168180690,1BFE221C,true,Rx,0,8,00,00,3F,00,00,00,00,00,
-1666864168180392,1BFE221E,true,Rx,0,8,7D,01,00,00,00,00,00,00,
-1666864168180093,1BFE2222,true,Rx,0,8,00,00,58,00,7E,1C,00,00,
-1666864168179752,1BFE2223,true,Rx,0,8,11,01,00,00,00,00,00,00,
-1666864168179453,1BFE2225,true,Rx,0,8,00,00,00,00,00,00,00,00,
-1666864168179112,1BFE2227,true,Rx,0,8,00,00,00,00,00,04,00,00,
-1666864168178813,1BFE2232,true,Rx,0,8,00,00,00,00,00,00,00,00,
-1666864168178472,1BFE2235,true,Rx,0,8,81,04,00,00,00,00,00,00,
-1666864168178173,1BFE2238,true,Rx,0,8,00,00,32,00,01,01,00,00,
-1666864168177832,1BFE2239,true,Rx,0,8,00,01,01,00,00,00,00,00,
-1666864168177533,1BFE223A,true,Rx,0,8,04,01,00,00,53,00,00,00,
-1666864168177192,1BFE223B,true,Rx,0,8,02,00,00,00,00,00,00,00,
-1666864168176893,1BFE223C,true,Rx,0,8,22,00,00,00,00,00,00,00,
-1666864168176552,1BFE223D,true,Rx,0,8,00,00,00,00,00,00,00,5C,
-1666864168176211,1BFE2248,true,Rx,0,8,00,00,00,00,00,00,00,00,
-1666864168102786,0000038B,false,Rx,0,8,00,00,00,00,00,00,00,00,
-1666864168092802,0000067E,false,Rx,0,8,13,08,00,00,5B,00,00,40,
-1666864168082904,1BFE221A,true,Rx,0,8,00,A5,00,00,7E,00,00,00,
-1666864168082606,1BFE2215,true,Rx,0,8,60,97,9E,80,80,80,AA,9A,
-1666864168082264,1BFE2216,true,Rx,0,8,00,00,00,00,00,00,C0,FA,
-1666864168081966,1BFE2217,true,Rx,0,8,00,00,CD,B4,A5,00,00,00,
-1666864168081667,1BFE2218,true,Rx,0,8,00,00,00,00,00,00,00,00,
-1666864168081369,1BFE2219,true,Rx,0,8,00,00,00,00,00,00,00,00,
-1666864168081027,1BFE221B,true,Rx,0,8,00,00,00,00,00,00,00,00,
-1666864168080729,1BFE221C,true,Rx,0,8,00,00,3F,00,00,00,00,00,
-1666864168080387,1BFE221E,true,Rx,0,8,7D,01,00,00,00,00,00,00,
-1666864168080089,1BFE2222,true,Rx,0,8,00,00,58,00,7E,1C,00,00,
-1666864168079747,1BFE2223,true,Rx,0,8,11,01,00,00,00,00,00,00,
-1666864168079449,1BFE2225,true,Rx,0,8,00,00,00,00,00,00,00,00,
-1666864168079107,1BFE2227,true,Rx,0,8,00,00,00,00,00,04,00,00,
-1666864168078809,1BFE2232,true,Rx,0,8,00,00,00,00,00,00,00,00,
-1666864168078467,1BFE2235,true,Rx,0,8,81,04,00,00,00,00,00,00,
-1666864168078169,1BFE2238,true,Rx,0,8,00,00,32,00,01,01,00,00,
-1666864168077827,1BFE2239,true,Rx,0,8,00,01,01,00,00,00,00,00,
-1666864168077529,1BFE223A,true,Rx,0,8,04,01,00,00,5D,00,00,00,
-1666864168077187,1BFE223B,true,Rx,0,8,0C,00,00,00,00,00,00,00,
-1666864168076889,1BFE223C,true,Rx,0,8,22,00,00,00,00,00,00,00,
-1666864168076548,1BFE223D,true,Rx,0,8,00,00,00,00,00,00,00,5C,
-1666864168076206,1BFE2248,true,Rx,0,8,00,00,00,00,00,00,00,00,
-1666864168002751,0000038B,false,Rx,0,8,00,00,00,00,00,00,00,00,
-1666864167982870,1BFE221A,true,Rx,0,8,00,A5,00,00,7E,00,00,00,
-1666864167982571,1BFE2215,true,Rx,0,8,60,97,9E,80,80,80,AA,9A,
-1666864167982273,1BFE2216,true,Rx,0,8,00,00,00,00,00,00,C0,FA,
-1666864167981974,1BFE2217,true,Rx,0,8,00,00,CD,B4,A5,00,00,00,
-1666864167981633,1BFE2218,true,Rx,0,8,00,00,00,00,00,00,00,00,
-1666864167981334,1BFE2219,true,Rx,0,8,00,00,00,00,00,00,00,00,
-1666864167980993,1BFE221B,true,Rx,0,8,00,00,00,00,00,00,00,00,
-1666864167980694,1BFE221C,true,Rx,0,8,00,00,3F,00,00,00,00,00,
-1666864167980396,1BFE221E,true,Rx,0,8,7D,01,00,00,00,00,00,00,
-1666864167980054,1BFE2222,true,Rx,0,8,00,00,58,00,7E,1C,00,00,
-1666864167979756,1BFE2223,true,Rx,0,8,11,01,00,00,00,00,00,00,
-1666864167979457,1BFE2225,true,Rx,0,8,00,00,00,00,00,00,00,00,
-1666864167979116,1BFE2227,true,Rx,0,8,00,00,00,00,00,04,00,00,
-1666864167978817,1BFE2232,true,Rx,0,8,00,00,00,00,00,00,00,00,
-1666864167978476,1BFE2235,true,Rx,0,8,81,04,00,00,00,00,00,00,
-1666864167978177,1BFE2238,true,Rx,0,8,00,00,32,00,01,01,00,00,
-1666864167977836,1BFE2239,true,Rx,0,8,00,01,01,00,00,00,00,00,
-1666864167977537,1BFE223A,true,Rx,0,8,04,01,00,00,53,00,00,00,
-1666864167977196,1BFE223B,true,Rx,0,8,02,00,00,00,00,00,00,00,
-1666864167976897,1BFE223C,true,Rx,0,8,22,00,00,00,00,00,00,00,
-1666864167976556,1BFE223D,true,Rx,0,8,00,00,00,00,00,00,00,5C,
-1666864167976214,1BFE2248,true,Rx,0,8,00,00,00,00,00,00,00,00,
-1666864167902790,0000038B,false,Rx,0,8,00,00,00,00,00,00,00,00,
-1666864167882866,1BFE221A,true,Rx,0,8,00,A5,00,00,7E,00,00,00,
-1666864167882567,1BFE2215,true,Rx,0,8,60,97,9E,80,80,80,AA,9A,
-1666864167882268,1BFE2216,true,Rx,0,8,00,00,00,00,00,00,BF,FA,
-1666864167881970,1BFE2217,true,Rx,0,8,00,00,CD,B4,A5,00,00,00,
-1666864167881671,1BFE2218,true,Rx,0,8,00,00,00,00,00,00,00,00,
-1666864167881330,1BFE2219,true,Rx,0,8,00,00,00,00,00,00,00,00,
-1666864167881031,1BFE221B,true,Rx,0,8,00,00,00,00,00,00,00,00,
-1666864167880690,1BFE221C,true,Rx,0,8,00,00,3F,00,00,00,00,00,
-1666864167880391,1BFE221E,true,Rx,0,8,7D,01,00,00,00,00,00,00,
-1666864167880092,1BFE2222,true,Rx,0,8,00,00,58,00,7E,1C,00,00,
-1666864167879751,1BFE2223,true,Rx,0,8,11,01,00,00,00,00,00,00,
-1666864167879452,1BFE2225,true,Rx,0,8,00,00,00,00,00,00,00,00,
-1666864167879111,1BFE2227,true,Rx,0,8,00,00,00,00,00,04,00,00,
-1666864167878813,1BFE2232,true,Rx,0,8,00,00,00,00,00,00,00,00,
-1666864167878471,1BFE2235,true,Rx,0,8,81,04,00,00,00,00,00,00,
-1666864167878173,1BFE2238,true,Rx,0,8,00,00,32,00,01,01,00,00,
-1666864167877831,1BFE2239,true,Rx,0,8,00,01,01,00,00,00,00,00,
-1666864167877533,1BFE223A,true,Rx,0,8,04,01,00,00,5D,00,00,00,
-1666864167877191,1BFE223B,true,Rx,0,8,0C,00,00,00,00,00,00,00,
-1666864167876850,1BFE223C,true,Rx,0,8,22,00,00,00,00,00,00,00,
-1666864167876551,1BFE223D,true,Rx,0,8,00,00,00,00,00,00,00,5C,
-1666864167876210,1BFE2248,true,Rx,0,8,00,00,00,00,00,00,00,00,
-1666864167802785,0000038B,false,Rx,0,8,00,00,00,00,00,00,00,00,
-1666864167782904,1BFE221A,true,Rx,0,8,00,A6,00,00,7E,00,00,00,
-1666864167782563,1BFE2204,true,Rx,0,8,00,00,00,00,0F,00,00,00,
-1666864167782264,1BFE2215,true,Rx,0,8,60,97,9E,80,80,80,AA,9A,
-1666864167781965,1BFE2216,true,Rx,0,8,00,00,00,00,00,00,C0,FA,
-1666864167781667,1BFE2217,true,Rx,0,8,00,00,CD,B4,A5,00,00,00,
-1666864167781368,1BFE2218,true,Rx,0,8,00,00,00,00,00,00,00,00,
-1666864167781027,1BFE2219,true,Rx,0,8,00,00,00,00,00,00,00,00,
-1666864167780728,1BFE221B,true,Rx,0,8,00,00,00,00,00,00,00,00,
-1666864167780429,1BFE221C,true,Rx,0,8,00,00,3F,00,00,00,00,00,
-1666864167780088,1BFE221E,true,Rx,0,8,7D,01,00,00,00,00,00,00,
-1666864167779789,1BFE2222,true,Rx,0,8,00,00,58,00,7E,1C,00,00,
-1666864167779491,1BFE2223,true,Rx,0,8,11,01,00,00,00,00,00,00,
-1666864167779149,1BFE2225,true,Rx,0,8,00,00,00,00,00,00,00,00,
-1666864167778851,1BFE2227,true,Rx,0,8,00,00,00,00,00,04,00,00,
-1666864167778509,1BFE2232,true,Rx,0,8,00,00,00,00,00,00,00,00,
-1666864167778211,1BFE2235,true,Rx,0,8,81,04,00,00,00,00,00,00,
-1666864167777870,1BFE2238,true,Rx,0,8,00,00,32,00,01,01,00,00,
-1666864167777528,1BFE2239,true,Rx,0,8,00,01,01,00,00,00,00,00,
-1666864167777230,1BFE223A,true,Rx,0,8,04,01,00,00,53,00,00,00,
-1666864167776931,1BFE223B,true,Rx,0,8,02,00,00,00,00,00,00,00,
-1666864167776590,1BFE223C,true,Rx,0,8,22,00,00,00,00,00,00,00,
-1666864167776248,1BFE223D,true,Rx,0,8,00,00,00,00,00,00,00,5C,
-1666864167775950,1BFE2248,true,Rx,0,8,00,00,00,00,00,00,00,00,
-1666864167702824,0000038B,false,Rx,0,8,00,00,00,00,00,00,00,00,
-1666864167692840,00000564,false,Rx,0,8,DE,0C,00,00,F8,17,3D,00,
-1666864167682899,1BFE221A,true,Rx,0,8,00,A6,00,00,7E,00,00,00,
-1666864167682601,1BFE2215,true,Rx,0,8,60,97,9E,80,80,80,AA,9A,
-1666864167682302,1BFE2216,true,Rx,0,8,00,00,00,00,00,00,C0,FA,
-1666864167682003,1BFE2217,true,Rx,0,8,00,00,CD,B4,A5,00,00,00,
-1666864167681662,1BFE2218,true,Rx,0,8,00,00,00,00,00,00,00,00,
-1666864167681364,1BFE2219,true,Rx,0,8,00,00,00,00,00,00,00,00,
-1666864167681065,1BFE221B,true,Rx,0,8,00,00,00,00,00,00,00,00,
-1666864167680724,1BFE221C,true,Rx,0,8,00,00,3F,00,00,00,00,00,
-1666864167680425,1BFE221E,true,Rx,0,8,7D,01,00,00,00,00,00,00,
-1666864167680084,1BFE2222,true,Rx,0,8,00,00,58,00,7E,1C,00,00,
-1666864167679785,1BFE2223,true,Rx,0,8,11,01,00,00,00,00,00,00,
-1666864167679486,1BFE2225,true,Rx,0,8,00,00,00,00,00,00,00,00,
-1666864167679145,1BFE2227,true,Rx,0,8,00,00,00,00,00,04,00,00,
-1666864167678846,1BFE2232,true,Rx,0,8,00,00,00,00,00,00,00,00,
-1666864167678505,1BFE2235,true,Rx,0,8,81,04,00,00,00,00,00,00,
-1666864167678206,1BFE2238,true,Rx,0,8,00,00,32,00,01,01,00,00,
-1666864167677865,1BFE2239,true,Rx,0,8,00,01,01,00,00,00,00,00,
-1666864167677566,1BFE223A,true,Rx,0,8,04,01,00,00,5D,00,00,00,
-1666864167677225,1BFE223B,true,Rx,0,8,0C,00,00,00,00,00,00,00,
-1666864167676884,1BFE223C,true,Rx,0,8,22,00,00,00,00,00,00,00,
-1666864167676585,1BFE223D,true,Rx,0,8,00,00,00,00,00,00,00,5C,
-1666864167676244,1BFE2248,true,Rx,0,8,00,00,00,00,00,00,00,00,
-1666864167602819,0000038B,false,Rx,0,8,00,00,00,00,00,00,00,00,
-1666864167582895,1BFE221A,true,Rx,0,8,00,A6,00,00,7E,00,00,00,
-1666864167582596,1BFE2207,true,Rx,0,8,46,00,00,86,00,3E,00,04,
-1666864167582298,1BFE2215,true,Rx,0,8,60,97,9E,80,80,80,AA,9A,
-1666864167581999,1BFE2216,true,Rx,0,8,00,00,00,00,00,00,C0,FA,
-1666864167581700,1BFE2217,true,Rx,0,8,00,00,CD,B4,A5,00,00,00,
-1666864167581402,1BFE2218,true,Rx,0,8,00,00,00,00,00,00,00,00,
-1666864167581060,1BFE2219,true,Rx,0,8,00,00,00,00,00,00,00,00,
-1666864167580762,1BFE221B,true,Rx,0,8,00,00,00,00,00,00,00,00,
-1666864167580463,1BFE221C,true,Rx,0,8,00,00,3F,00,00,00,00,00,
-1666864167580122,1BFE221E,true,Rx,0,8,7D,01,00,00,00,00,00,00,
-1666864167579823,1BFE2222,true,Rx,0,8,00,00,58,00,7E,1C,00,00,
-1666864167579482,1BFE2223,true,Rx,0,8,11,01,00,00,00,00,00,00,
-1666864167579183,1BFE2225,true,Rx,0,8,00,00,00,00,00,00,00,00,
-1666864167578885,1BFE2227,true,Rx,0,8,00,00,00,00,00,04,00,00,
-1666864167578543,1BFE2232,true,Rx,0,8,00,00,00,00,00,00,00,00,
-1666864167578202,1BFE2235,true,Rx,0,8,81,04,00,00,00,00,00,00,
-1666864167577903,1BFE2238,true,Rx,0,8,00,00,32,00,01,01,00,00,
-1666864167577562,1BFE2239,true,Rx,0,8,00,01,01,00,00,00,00,00,
-1666864167577263,1BFE223A,true,Rx,0,8,04,01,00,00,53,00,00,00,
-1666864167576965,1BFE223B,true,Rx,0,8,02,00,00,00,00,00,00,00,
-1666864167576623,1BFE223C,true,Rx,0,8,22,00,00,00,00,00,00,00,
-1666864167576282,1BFE223D,true,Rx,0,8,00,00,00,00,00,00,00,5C,
-1666864167575983,1BFE2248,true,Rx,0,8,00,00,00,00,00,00,00,00,
-1666864167502815,0000038B,false,Rx,0,8,00,00,00,00,00,00,00,00,
-1666864167482933,1BFE221A,true,Rx,0,8,00,A6,00,00,7E,00,00,00,
-1666864167482635,1BFE2215,true,Rx,0,8,60,97,9E,80,80,80,AA,9A,
-1666864167482336,1BFE2216,true,Rx,0,8,00,00,00,00,00,00,C0,FA,
-1666864167482037,1BFE2217,true,Rx,0,8,00,00,CD,B4,A4,00,00,00,
-1666864167481696,1BFE2218,true,Rx,0,8,00,00,00,00,00,00,00,00,
-1666864167481397,1BFE2219,true,Rx,0,8,00,00,00,00,00,00,00,00,
-1666864167481056,1BFE221B,true,Rx,0,8,00,00,00,00,00,00,00,00,
-1666864167480757,1BFE221C,true,Rx,0,8,00,00,3F,00,00,00,00,00,
-1666864167480459,1BFE221E,true,Rx,0,8,7D,01,00,00,00,00,00,00,
-1666864167480117,1BFE2222,true,Rx,0,8,00,00,58,00,7E,1C,00,00,
-1666864167479819,1BFE2223,true,Rx,0,8,11,01,00,00,00,00,00,00,
-1666864167479477,1BFE2225,true,Rx,0,8,00,00,00,00,00,00,00,00,
-1666864167479179,1BFE2227,true,Rx,0,8,00,00,00,00,00,04,00,00,
-1666864167478838,1BFE2232,true,Rx,0,8,00,00,00,00,00,00,00,00,
-1666864167478539,1BFE2235,true,Rx,0,8,81,04,00,00,00,00,00,00,
-1666864167478198,1BFE2238,true,Rx,0,8,00,00,32,00,01,01,00,00,
-1666864167477899,1BFE2239,true,Rx,0,8,00,01,01,00,00,00,00,00,
-1666864167477558,1BFE223A,true,Rx,0,8,04,01,00,00,5D,00,00,00,
-1666864167477259,1BFE223B,true,Rx,0,8,0C,00,00,00,00,00,00,00,
-1666864167476918,1BFE223C,true,Rx,0,8,22,00,00,00,00,00,00,00,
-1666864167476619,1BFE223D,true,Rx,0,8,00,00,00,00,00,00,00,5C,
-1666864167476278,1BFE2248,true,Rx,0,8,00,00,00,00,00,00,00,00,
-1666864167402853,0000038B,false,Rx,0,8,00,00,00,00,00,00,00,00,
-1666864167382929,1BFE221A,true,Rx,0,8,00,A5,00,00,7E,00,00,00,
-1666864167382630,1BFE2207,true,Rx,0,8,46,00,00,88,00,3E,00,04,
-1666864167382332,1BFE2215,true,Rx,0,8,60,97,9E,80,80,80,AA,9A,
-1666864167382033,1BFE2216,true,Rx,0,8,00,00,00,00,00,00,C0,FA,
-1666864167381734,1BFE2217,true,Rx,0,8,00,00,CD,B4,A5,00,00,00,
-1666864167381393,1BFE2218,true,Rx,0,8,00,00,00,00,00,00,00,00,
-1666864167381094,1BFE2219,true,Rx,0,8,00,00,00,00,00,00,00,00,
-1666864167380753,1BFE221B,true,Rx,0,8,00,00,00,00,00,00,00,00,
-1666864167380454,1BFE221C,true,Rx,0,8,00,00,3F,00,00,00,00,00,
-1666864167380156,1BFE221E,true,Rx,0,8,7D,01,00,00,00,00,00,00,
-1666864167379814,1BFE2222,true,Rx,0,8,00,00,58,00,7E,1C,00,00,
-1666864167379516,1BFE2223,true,Rx,0,8,11,01,00,00,00,00,00,00,
-1666864167379174,1BFE2225,true,Rx,0,8,00,00,00,00,00,00,00,00,
-1666864167378876,1BFE2227,true,Rx,0,8,00,00,00,00,00,04,00,00,
-1666864167378577,1BFE2232,true,Rx,0,8,00,00,00,00,00,00,00,00,
-1666864167378236,1BFE2235,true,Rx,0,8,81,04,00,00,00,00,00,00,
-1666864167377895,1BFE2238,true,Rx,0,8,00,00,32,00,01,01,00,00,
-1666864167377596,1BFE2239,true,Rx,0,8,00,01,01,00,00,00,00,00,
-1666864167377297,1BFE223A,true,Rx,0,8,04,01,00,00,53,00,00,00,
-1666864167376956,1BFE223B,true,Rx,0,8,02,00,00,00,00,00,00,00,
-1666864167376615,1BFE223C,true,Rx,0,8,22,00,00,00,00,00,00,00,
-1666864167376316,1BFE223D,true,Rx,0,8,00,00,00,00,00,00,00,5C,
-1666864167375975,1BFE2242,true,Rx,0,8,D0,00,02,2F,2E,00,00,00,
-1666864167375676,1BFE2248,true,Rx,0,8,00,00,00,00,00,00,00,00,
-1666864167302849,0000038B,false,Rx,0,8,00,00,00,00,00,00,00,00,
-1666864167282967,1BFE221A,true,Rx,0,8,00,A6,00,00,7E,00,00,00,
-1666864167282668,1BFE2215,true,Rx,0,8,60,97,9E,80,80,80,AA,9A,
-1666864167282327,1BFE2216,true,Rx,0,8,00,00,00,00,00,00,C0,FA,
-1666864167282028,1BFE2217,true,Rx,0,8,00,00,CD,B4,A5,00,00,00,
-1666864167281730,1BFE2218,true,Rx,0,8,00,00,00,00,00,00,00,00,
-1666864167281431,1BFE2219,true,Rx,0,8,00,00,00,00,00,00,00,00,
-1666864167281090,1BFE221B,true,Rx,0,8,00,00,00,00,00,00,00,00,
-1666864167280791,1BFE221C,true,Rx,0,8,00,00,3F,00,00,00,00,00,
-1666864167280450,1BFE221E,true,Rx,0,8,7D,01,00,00,00,00,00,00,
-1666864167280151,1BFE2222,true,Rx,0,8,00,00,58,00,7E,1C,00,00,
-1666864167279853,1BFE2223,true,Rx,0,8,11,01,00,00,00,00,00,00,
-1666864167279511,1BFE2225,true,Rx,0,8,00,00,00,00,00,00,00,00,
-1666864167279213,1BFE2227,true,Rx,0,8,00,00,00,00,00,04,00,00,
-1666864167278871,1BFE2232,true,Rx,0,8,00,00,00,00,00,00,00,00,
-1666864167278573,1BFE2235,true,Rx,0,8,81,04,00,00,00,00,00,00,
-1666864167278231,1BFE2238,true,Rx,0,8,00,00,32,00,01,01,00,00,
-1666864167277933,1BFE2239,true,Rx,0,8,00,01,01,00,00,00,00,00,
-1666864167277591,1BFE223A,true,Rx,0,8,04,01,00,00,5F,00,00,00,
-1666864167277293,1BFE223B,true,Rx,0,8,0E,00,00,00,00,00,00,00,
-1666864167276951,1BFE223C,true,Rx,0,8,22,00,00,00,00,00,00,00,
-1666864167276610,1BFE223D,true,Rx,0,8,00,00,00,00,00,00,00,5C,
-1666864167276312,1BFE2248,true,Rx,0,8,00,00,00,00,00,00,00,00,
-1666864167202887,0000038B,false,Rx,0,8,00,00,00,00,00,00,00,00,
-1666864167182963,1BFE221A,true,Rx,0,8,00,A5,00,00,7E,00,00,00,
-1666864167182664,1BFE2215,true,Rx,0,8,60,97,9E,80,80,80,AA,9A,
-1666864167182365,1BFE2216,true,Rx,0,8,00,00,00,00,00,00,BF,FA,
-1666864167182067,1BFE2217,true,Rx,0,8,00,00,CD,B4,A5,00,00,00,
-1666864167181725,1BFE2218,true,Rx,0,8,00,00,00,00,00,00,00,00,
-1666864167181427,1BFE2219,true,Rx,0,8,00,00,00,00,00,00,00,00,
-1666864167181128,1BFE221B,true,Rx,0,8,00,00,00,00,00,00,00,00,
-1666864167180787,1BFE221C,true,Rx,0,8,00,00,3F,00,00,00,00,00,
-1666864167180488,1BFE221E,true,Rx,0,8,7D,01,00,00,00,00,00,00,
-1666864167180190,1BFE2222,true,Rx,0,8,00,00,58,00,7E,1C,00,00,
-1666864167179848,1BFE2223,true,Rx,0,8,11,01,00,00,00,00,00,00,
-1666864167179550,1BFE2225,true,Rx,0,8,00,00,00,00,00,00,00,00,
-1666864167179208,1BFE2227,true,Rx,0,8,00,00,00,00,00,04,00,00,
-1666864167178910,1BFE2232,true,Rx,0,8,00,00,00,00,00,00,00,00,
-1666864167178568,1BFE2235,true,Rx,0,8,81,04,00,00,00,00,00,00,
-1666864167178270,1BFE2238,true,Rx,0,8,00,00,32,00,01,01,00,00,
-1666864167177928,1BFE2239,true,Rx,0,8,00,01,01,00,00,00,00,00,
-1666864167177630,1BFE223A,true,Rx,0,8,04,01,00,00,55,00,00,00,
-1666864167177288,1BFE223B,true,Rx,0,8,04,00,00,00,00,00,00,00,
-1666864167176990,1BFE223C,true,Rx,0,8,22,00,00,00,00,00,00,00,
-1666864167176648,1BFE223D,true,Rx,0,8,00,00,00,00,00,00,00,5C,
-1666864167176307,1BFE2248,true,Rx,0,8,00,00,00,00,00,00,00,00,
-1666864167112908,1BFE2234,true,Rx,0,8,00,00,00,00,00,00,00,00,
-1666864167102882,0000038B,false,Rx,0,8,00,00,00,00,00,00,00,00,
-1666864167092899,0000067E,false,Rx,0,8,12,09,00,00,5B,00,00,40,
-1666864167083001,1BFE221A,true,Rx,0,8,00,A5,00,00,7E,00,00,00,
-1666864167082660,1BFE2202,true,Rx,0,8,90,21,43,06,00,00,00,07,
-1666864167082361,1BFE2208,true,Rx,0,8,32,00,00,00,00,00,00,00,
-1666864167082062,1BFE2215,true,Rx,0,8,60,97,9E,80,80,80,AA,9A,
-1666864167081764,1BFE2216,true,Rx,0,8,00,00,00,00,00,00,BF,FA,
-1666864167081465,1BFE2217,true,Rx,0,8,00,00,CD,B3,A4,00,00,00,
-1666864167081124,1BFE2218,true,Rx,0,8,00,00,00,00,00,00,00,00,
-1666864167080825,1BFE2219,true,Rx,0,8,00,00,00,00,00,00,00,00,
-1666864167080526,1BFE221B,true,Rx,0,8,00,00,00,00,00,00,00,00,
-1666864167080185,1BFE221C,true,Rx,0,8,00,00,3F,00,00,00,00,00,
-1666864167079886,1BFE221E,true,Rx,0,8,7D,01,00,00,00,00,00,00,
-1666864167079588,1BFE2222,true,Rx,0,8,00,00,58,00,7E,1C,00,00,
-1666864167079247,1BFE2223,true,Rx,0,8,11,01,00,00,00,00,00,00,
-1666864167078948,1BFE2225,true,Rx,0,8,00,00,00,00,00,00,00,00,
-1666864167078607,1BFE2227,true,Rx,0,8,00,00,00,00,00,04,00,00,
-1666864167078308,1BFE2232,true,Rx,0,8,00,00,00,00,00,00,00,00,
-1666864167077967,1BFE2235,true,Rx,0,8,81,04,00,00,00,00,00,00,
-1666864167077668,1BFE2238,true,Rx,0,8,00,00,32,00,01,01,00,00,
-1666864167077327,1BFE2239,true,Rx,0,8,00,01,01,00,00,00,00,00,
-1666864167077028,1BFE223A,true,Rx,0,8,04,01,00,00,5F,00,00,00,
-1666864167076687,1BFE223B,true,Rx,0,8,0E,00,00,00,00,00,00,00,
-1666864167076388,1BFE223C,true,Rx,0,8,22,00,00,00,00,00,00,00,
-1666864167076047,1BFE223D,true,Rx,0,8,00,00,00,00,00,00,00,5C,
-1666864167075705,1BFE2248,true,Rx,0,8,00,00,00,00,00,00,00,00,
-1666864167002848,0000038B,false,Rx,0,8,00,00,00,00,00,00,00,00,
-1666864166982967,1BFE221A,true,Rx,0,8,00,A6,00,00,7E,00,00,00,
-1666864166982668,1BFE2215,true,Rx,0,8,60,97,9E,80,80,80,AA,9A,
-1666864166982369,1BFE2216,true,Rx,0,8,00,00,00,00,00,00,C0,FA,
-1666864166982071,1BFE2217,true,Rx,0,8,00,00,CD,B4,A5,00,00,00,
-1666864166981729,1BFE2218,true,Rx,0,8,00,00,00,00,00,00,00,00,
-1666864166981431,1BFE2219,true,Rx,0,8,00,00,00,00,00,00,00,00,
-1666864166981089,1BFE221B,true,Rx,0,8,00,00,00,00,00,00,00,00,
-1666864166980791,1BFE221C,true,Rx,0,8,00,00,3F,00,00,00,00,00,
-1666864166980492,1BFE221E,true,Rx,0,8,7D,01,00,00,00,00,00,00,
-1666864166980151,1BFE2222,true,Rx,0,8,00,00,58,00,7E,1C,00,00,
-1666864166979852,1BFE2223,true,Rx,0,8,11,01,00,00,00,00,00,00,
-1666864166979511,1BFE2225,true,Rx,0,8,00,00,00,00,00,00,00,00,
-1666864166979212,1BFE2227,true,Rx,0,8,00,00,00,00,00,04,00,00,
-1666864166978913,1BFE2232,true,Rx,0,8,00,00,00,00,00,00,00,00,
-1666864166978572,1BFE2235,true,Rx,0,8,81,04,00,00,00,00,00,00,
-1666864166978231,1BFE2238,true,Rx,0,8,00,00,32,00,01,01,00,00,
-1666864166977932,1BFE2239,true,Rx,0,8,00,01,01,00,00,00,00,00,
-1666864166977591,1BFE223A,true,Rx,0,8,04,01,00,00,55,00,00,00,
-1666864166977292,1BFE223B,true,Rx,0,8,04,00,00,00,00,00,00,00,
-1666864166976951,1BFE223C,true,Rx,0,8,22,00,00,00,00,00,00,00,
-1666864166976652,1BFE223D,true,Rx,0,8,00,00,00,00,00,00,00,5C,
-1666864166976311,1BFE2248,true,Rx,0,8,00,00,00,00,00,00,00,00,
-1666864166902886,0000038B,false,Rx,0,8,00,00,00,00,00,00,00,00,
-1666864166883005,1BFE220A,true,Rx,0,8,02,02,02,02,00,00,01,02,
-1666864166882663,1BFE220E,true,Rx,0,8,00,00,00,00,00,00,00,00,
-1666864166882365,1BFE220F,true,Rx,0,8,00,00,00,10,10,00,00,00,
-1666864166882023,1BFE2211,true,Rx,0,8,00,00,00,00,00,00,00,00,
-1666864166881725,1BFE2215,true,Rx,0,8,60,97,9E,80,80,80,AA,9A,
-1666864166881426,1BFE2216,true,Rx,0,8,00,00,00,00,00,00,C0,FA,
-1666864166881128,1BFE2217,true,Rx,0,8,00,00,CD,B4,A5,00,00,00,
-1666864166880829,1BFE2218,true,Rx,0,8,00,00,00,00,00,00,00,00,
-1666864166880488,1BFE2219,true,Rx,0,8,00,00,00,00,00,00,00,00,
-1666864166880189,1BFE221A,true,Rx,0,8,00,A5,00,00,7E,00,00,00,
-1666864166879890,1BFE221B,true,Rx,0,8,00,00,00,00,00,00,00,00,
-1666864166879549,1BFE221C,true,Rx,0,8,00,00,3F,00,00,00,00,00,
-1666864166879250,1BFE221E,true,Rx,0,8,7D,01,00,00,00,00,00,00,
-1666864166878952,1BFE2222,true,Rx,0,8,00,00,58,00,7E,1C,00,00,
-1666864166878610,1BFE2223,true,Rx,0,8,11,01,00,00,00,00,00,00,
-1666864166878312,1BFE2225,true,Rx,0,8,00,00,00,00,00,00,00,00,
-1666864166877970,1BFE2227,true,Rx,0,8,00,00,00,00,00,04,00,00,
-1666864166877672,1BFE2232,true,Rx,0,8,00,00,00,00,00,00,00,00,
-1666864166877330,1BFE2235,true,Rx,0,8,81,04,00,00,00,00,00,00,
-1666864166877032,1BFE2238,true,Rx,0,8,00,00,32,00,01,01,00,00,
-1666864166876690,1BFE2239,true,Rx,0,8,00,01,01,00,00,00,00,00,
-1666864166876392,1BFE223A,true,Rx,0,8,04,01,00,00,5F,00,00,00,
-1666864166876051,1BFE223B,true,Rx,0,8,0E,00,00,00,00,00,00,00,
-1666864166875752,1BFE223C,true,Rx,0,8,22,00,00,00,00,00,00,00,
-1666864166875411,1BFE223D,true,Rx,0,8,00,00,00,00,00,00,00,5C,
-1666864166875069,1BFE2248,true,Rx,0,8,00,00,00,00,00,00,00,00,
-1666864166802882,0000038B,false,Rx,0,8,00,00,00,00,00,00,00,00,
-1666864166783000,1BFE221A,true,Rx,0,8,00,A5,00,00,7E,00,00,00,
-1666864166782702,1BFE2215,true,Rx,0,8,60,97,9E,80,80,80,AA,9A,
-1666864166782360,1BFE2216,true,Rx,0,8,00,00,00,00,00,00,BF,FA,
-1666864166782062,1BFE2217,true,Rx,0,8,00,00,CD,B4,A5,00,00,00,
-1666864166781763,1BFE2218,true,Rx,0,8,00,00,00,00,00,00,00,00,
-1666864166781464,1BFE2219,true,Rx,0,8,00,00,00,00,00,00,00,00,
-1666864166781123,1BFE221B,true,Rx,0,8,00,00,00,00,00,00,00,00,
-1666864166780824,1BFE221C,true,Rx,0,8,00,00,3F,00,00,00,00,00,
-1666864166780483,1BFE221E,true,Rx,0,8,7D,01,00,00,00,00,00,00,
-1666864166780185,1BFE2222,true,Rx,0,8,00,00,58,00,7E,1C,00,00,
-1666864166779886,1BFE2223,true,Rx,0,8,11,01,00,00,00,00,00,00,
-1666864166779545,1BFE2225,true,Rx,0,8,00,00,00,00,00,00,00,00,
-1666864166779246,1BFE2227,true,Rx,0,8,00,00,00,00,00,04,00,00,
-1666864166778905,1BFE2232,true,Rx,0,8,00,00,00,00,00,00,00,00,
-1666864166778606,1BFE2235,true,Rx,0,8,81,04,00,00,00,00,00,00,
-1666864166778265,1BFE2238,true,Rx,0,8,00,00,32,00,01,01,00,00,
-1666864166777966,1BFE2239,true,Rx,0,8,00,01,01,00,00,00,00,00,
-1666864166777625,1BFE223A,true,Rx,0,8,04,01,00,00,55,00,00,00,
-1666864166777326,1BFE223B,true,Rx,0,8,04,00,00,00,00,00,00,00,
-1666864166776985,1BFE223C,true,Rx,0,8,22,00,00,00,00,00,00,00,
-1666864166776643,1BFE223D,true,Rx,0,8,00,00,00,00,00,00,00,5C,
-1666864166776345,1BFE2248,true,Rx,0,8,00,00,00,00,00,00,00,00,
-1666864166702920,0000038B,false,Rx,0,8,00,00,00,00,00,00,00,00,
-1666864166692937,00000564,false,Rx,0,8,DF,0D,00,00,F8,17,3D,00,
-1666864166682996,1BFE221A,true,Rx,0,8,00,A6,00,00,7E,00,00,00,
-1666864166682697,1BFE2215,true,Rx,0,8,60,97,9E,80,80,80,AA,9A,
-1666864166682399,1BFE2216,true,Rx,0,8,00,00,00,00,00,00,C0,FA,
-1666864166682100,1BFE2217,true,Rx,0,8,00,00,CD,B4,A5,00,00,00,
-1666864166681759,1BFE2218,true,Rx,0,8,00,00,00,00,00,00,00,00,
-1666864166681460,1BFE2219,true,Rx,0,8,00,00,00,00,00,00,00,00,
-1666864166681161,1BFE221B,true,Rx,0,8,00,00,00,00,00,00,00,00,
-1666864166680820,1BFE221C,true,Rx,0,8,00,00,3F,00,00,00,00,00,
-1666864166680521,1BFE221E,true,Rx,0,8,7D,01,00,00,00,00,00,00,
-1666864166680180,1BFE2222,true,Rx,0,8,00,00,58,00,7E,1C,00,00,
-1666864166679881,1BFE2223,true,Rx,0,8,11,01,00,00,00,00,00,00,
-1666864166679540,1BFE2225,true,Rx,0,8,00,00,00,00,00,00,00,00,
-1666864166679242,1BFE2227,true,Rx,0,8,00,00,00,00,00,04,00,00,
-1666864166678900,1BFE2232,true,Rx,0,8,00,00,00,00,00,00,00,00,
-1666864166678602,1BFE2235,true,Rx,0,8,81,04,00,00,00,00,00,00,
-1666864166678260,1BFE2238,true,Rx,0,8,00,00,32,00,01,01,00,00,
-1666864166677962,1BFE2239,true,Rx,0,8,00,01,01,00,00,00,00,00,
-1666864166677620,1BFE223A,true,Rx,0,8,04,01,00,00,5F,00,00,00,
-1666864166677322,1BFE223B,true,Rx,0,8,0E,00,00,00,00,00,00,00,
-1666864166676980,1BFE223C,true,Rx,0,8,22,00,00,00,00,00,00,00,
-1666864166676682,1BFE223D,true,Rx,0,8,00,00,00,00,00,00,00,5C,
-1666864166676340,1BFE2248,true,Rx,0,8,00,00,00,00,00,00,00,00,
-1666864166602916,0000038B,false,Rx,0,8,00,00,00,00,00,00,00,00,
-1666864166582992,1BFE221A,true,Rx,0,8,00,A6,00,00,7E,00,00,00,
-1666864166582693,1BFE2215,true,Rx,0,8,60,97,9E,80,80,80,AA,9A,
-1666864166582394,1BFE2216,true,Rx,0,8,00,00,00,00,00,00,C0,FA,
-1666864166582096,1BFE2217,true,Rx,0,8,00,00,CD,B4,A5,00,00,00,
-1666864166581797,1BFE2218,true,Rx,0,8,00,00,00,00,00,00,00,00,
-1666864166581456,1BFE2219,true,Rx,0,8,00,00,00,00,00,00,00,00,
-1666864166581157,1BFE221B,true,Rx,0,8,00,00,00,00,00,00,00,00,
-1666864166580858,1BFE221C,true,Rx,0,8,00,00,3F,00,00,00,00,00,
-1666864166580517,1BFE221E,true,Rx,0,8,7D,01,00,00,00,00,00,00,
-1666864166580218,1BFE2222,true,Rx,0,8,00,00,58,00,7E,1C,00,00,
-1666864166579920,1BFE2223,true,Rx,0,8,11,01,00,00,00,00,00,00,
-1666864166579578,1BFE2225,true,Rx,0,8,00,00,00,00,00,00,00,00,
-1666864166579280,1BFE2227,true,Rx,0,8,00,00,00,00,00,04,00,00,
-1666864166578938,1BFE2232,true,Rx,0,8,00,00,00,00,00,00,00,00,
-1666864166578640,1BFE2235,true,Rx,0,8,81,04,00,00,00,00,00,00,
-1666864166578298,1BFE2238,true,Rx,0,8,00,00,32,00,01,01,00,00,
-1666864166577957,1BFE2239,true,Rx,0,8,00,01,01,00,00,00,00,00,
-1666864166577659,1BFE223A,true,Rx,0,8,04,01,00,00,55,00,00,00,
-1666864166577317,1BFE223B,true,Rx,0,8,04,00,00,00,00,00,00,00,
-1666864166577019,1BFE223C,true,Rx,0,8,22,00,00,00,00,00,00,00,
-1666864166576677,1BFE223D,true,Rx,0,8,00,00,00,00,00,00,00,5C,
-1666864166576379,1BFE2248,true,Rx,0,8,00,00,00,00,00,00,00,00,
-1666864166502911,0000038B,false,Rx,0,8,00,00,00,00,00,00,00,00,
-1666864166483030,1BFE221A,true,Rx,0,8,00,A5,00,00,7E,00,00,00,
-1666864166482731,1BFE2206,true,Rx,0,8,46,00,00,86,00,1A,00,04,
-1666864166482432,1BFE2215,true,Rx,0,8,60,97,9E,80,80,80,AA,9A,
-1666864166482134,1BFE2216,true,Rx,0,8,00,00,00,00,00,00,BF,FA,
-1666864166481835,1BFE2217,true,Rx,0,8,00,00,CD,B4,A5,00,00,00,
-1666864166481494,1BFE2218,true,Rx,0,8,00,00,00,00,00,00,00,00,
-1666864166481195,1BFE2219,true,Rx,0,8,00,00,00,00,00,00,00,00,
-1666864166480854,1BFE221B,true,Rx,0,8,00,00,00,00,00,00,00,00,
-1666864166480555,1BFE221C,true,Rx,0,8,00,00,3F,00,00,00,00,00,
-1666864166480257,1BFE221E,true,Rx,0,8,7D,01,00,00,00,00,00,00,
-1666864166479915,1BFE2222,true,Rx,0,8,00,00,58,00,7E,1C,00,00,
-1666864166479617,1BFE2223,true,Rx,0,8,11,01,00,00,00,00,00,00,
-1666864166479275,1BFE2225,true,Rx,0,8,00,00,00,00,00,00,00,00,
-1666864166478977,1BFE2227,true,Rx,0,8,00,00,00,00,00,04,00,00,
-1666864166478678,1BFE2232,true,Rx,0,8,00,00,00,00,00,00,00,00,
-1666864166478337,1BFE2235,true,Rx,0,8,81,04,00,00,00,00,00,00,
-1666864166477995,1BFE2238,true,Rx,0,8,00,00,32,00,01,01,00,00,
-1666864166477697,1BFE2239,true,Rx,0,8,00,01,01,00,00,00,00,00,
-1666864166477355,1BFE223A,true,Rx,0,8,04,01,00,00,5F,00,00,00,
-1666864166477057,1BFE223B,true,Rx,0,8,0E,00,00,00,00,00,00,00,
-1666864166476715,1BFE223C,true,Rx,0,8,22,00,00,00,00,00,00,00,
-1666864166476417,1BFE223D,true,Rx,0,8,00,00,00,00,00,00,00,5C,
-1666864166476076,1BFE2248,true,Rx,0,8,00,00,00,00,00,00,00,00,
-1666864166402907,0000038B,false,Rx,0,8,00,00,00,00,00,00,00,00,
-1666864166383025,1BFE221A,true,Rx,0,8,00,A5,00,00,7E,00,00,00,
-1666864166382727,1BFE2215,true,Rx,0,8,60,97,9E,80,80,80,AA,9A,
-1666864166382428,1BFE2216,true,Rx,0,8,00,00,00,00,00,00,C0,FA,
-1666864166382129,1BFE2217,true,Rx,0,8,00,00,CD,B4,A5,00,00,00,
-1666864166381788,1BFE2218,true,Rx,0,8,00,00,00,00,00,00,00,00,
-1666864166381489,1BFE2219,true,Rx,0,8,00,00,00,00,00,00,00,00,
-1666864166381148,1BFE221B,true,Rx,0,8,00,00,00,00,00,00,00,00,
-1666864166380849,1BFE221C,true,Rx,0,8,00,00,3F,00,00,00,00,00,
-1666864166380551,1BFE221E,true,Rx,0,8,7D,01,00,00,00,00,00,00,
-1666864166380210,1BFE2222,true,Rx,0,8,00,00,58,00,7E,1C,00,00,
-1666864166379911,1BFE2223,true,Rx,0,8,11,01,00,00,00,00,00,00,
-1666864166379612,1BFE2225,true,Rx,0,8,00,00,00,00,00,00,00,00,
-1666864166379271,1BFE2227,true,Rx,0,8,00,00,00,00,00,04,00,00,
-1666864166378972,1BFE2232,true,Rx,0,8,00,00,00,00,00,00,00,00,
-1666864166378631,1BFE2235,true,Rx,0,8,81,04,00,00,00,00,00,00,
-1666864166378332,1BFE2238,true,Rx,0,8,00,00,32,00,01,01,00,00,
-1666864166377991,1BFE2239,true,Rx,0,8,00,01,01,00,00,00,00,00,
-1666864166377692,1BFE223A,true,Rx,0,8,04,01,00,00,55,00,00,00,
-1666864166377351,1BFE223B,true,Rx,0,8,04,00,00,00,00,00,00,00,
-1666864166377010,1BFE223C,true,Rx,0,8,22,00,00,00,00,00,00,00,
-1666864166376711,1BFE223D,true,Rx,0,8,00,00,00,00,00,00,00,5C,
-1666864166376370,1BFE2248,true,Rx,0,8,00,00,00,00,00,00,00,00,
-1666864166302945,0000038B,false,Rx,0,8,00,00,00,00,00,00,00,00,
-1666864166283064,1BFE221A,true,Rx,0,8,00,A5,00,00,7E,00,00,00,
-1666864166282765,1BFE2215,true,Rx,0,8,60,97,9E,80,80,80,AA,9A,
-1666864166282424,1BFE2216,true,Rx,0,8,00,00,00,00,00,00,BF,FA,
-1666864166282125,1BFE2217,true,Rx,0,8,00,00,CD,B4,A5,00,00,00,
-1666864166281826,1BFE2218,true,Rx,0,8,00,00,00,00,00,00,00,00,
-1666864166281528,1BFE2219,true,Rx,0,8,00,00,00,00,00,00,00,00,
-1666864166281186,1BFE221B,true,Rx,0,8,00,00,00,00,00,00,00,00,
-1666864166280888,1BFE221C,true,Rx,0,8,00,00,3F,00,00,00,00,00,
-1666864166280546,1BFE221E,true,Rx,0,8,7D,01,00,00,00,00,00,00,
-1666864166280248,1BFE2222,true,Rx,0,8,00,00,58,00,7E,1C,00,00,
-1666864166279949,1BFE2223,true,Rx,0,8,11,01,00,00,00,00,00,00,
-1666864166279608,1BFE2225,true,Rx,0,8,00,00,00,00,00,00,00,00,
-1666864166279309,1BFE2227,true,Rx,0,8,00,00,00,00,00,04,00,00,
-1666864166278968,1BFE2232,true,Rx,0,8,00,00,00,00,00,00,00,00,
-1666864166278669,1BFE2235,true,Rx,0,8,81,04,00,00,00,00,00,00,
-1666864166278328,1BFE2238,true,Rx,0,8,00,00,32,00,01,01,00,00,
-1666864166278029,1BFE2239,true,Rx,0,8,00,01,01,00,00,00,00,00,
-1666864166277688,1BFE223A,true,Rx,0,8,04,01,00,00,5F,00,00,00,
-1666864166277389,1BFE223B,true,Rx,0,8,0E,00,00,00,00,00,00,00,
-1666864166277048,1BFE223C,true,Rx,0,8,22,00,00,00,00,00,00,00,
-1666864166276749,1BFE223D,true,Rx,0,8,00,00,00,00,00,00,00,5C,
-1666864166276408,1BFE2248,true,Rx,0,8,00,00,00,00,00,00,00,00,
-1666864166202941,0000038B,false,Rx,0,8,00,00,00,00,00,00,00,00,
-1666864166183059,1BFE221A,true,Rx,0,8,00,A5,00,00,7E,00,00,00,
-1666864166182761,1BFE2207,true,Rx,0,8,46,00,00,86,00,3E,00,04,
-1666864166182462,1BFE2215,true,Rx,0,8,60,97,9E,80,80,80,AA,9A,
-1666864166182163,1BFE2216,true,Rx,0,8,00,00,00,00,00,00,C0,FA,
-1666864166181865,1BFE2217,true,Rx,0,8,00,00,CD,B4,A5,00,00,00,
-1666864166181523,1BFE2218,true,Rx,0,8,00,00,00,00,00,00,00,00,
-1666864166181225,1BFE2219,true,Rx,0,8,00,00,00,00,00,00,00,00,
-1666864166180883,1BFE221B,true,Rx,0,8,00,00,00,00,00,00,00,00,
-1666864166180585,1BFE221C,true,Rx,0,8,00,00,3F,00,00,00,00,00,
-1666864166180286,1BFE221E,true,Rx,0,8,7D,01,00,00,00,00,00,00,
-1666864166179945,1BFE2222,true,Rx,0,8,00,00,58,00,7E,1C,00,00,
-1666864166179646,1BFE2223,true,Rx,0,8,11,01,00,00,00,00,00,00,
-1666864166179347,1BFE2225,true,Rx,0,8,00,00,00,00,00,00,00,00,
-1666864166179006,1BFE2227,true,Rx,0,8,00,00,00,00,00,04,00,00,
-1666864166178707,1BFE2232,true,Rx,0,8,00,00,00,00,00,00,00,00,
-1666864166178366,1BFE2235,true,Rx,0,8,81,04,00,00,00,00,00,00,
-1666864166178025,1BFE2238,true,Rx,0,8,00,00,32,00,01,01,00,00,
-1666864166177726,1BFE2239,true,Rx,0,8,00,01,01,00,00,00,00,00,
-1666864166177385,1BFE223A,true,Rx,0,8,04,01,00,00,55,00,00,00,
-1666864166177086,1BFE223B,true,Rx,0,8,04,00,00,00,00,00,00,00,
-1666864166176745,1BFE223C,true,Rx,0,8,22,00,00,00,00,00,00,00,
-1666864166176446,1BFE223D,true,Rx,0,8,00,00,00,00,00,00,00,5C,
-1666864166176105,1BFE2248,true,Rx,0,8,00,00,00,00,00,00,00,00,
-1666864166102979,0000038B,false,Rx,0,8,00,00,00,00,00,00,00,00,
-1666864166092995,0000067E,false,Rx,0,8,11,0A,00,00,5B,00,00,40,
-1666864166083055,1BFE221A,true,Rx,0,8,00,A6,00,00,7E,00,00,00,
-1666864166082756,1BFE2204,true,Rx,0,8,00,B8,23,0D,F0,00,00,00,
-1666864166082457,1BFE2207,true,Rx,0,8,46,00,00,88,00,3E,00,04,
-1666864166082159,1BFE2209,true,Rx,0,8,00,00,01,00,D0,E0,03,00,
-1666864166081860,1BFE2210,true,Rx,0,8,00,00,00,10,10,00,00,00,
-1666864166081562,1BFE2215,true,Rx,0,8,60,97,9E,80,80,80,AA,9A,
-1666864166081220,1BFE2216,true,Rx,0,8,00,00,00,00,00,00,C0,FA,
-1666864166080922,1BFE2217,true,Rx,0,8,00,00,CD,B4,A5,00,00,00,
-1666864166080623,1BFE2218,true,Rx,0,8,00,00,00,00,00,00,00,00,
-1666864166080324,1BFE2219,true,Rx,0,8,00,00,00,00,00,00,00,00,
-1666864166079983,1BFE221B,true,Rx,0,8,00,00,00,00,00,00,00,00,
-1666864166079684,1BFE221C,true,Rx,0,8,00,00,3F,00,00,00,00,00,
-1666864166079343,1BFE221E,true,Rx,0,8,7D,01,00,00,00,00,00,00,
-1666864166079044,1BFE2222,true,Rx,0,8,00,00,58,00,7E,1C,00,00,
-1666864166078746,1BFE2223,true,Rx,0,8,11,01,00,00,00,00,00,00,
-1666864166078404,1BFE2225,true,Rx,0,8,00,00,00,00,00,00,00,00,
-1666864166078106,1BFE2227,true,Rx,0,8,00,00,00,00,00,04,00,00,
-1666864166077764,1BFE2232,true,Rx,0,8,00,00,00,00,00,00,00,00,
-1666864166077466,1BFE2235,true,Rx,0,8,81,04,00,00,00,00,00,00,
-1666864166077124,1BFE2238,true,Rx,0,8,00,00,32,00,01,01,00,00,
-1666864166076826,1BFE2239,true,Rx,0,8,00,01,01,00,00,00,00,00,
-1666864166076485,1BFE223A,true,Rx,0,8,04,01,00,00,5F,00,00,00,
-1666864166076186,1BFE223B,true,Rx,0,8,0E,00,00,00,00,00,00,00,
-1666864166075845,1BFE223C,true,Rx,0,8,22,00,00,00,00,00,00,00,
-1666864166075503,1BFE223D,true,Rx,0,8,00,00,00,00,00,00,00,5C,
-1666864166075205,1BFE2248,true,Rx,0,8,00,00,00,00,00,00,00,00,
-1666864166003050,0000038B,false,Rx,0,8,00,00,00,00,00,00,00,00,
-1666864165983169,1BFE221A,true,Rx,0,8,00,A5,00,00,7E,00,00,00,
-1666864165982870,1BFE2204,true,Rx,0,8,00,A0,25,15,5C,00,00,00,
-1666864165982572,1BFE2215,true,Rx,0,8,60,97,9E,80,80,80,AA,9A,
-1666864165982230,1BFE2216,true,Rx,0,8,00,00,00,00,00,00,C0,FA,
-1666864165981932,1BFE2217,true,Rx,0,8,00,00,CD,B4,A5,00,00,00,
-1666864165981633,1BFE2218,true,Rx,0,8,00,00,00,00,00,00,00,00,
-1666864165981334,1BFE2219,true,Rx,0,8,00,00,00,00,00,00,00,00,
-1666864165980993,1BFE221B,true,Rx,0,8,00,00,00,00,00,00,00,00,
-1666864165980695,1BFE221C,true,Rx,0,8,00,00,3F,00,00,00,00,00,
-1666864165980353,1BFE221E,true,Rx,0,8,7D,01,00,00,00,00,00,00,
-1666864165980055,1BFE2222,true,Rx,0,8,00,00,58,00,7E,1C,00,00,
-1666864165979756,1BFE2223,true,Rx,0,8,11,01,00,00,00,00,00,00,
-1666864165979415,1BFE2225,true,Rx,0,8,00,00,00,00,00,00,00,00,
-1666864165979116,1BFE2227,true,Rx,0,8,00,00,00,00,00,04,00,00,
-1666864165978775,1BFE2232,true,Rx,0,8,00,00,00,00,00,00,00,00,
-1666864165978476,1BFE2235,true,Rx,0,8,81,04,00,00,00,00,00,00,
-1666864165978135,1BFE2238,true,Rx,0,8,00,00,32,00,01,01,00,00,
-1666864165977836,1BFE2239,true,Rx,0,8,00,01,01,00,00,00,00,00,
-1666864165977495,1BFE223A,true,Rx,0,8,04,01,00,00,55,00,00,00,
-1666864165977196,1BFE223B,true,Rx,0,8,04,00,00,00,00,00,00,00,
-1666864165976855,1BFE223C,true,Rx,0,8,22,00,00,00,00,00,00,00,
-1666864165976513,1BFE223D,true,Rx,0,8,00,00,00,00,00,00,00,5C,
-1666864165976215,1BFE2248,true,Rx,0,8,00,00,00,00,00,00,00,00,
-1666864165903089,0000038B,false,Rx,0,8,00,00,00,00,00,00,00,00,
-1666864165883165,1BFE220C,true,Rx,0,8,00,00,00,00,00,00,00,00,
-1666864165882866,1BFE2204,true,Rx,0,8,00,90,26,19,67,00,00,00,
-1666864165882567,1BFE220D,true,Rx,0,8,00,00,00,00,00,00,00,00,
-1666864165882269,1BFE2215,true,Rx,0,8,60,97,9E,80,80,80,AA,9A,
-1666864165881970,1BFE2216,true,Rx,0,8,00,00,00,00,00,00,C0,FA,
-1666864165881671,1BFE2217,true,Rx,0,8,00,00,CD,B4,A5,00,00,00,
-1666864165881330,1BFE2218,true,Rx,0,8,00,00,00,00,00,00,00,00,
-1666864165881031,1BFE2219,true,Rx,0,8,00,00,00,00,00,00,00,00,
-1666864165880690,1BFE221A,true,Rx,0,8,00,A5,00,00,7E,00,00,00,
-1666864165880391,1BFE221B,true,Rx,0,8,00,00,00,00,00,00,00,00,
-1666864165880093,1BFE221C,true,Rx,0,8,00,00,3F,00,00,00,00,00,
-1666864165879751,1BFE221E,true,Rx,0,8,7D,01,00,00,00,00,00,00,
-1666864165879453,1BFE2222,true,Rx,0,8,00,00,58,00,7E,1C,00,00,
-1666864165879154,1BFE2223,true,Rx,0,8,11,01,00,00,00,00,00,00,
-1666864165878813,1BFE2225,true,Rx,0,8,00,00,00,00,00,00,00,00,
-1666864165878514,1BFE2227,true,Rx,0,8,00,00,00,00,00,04,00,00,
-1666864165878173,1BFE2232,true,Rx,0,8,00,00,00,00,00,00,00,00,
-1666864165877874,1BFE2235,true,Rx,0,8,81,04,00,00,00,00,00,00,
-1666864165877533,1BFE2238,true,Rx,0,8,00,00,32,00,01,01,00,00,
-1666864165877234,1BFE2239,true,Rx,0,8,00,01,01,00,00,00,00,00,
-1666864165876893,1BFE223A,true,Rx,0,8,04,01,00,00,5F,00,00,00,
-1666864165876594,1BFE223B,true,Rx,0,8,0E,00,00,00,00,00,00,00,
-1666864165876253,1BFE223C,true,Rx,0,8,22,00,00,00,00,00,00,00,
-1666864165875912,1BFE223D,true,Rx,0,8,00,00,00,00,00,00,00,5C,
-1666864165875613,1BFE2248,true,Rx,0,8,00,00,00,00,00,00,00,00,
-1666864165803084,0000038B,false,Rx,0,8,00,00,00,00,00,00,00,00,
-1666864165783203,1BFE220B,true,Rx,0,8,00,00,00,00,00,00,11,00,
-1666864165782904,1BFE2204,true,Rx,0,8,00,60,E8,20,68,00,00,00,
-1666864165782606,1BFE2215,true,Rx,0,8,60,97,9E,80,80,80,AA,9A,
-1666864165782264,1BFE2216,true,Rx,0,8,00,00,00,00,00,00,C0,FA,
-1666864165781966,1BFE2217,true,Rx,0,8,00,00,CD,B4,A5,00,00,00,
-1666864165781667,1BFE2218,true,Rx,0,8,00,00,00,00,00,00,00,00,
-1666864165781368,1BFE2219,true,Rx,0,8,00,00,00,00,00,00,00,00,
-1666864165781027,1BFE221A,true,Rx,0,8,00,A6,00,00,7E,00,00,00,
-1666864165780728,1BFE221B,true,Rx,0,8,00,00,00,00,00,00,00,00,
-1666864165780387,1BFE221C,true,Rx,0,8,00,00,3F,00,00,00,00,00,
-1666864165780088,1BFE221E,true,Rx,0,8,7D,01,00,00,00,00,00,00,
-1666864165779790,1BFE2222,true,Rx,0,8,00,00,58,04,7E,1C,00,00,
-1666864165779448,1BFE2223,true,Rx,0,8,11,01,00,00,00,00,00,00,
-1666864165779150,1BFE2225,true,Rx,0,8,00,00,00,00,00,00,00,00,
-1666864165778808,1BFE2227,true,Rx,0,8,00,00,00,00,00,04,00,00,
-1666864165778510,1BFE2232,true,Rx,0,8,00,00,00,00,00,00,00,00,
-1666864165778168,1BFE2235,true,Rx,0,8,81,04,00,00,00,00,00,00,
-1666864165777870,1BFE2238,true,Rx,0,8,00,00,32,00,01,01,00,00,
-1666864165777529,1BFE2239,true,Rx,0,8,00,01,01,00,00,00,00,00,
-1666864165777230,1BFE223A,true,Rx,0,8,04,01,00,00,55,00,00,00,
-1666864165776889,1BFE223B,true,Rx,0,8,04,00,00,00,00,00,00,00,
-1666864165776590,1BFE223C,true,Rx,0,8,22,00,00,00,00,00,00,00,
-1666864165776249,1BFE223D,true,Rx,0,8,00,00,00,00,00,00,00,5C,
-1666864165775907,1BFE2248,true,Rx,0,8,00,00,00,00,00,00,00,00,
-1666864165703080,0000038B,false,Rx,0,8,00,00,00,00,00,00,00,00,
-1666864165693139,00000564,false,Rx,0,8,DD,0E,00,30,F9,27,3D,00,
-1666864165683198,1BFE221A,true,Rx,0,8,00,A5,00,00,7E,00,00,00,
-1666864165682900,1BFE2203,true,Rx,0,8,00,00,00,18,00,18,00,00,
-1666864165682601,1BFE2204,true,Rx,0,8,00,88,C9,25,68,00,00,00,
-1666864165682302,1BFE2215,true,Rx,0,8,60,97,9E,80,80,80,AA,9A,
-1666864165681961,1BFE2216,true,Rx,0,8,00,00,00,00,00,00,BF,FA,
-1666864165681663,1BFE2217,true,Rx,0,8,00,00,CD,B4,A5,00,00,00,
-1666864165681364,1BFE2218,true,Rx,0,8,00,00,00,00,00,00,00,00,
-1666864165681065,1BFE2219,true,Rx,0,8,00,00,00,00,00,00,00,00,
-1666864165680724,1BFE221B,true,Rx,0,8,00,00,00,00,00,00,00,00,
-1666864165680425,1BFE221C,true,Rx,0,8,00,00,3F,00,00,00,00,00,
-1666864165680084,1BFE221E,true,Rx,0,8,7D,01,00,00,00,00,00,00,
-1666864165679785,1BFE2222,true,Rx,0,8,00,00,58,04,7E,1C,00,00,
-1666864165679487,1BFE2223,true,Rx,0,8,11,01,00,00,00,00,00,00,
-1666864165679145,1BFE2225,true,Rx,0,8,00,00,00,00,00,00,00,00,
-1666864165678847,1BFE2227,true,Rx,0,8,00,00,00,00,00,04,00,00,
-1666864165678505,1BFE2232,true,Rx,0,8,00,00,00,00,00,00,00,00,
-1666864165678207,1BFE2235,true,Rx,0,8,81,04,00,00,00,00,00,00,
-1666864165677865,1BFE2238,true,Rx,0,8,00,00,32,00,01,01,00,00,
-1666864165677567,1BFE2239,true,Rx,0,8,00,01,01,00,00,00,00,00,
-1666864165677225,1BFE223A,true,Rx,0,8,04,01,00,00,5F,00,00,00,
-1666864165676927,1BFE223B,true,Rx,0,8,0E,00,00,00,00,00,00,00,
-1666864165676586,1BFE223C,true,Rx,0,8,22,00,00,00,00,00,00,00,
-1666864165676287,1BFE223D,true,Rx,0,8,00,00,00,00,00,00,00,5C,
-1666864165675946,1BFE2248,true,Rx,0,8,00,00,00,00,00,00,00,00,
-1666864165603118,0000038B,false,Rx,0,8,00,00,00,00,00,00,00,00,
-1666864165583194,1BFE221A,true,Rx,0,8,00,A5,00,00,7E,00,00,00,
-1666864165582895,1BFE2204,true,Rx,0,8,00,08,CA,27,68,00,00,00,
-1666864165582597,1BFE2205,true,Rx,0,8,45,45,00,00,00,41,09,30,
-1666864165582298,1BFE2215,true,Rx,0,8,60,97,9E,80,80,80,AA,9A,
-1666864165581999,1BFE2216,true,Rx,0,8,00,00,00,00,00,00,C0,FA,
-1666864165581701,1BFE2217,true,Rx,0,8,00,00,CD,B4,A5,00,00,00,
-1666864165581359,1BFE2218,true,Rx,0,8,00,00,00,00,00,00,00,00,
-1666864165581061,1BFE2219,true,Rx,0,8,00,00,00,00,00,00,00,00,
-1666864165580762,1BFE221B,true,Rx,0,8,00,00,00,00,00,00,00,00,
-1666864165580421,1BFE221C,true,Rx,0,8,00,00,3F,00,00,00,00,00,
-1666864165580122,1BFE221E,true,Rx,0,8,7D,01,00,00,00,00,00,00,
-1666864165579824,1BFE2222,true,Rx,0,8,00,00,58,04,7E,1C,00,00,
-1666864165579482,1BFE2223,true,Rx,0,8,11,01,00,00,00,00,00,00,
-1666864165579184,1BFE2225,true,Rx,0,8,00,00,00,00,00,00,00,00,
-1666864165578842,1BFE2227,true,Rx,0,8,00,00,00,00,00,04,00,00,
-1666864165578544,1BFE2232,true,Rx,0,8,00,00,00,00,00,00,00,00,
-1666864165578202,1BFE2235,true,Rx,0,8,81,04,00,00,00,00,00,00,
-1666864165577904,1BFE2238,true,Rx,0,8,00,00,32,00,01,01,00,00,
-1666864165577562,1BFE2239,true,Rx,0,8,00,01,01,00,00,00,00,00,
-1666864165577264,1BFE223A,true,Rx,0,8,04,01,00,00,55,00,00,00,
-1666864165576922,1BFE223B,true,Rx,0,8,04,00,00,00,00,00,00,00,
-1666864165576624,1BFE223C,true,Rx,0,8,22,00,00,00,00,00,00,00,
-1666864165576282,1BFE223D,true,Rx,0,8,00,00,00,00,00,00,00,5C,
-1666864165575941,1BFE2248,true,Rx,0,8,00,00,00,00,00,00,00,00,
-1666864165503114,0000038B,false,Rx,0,8,00,00,00,00,00,00,00,00,
-1666864165483232,1BFE221A,true,Rx,0,8,00,A6,00,00,7E,00,00,00,
-1666864165482891,1BFE2204,true,Rx,0,8,00,98,2A,2A,68,00,00,00,
-1666864165482592,1BFE2207,true,Rx,0,8,46,00,00,86,00,3E,00,04,
-1666864165482294,1BFE2215,true,Rx,0,8,60,97,9E,80,80,80,AA,9A,
-1666864165481995,1BFE2216,true,Rx,0,8,00,00,00,00,00,00,C0,FA,
-1666864165481696,1BFE2217,true,Rx,0,8,00,00,CD,B4,A5,00,00,00,
-1666864165481398,1BFE2218,true,Rx,0,8,00,00,00,00,00,00,00,00,
-1666864165481056,1BFE2219,true,Rx,0,8,00,00,00,00,00,00,00,00,
-1666864165480758,1BFE221B,true,Rx,0,8,00,00,00,00,00,00,00,00,
-1666864165480459,1BFE221C,true,Rx,0,8,00,00,3F,00,00,00,00,00,
-1666864165480118,1BFE221E,true,Rx,0,8,7D,01,00,00,00,00,00,00,
-1666864165479819,1BFE2222,true,Rx,0,8,00,00,58,04,7E,1C,00,00,
-1666864165479520,1BFE2223,true,Rx,0,8,11,01,00,00,00,00,00,00,
-1666864165479179,1BFE2225,true,Rx,0,8,00,00,00,00,00,00,00,00,
-1666864165478881,1BFE2227,true,Rx,0,8,00,00,00,00,00,04,00,00,
-1666864165478539,1BFE2232,true,Rx,0,8,00,00,00,00,00,00,00,00,
-1666864165478241,1BFE2235,true,Rx,0,8,81,04,00,00,00,00,00,00,
-1666864165477899,1BFE2238,true,Rx,0,8,00,00,32,00,01,01,00,00,
-1666864165477601,1BFE2239,true,Rx,0,8,00,01,01,00,00,00,00,00,
-1666864165477259,1BFE223A,true,Rx,0,8,04,01,00,00,5F,00,00,00,
-1666864165476961,1BFE223B,true,Rx,0,8,0E,00,00,00,00,00,00,00,
-1666864165476619,1BFE223C,true,Rx,0,8,22,00,00,00,00,00,00,00,
-1666864165476278,1BFE223D,true,Rx,0,8,00,00,00,00,00,00,00,5C,
-1666864165475979,1BFE2248,true,Rx,0,8,00,00,00,00,00,00,00,00,
-1666864165403109,0000038B,false,Rx,0,8,00,00,00,00,00,00,00,00,
-1666864165383228,1BFE221A,true,Rx,0,8,00,A6,00,00,7E,00,00,00,
-1666864165382929,1BFE2204,true,Rx,0,8,00,C0,EA,2A,68,00,00,00,
-1666864165382631,1BFE2207,true,Rx,0,8,46,00,00,88,00,3E,00,04,
-1666864165382332,1BFE2215,true,Rx,0,8,60,97,9E,80,80,80,AA,9A,
-1666864165381991,1BFE2216,true,Rx,0,8,00,00,00,00,00,00,C0,FA,
-1666864165381692,1BFE2217,true,Rx,0,8,00,00,CD,B4,A5,00,00,00,
-1666864165381393,1BFE2218,true,Rx,0,8,00,00,00,00,00,00,00,00,
-1666864165381095,1BFE2219,true,Rx,0,8,00,00,00,00,00,00,00,00,
-1666864165380753,1BFE221B,true,Rx,0,8,00,00,00,00,00,00,00,00,
-1666864165380455,1BFE221C,true,Rx,0,8,00,00,3F,00,00,00,00,00,
-1666864165380113,1BFE221E,true,Rx,0,8,7D,01,00,00,00,00,00,00,
-1666864165379815,1BFE2222,true,Rx,0,8,00,00,58,04,7E,1C,00,00,
-1666864165379516,1BFE2223,true,Rx,0,8,11,01,00,00,00,00,00,00,
-1666864165379175,1BFE2225,true,Rx,0,8,00,00,00,00,00,00,00,00,
-1666864165378876,1BFE2227,true,Rx,0,8,00,00,00,00,00,04,00,00,
-1666864165378535,1BFE2232,true,Rx,0,8,00,00,00,00,00,00,00,00,
-1666864165378236,1BFE2235,true,Rx,0,8,81,04,00,00,00,00,00,00,
-1666864165377895,1BFE2238,true,Rx,0,8,00,00,32,00,01,01,00,00,
-1666864165377596,1BFE2239,true,Rx,0,8,00,01,01,00,00,00,00,00,
-1666864165377255,1BFE223A,true,Rx,0,8,04,01,00,00,55,00,00,00,
-1666864165376956,1BFE223B,true,Rx,0,8,04,00,00,00,00,00,00,00,
-1666864165376615,1BFE223C,true,Rx,0,8,22,00,00,00,00,00,00,00,
-1666864165376316,1BFE223D,true,Rx,0,8,00,00,00,00,00,00,00,5C,
-1666864165375975,1BFE2248,true,Rx,0,8,00,00,00,00,00,00,00,00,
-1666864165303148,0000038B,false,Rx,0,8,00,00,00,00,00,00,00,00,
-1666864165283223,1BFE221A,true,Rx,0,8,00,A6,00,00,7E,00,00,00,
-1666864165282925,1BFE2204,true,Rx,0,8,00,10,2B,2C,68,00,00,00,
-1666864165282626,1BFE2215,true,Rx,0,8,60,97,9E,80,80,80,AA,9A,
-1666864165282327,1BFE2216,true,Rx,0,8,00,00,00,00,00,00,C0,FA,
-1666864165282029,1BFE2217,true,Rx,0,8,00,00,CD,B4,A5,00,00,00,
-1666864165281730,1BFE2218,true,Rx,0,8,00,00,00,00,00,00,00,00,
-1666864165281389,1BFE2219,true,Rx,0,8,00,00,00,00,00,00,00,00,
-1666864165281090,1BFE221B,true,Rx,0,8,00,00,00,00,00,00,00,00,
-1666864165280749,1BFE221C,true,Rx,0,8,00,00,3F,00,00,00,00,00,
-1666864165280450,1BFE221E,true,Rx,0,8,7D,01,00,00,00,00,00,00,
-1666864165280152,1BFE2222,true,Rx,0,8,00,00,58,04,7E,1C,00,00,
-1666864165279853,1BFE2223,true,Rx,0,8,11,01,00,00,00,00,00,00,
-1666864165279512,1BFE2225,true,Rx,0,8,00,00,00,00,00,00,00,00,
-1666864165279213,1BFE2227,true,Rx,0,8,00,00,00,00,00,04,00,00,
-1666864165278872,1BFE2232,true,Rx,0,8,00,00,00,00,00,00,00,00,
-1666864165278530,1BFE2235,true,Rx,0,8,81,04,00,00,00,00,00,00,
-1666864165278232,1BFE2238,true,Rx,0,8,00,00,32,00,01,01,00,00,
-1666864165277890,1BFE2239,true,Rx,0,8,00,01,01,00,00,00,00,00,
-1666864165277592,1BFE223A,true,Rx,0,8,04,01,00,00,5F,00,00,00,
-1666864165277250,1BFE223B,true,Rx,0,8,0E,00,00,00,00,00,00,00,
-1666864165276952,1BFE223C,true,Rx,0,8,22,00,00,00,00,00,00,00,
-1666864165276611,1BFE223D,true,Rx,0,8,00,00,00,00,00,00,00,5C,
-1666864165276312,1BFE2248,true,Rx,0,8,00,00,00,00,00,00,00,00,
-1666864165203143,0000038B,false,Rx,0,8,00,00,00,00,00,00,00,00,
-1666864165183262,1BFE221A,true,Rx,0,8,00,A6,00,00,7E,00,00,00,
-1666864165182963,1BFE2204,true,Rx,0,8,00,B0,8B,2E,68,00,00,00,
-1666864165182664,1BFE2215,true,Rx,0,8,60,97,9E,80,80,80,AA,9A,
-1666864165182366,1BFE2216,true,Rx,0,8,00,00,00,00,00,00,C0,FA,
-1666864165182067,1BFE2217,true,Rx,0,8,00,00,CD,B4,A5,00,00,00,
-1666864165181726,1BFE2218,true,Rx,0,8,00,00,00,00,00,00,00,00,
-1666864165181427,1BFE2219,true,Rx,0,8,00,00,00,00,00,00,00,00,
-1666864165181086,1BFE221B,true,Rx,0,8,00,00,00,00,00,00,00,00,
-1666864165180787,1BFE221C,true,Rx,0,8,00,00,3F,00,00,00,00,00,
-1666864165180489,1BFE221E,true,Rx,0,8,7D,01,00,00,00,00,00,00,
-1666864165180147,1BFE2222,true,Rx,0,8,00,00,58,04,7E,1C,00,00,
-1666864165179849,1BFE2223,true,Rx,0,8,11,01,00,00,00,00,00,00,
-1666864165179550,1BFE2225,true,Rx,0,8,00,00,00,00,00,00,00,00,
-1666864165179209,1BFE2227,true,Rx,0,8,00,00,00,00,00,04,00,00,
-1666864165178910,1BFE2232,true,Rx,0,8,00,00,00,00,00,00,00,00,
-1666864165178569,1BFE2235,true,Rx,0,8,81,04,00,00,00,00,00,00,
-1666864165178270,1BFE2238,true,Rx,0,8,00,00,32,00,01,01,00,00,
-1666864165177929,1BFE2239,true,Rx,0,8,00,01,01,00,00,00,00,00,
-1666864165177630,1BFE223A,true,Rx,0,8,04,01,00,00,55,00,00,00,
-1666864165177289,1BFE223B,true,Rx,0,8,04,00,00,00,00,00,00,00,
-1666864165176947,1BFE223C,true,Rx,0,8,22,00,00,00,00,00,00,00,
-1666864165176649,1BFE223D,true,Rx,0,8,00,00,00,00,00,00,00,5C,
-1666864165176307,1BFE2248,true,Rx,0,8,00,00,00,00,00,00,00,00,
-1666864165103181,0000038B,false,Rx,0,8,00,00,00,00,00,00,00,00,
-1666864165093198,0000067E,false,Rx,0,8,10,0B,00,00,5B,00,00,40,
-1666864165083257,1BFE221A,true,Rx,0,8,00,A5,00,00,7E,00,00,00,
-1666864165082959,1BFE2204,true,Rx,0,8,00,B0,CB,2E,68,00,00,00,
-1666864165082660,1BFE2215,true,Rx,0,8,60,97,9E,80,80,80,AA,9A,
-1666864165082361,1BFE2216,true,Rx,0,8,00,00,00,00,00,00,C0,FA,
-1666864165082063,1BFE2217,true,Rx,0,8,00,00,CD,B4,A5,00,00,00,
-1666864165081764,1BFE2218,true,Rx,0,8,00,00,00,00,00,00,00,00,
