Time Stamp,ID,Extended,Dir,Bus,LEN,D1,D2,D3,D4,D5,D6,D7,D8
-1666864172651065,0000038B,false,Rx,0,8,00,00,00,00,00,00,00,00,
-1666864172631184,1BFE221A,true,Rx,0,8,00,A5,00,00,7E,00,00,00,
-1666864172630885,1BFE2207,true,Rx,0,8,46,00,00,86,00,2C,01,04,
-1666864172630586,1BFE2215,true,Rx,0,8,60,97,9E,80,80,80,AA,9A,
-1666864172630288,1BFE2216,true,Rx,0,8,00,00,00,00,00,00,BF,FA,
-1666864172629989,1BFE2217,true,Rx,0,8,00,00,CD,B4,A5,00,00,00,
-1666864172629648,1BFE2218,true,Rx,0,8,00,00,00,00,00,00,00,00,
-1666864172629349,1BFE2219,true,Rx,0,8,00,00,00,00,00,00,00,00,
-1666864172629051,1BFE221B,true,Rx,0,8,00,00,00,00,00,00,00,00,
-1666864172628709,1BFE221C,true,Rx,0,8,00,00,3F,00,00,00,00,00,
-1666864172628411,1BFE221E,true,Rx,0,8,7D,01,00,00,00,00,00,00,
-1666864172628112,1BFE2222,true,Rx,0,8,00,00,58,00,7E,1C,00,00,
-1666864172627771,1BFE2223,true,Rx,0,8,11,01,00,00,00,00,00,00,
-1666864172627472,1BFE2225,true,Rx,0,8,00,00,00,00,00,00,00,00,
-1666864172627131,1BFE2227,true,Rx,0,8,00,00,00,00,00,04,00,00,
-1666864172626832,1BFE2232,true,Rx,0,8,00,00,00,00,00,00,00,00,
-1666864172626491,1BFE2235,true,Rx,0,8,81,04,00,00,00,00,00,00,
-1666864172626192,1BFE2238,true,Rx,0,8,00,00,32,00,01,01,00,00,
-1666864172625851,1BFE2239,true,Rx,0,8,00,01,01,00,00,00,00,00,
-1666864172625552,1BFE223A,true,Rx,0,8,04,01,00,00,59,00,00,00,
-1666864172625211,1BFE223B,true,Rx,0,8,08,00,00,00,00,00,00,00,
-1666864172624912,1BFE223C,true,Rx,0,8,22,00,00,00,00,00,00,00,
-1666864172624571,1BFE223D,true,Rx,0,8,00,00,00,00,00,00,00,5C,
-1666864172624229,1BFE2248,true,Rx,0,8,00,00,00,00,00,00,00,00,
-1666864172551103,0000038B,false,Rx,0,8,00,00,00,00,00,00,00,00,
-1666864172531179,1BFE221A,true,Rx,0,8,00,A5,00,00,7E,00,00,00,
-1666864172530881,1BFE2207,true,Rx,0,8,46,00,00,88,00,2C,01,04,
-1666864172530582,1BFE2209,true,Rx,0,8,00,00,01,00,10,C1,12,00,
-1666864172530283,1BFE2215,true,Rx,0,8,60,97,9E,80,80,80,AA,9A,
-1666864172529985,1BFE2216,true,Rx,0,8,00,00,00,00,00,00,C0,FA,
-1666864172529686,1BFE2217,true,Rx,0,8,00,00,CD,B4,A5,00,00,00,
-1666864172529345,1BFE2218,true,Rx,0,8,00,00,00,00,00,00,00,00,
-1666864172529046,1BFE2219,true,Rx,0,8,00,00,00,00,00,00,00,00,
-1666864172528747,1BFE221B,true,Rx,0,8,00,00,00,00,00,00,00,00,
-1666864172528406,1BFE221C,true,Rx,0,8,00,00,3F,00,00,00,00,00,
-1666864172528107,1BFE221E,true,Rx,0,8,7D,01,00,00,00,00,00,00,
-1666864172527809,1BFE2222,true,Rx,0,8,00,00,58,00,7E,1C,00,00,
-1666864172527468,1BFE2223,true,Rx,0,8,11,01,00,00,00,00,00,00,
-1666864172527169,1BFE2225,true,Rx,0,8,00,00,00,00,00,00,00,00,
-1666864172526828,1BFE2227,true,Rx,0,8,00,00,00,00,00,04,00,00,
-1666864172526529,1BFE2232,true,Rx,0,8,00,00,00,00,00,00,00,00,
-1666864172526188,1BFE2235,true,Rx,0,8,81,04,00,00,00,00,00,00,
-1666864172525889,1BFE2238,true,Rx,0,8,00,00,32,00,01,01,00,00,
-1666864172525548,1BFE2239,true,Rx,0,8,00,01,01,00,00,00,00,00,
-1666864172525249,1BFE223A,true,Rx,0,8,04,01,00,00,63,00,00,00,
-1666864172524908,1BFE223B,true,Rx,0,8,12,00,00,00,00,00,00,00,
-1666864172524609,1BFE223C,true,Rx,0,8,22,00,00,00,00,00,00,00,
-1666864172524268,1BFE223D,true,Rx,0,8,00,00,00,00,00,00,00,5C,
-1666864172523926,1BFE2248,true,Rx,0,8,00,00,00,00,00,00,00,00,
-1666864172451099,0000038B,false,Rx,0,8,00,00,00,00,00,00,00,00,
-1666864172441116,0000067E,false,Rx,0,8,12,09,00,00,5B,00,00,40,
-1666864172431218,1BFE221A,true,Rx,0,8,00,A6,00,00,7E,00,00,00,
-1666864172430919,1BFE2215,true,Rx,0,8,60,97,9E,80,80,80,AA,9A,
-1666864172430578,1BFE2216,true,Rx,0,8,00,00,00,00,00,00,C0,FA,
-1666864172430279,1BFE2217,true,Rx,0,8,00,00,CD,B4,A5,00,00,00,
-1666864172429980,1BFE2218,true,Rx,0,8,00,00,00,00,00,00,00,00,
-1666864172429682,1BFE2219,true,Rx,0,8,00,00,00,00,00,00,00,00,
-1666864172429340,1BFE221B,true,Rx,0,8,00,00,00,00,00,00,00,00,
-1666864172429042,1BFE221C,true,Rx,0,8,00,00,3F,00,00,00,00,00,
-1666864172428743,1BFE221E,true,Rx,0,8,7D,01,00,00,00,00,00,00,
-1666864172428402,1BFE2222,true,Rx,0,8,00,00,58,00,7E,1C,00,00,
-1666864172428103,1BFE2223,true,Rx,0,8,11,01,00,00,00,00,00,00,
-1666864172427762,1BFE2225,true,Rx,0,8,00,00,00,00,00,00,00,00,
-1666864172427463,1BFE2227,true,Rx,0,8,00,00,00,00,00,04,00,00,
-1666864172427122,1BFE2232,true,Rx,0,8,00,00,00,00,00,00,00,00,
-1666864172426823,1BFE2235,true,Rx,0,8,81,04,00,00,00,00,00,00,
-1666864172426482,1BFE2238,true,Rx,0,8,00,00,32,00,01,01,00,00,
-1666864172426183,1BFE2239,true,Rx,0,8,00,01,01,00,00,00,00,00,
-1666864172425842,1BFE223A,true,Rx,0,8,04,01,00,00,59,00,00,00,
-1666864172425543,1BFE223B,true,Rx,0,8,08,00,00,00,00,00,00,00,
-1666864172425202,1BFE223C,true,Rx,0,8,22,00,00,00,00,00,00,00,
-1666864172424861,1BFE223D,true,Rx,0,8,00,00,00,00,00,00,00,5C,
-1666864172424562,1BFE2248,true,Rx,0,8,00,00,00,00,00,00,00,00,
-1666864172351138,0000038B,false,Rx,0,8,00,00,00,00,00,00,00,00,
-1666864172331256,1BFE221A,true,Rx,0,8,00,A5,00,00,7E,00,00,00,
-1666864172330957,1BFE2215,true,Rx,0,8,60,97,9E,80,80,80,AA,9A,
-1666864172330659,1BFE2216,true,Rx,0,8,00,00,00,00,00,00,C0,FA,
-1666864172330360,1BFE2217,true,Rx,0,8,00,00,CD,B4,A5,00,00,00,
-1666864172330019,1BFE2218,true,Rx,0,8,00,00,00,00,00,00,00,00,
-1666864172329720,1BFE2219,true,Rx,0,8,00,00,00,00,00,00,00,00,
-1666864172329422,1BFE221B,true,Rx,0,8,00,00,00,00,00,00,00,00,
-1666864172329080,1BFE221C,true,Rx,0,8,00,00,3F,00,00,00,00,00,
-1666864172328782,1BFE221E,true,Rx,0,8,7D,01,00,00,00,00,00,00,
-1666864172328440,1BFE2222,true,Rx,0,8,00,00,58,00,7E,1C,00,00,
-1666864172328142,1BFE2223,true,Rx,0,8,11,01,00,00,00,00,00,00,
-1666864172327800,1BFE2225,true,Rx,0,8,00,00,00,00,00,00,00,00,
-1666864172327502,1BFE2227,true,Rx,0,8,00,00,00,00,00,04,00,00,
-1666864172327203,1BFE2232,true,Rx,0,8,00,00,00,00,00,00,00,00,
-1666864172326862,1BFE2235,true,Rx,0,8,81,04,00,00,00,00,00,00,
-1666864172326520,1BFE2238,true,Rx,0,8,00,00,32,00,01,01,00,00,
-1666864172326222,1BFE2239,true,Rx,0,8,00,01,01,00,00,00,00,00,
-1666864172325923,1BFE223A,true,Rx,0,8,04,01,00,00,63,00,00,00,
-1666864172325582,1BFE223B,true,Rx,0,8,12,00,00,00,00,00,00,00,
-1666864172325241,1BFE223C,true,Rx,0,8,22,00,00,00,00,00,00,00,
-1666864172324942,1BFE223D,true,Rx,0,8,00,00,00,00,00,00,00,5C,
-1666864172324601,1BFE2248,true,Rx,0,8,00,00,00,00,00,00,00,00,
-1666864172251176,0000038B,false,Rx,0,8,00,00,00,00,00,00,00,00,
-1666864172231294,1BFE221A,true,Rx,0,8,00,A5,00,00,7E,00,00,00,
-1666864172230996,1BFE2207,true,Rx,0,8,46,00,00,88,00,2A,01,04,
-1666864172230697,1BFE2215,true,Rx,0,8,60,97,9E,80,80,80,AA,9A,
-1666864172230356,1BFE2216,true,Rx,0,8,00,00,00,00,00,00,BF,FA,
-1666864172230057,1BFE2217,true,Rx,0,8,00,00,CD,B4,A5,00,00,00,
-1666864172229758,1BFE2218,true,Rx,0,8,00,00,00,00,00,00,00,00,
-1666864172229460,1BFE2219,true,Rx,0,8,00,00,00,00,00,00,00,00,
-1666864172229119,1BFE221B,true,Rx,0,8,00,00,00,00,00,00,00,00,
-1666864172228820,1BFE221C,true,Rx,0,8,00,00,3F,00,00,00,00,00,
-1666864172228479,1BFE221E,true,Rx,0,8,7D,01,00,00,00,00,00,00,
-1666864172228180,1BFE2222,true,Rx,0,8,00,00,58,00,7E,1C,00,00,
-1666864172227881,1BFE2223,true,Rx,0,8,11,01,00,00,00,00,00,00,
-1666864172227540,1BFE2225,true,Rx,0,8,00,00,00,00,00,00,00,00,
-1666864172227241,1BFE2227,true,Rx,0,8,00,00,00,00,00,04,00,00,
-1666864172226900,1BFE2232,true,Rx,0,8,00,00,00,00,00,00,00,00,
-1666864172226601,1BFE2235,true,Rx,0,8,81,04,00,00,00,00,00,00,
-1666864172226260,1BFE2238,true,Rx,0,8,00,00,32,00,01,01,00,00,
-1666864172225961,1BFE2239,true,Rx,0,8,00,01,01,00,00,00,00,00,
-1666864172225620,1BFE223A,true,Rx,0,8,04,01,00,00,59,00,00,00,
-1666864172225321,1BFE223B,true,Rx,0,8,08,00,00,00,00,00,00,00,
-1666864172224980,1BFE223C,true,Rx,0,8,22,00,00,00,00,00,00,00,
-1666864172224681,1BFE223D,true,Rx,0,8,00,00,00,00,00,00,00,5C,
-1666864172224340,1BFE2248,true,Rx,0,8,00,00,00,00,00,00,00,00,
-1666864172151171,0000038B,false,Rx,0,8,00,00,00,00,00,00,00,00,
-1666864172131290,1BFE221A,true,Rx,0,8,00,A5,00,00,7E,00,00,00,
-1666864172130991,1BFE2209,true,Rx,0,8,00,00,01,00,10,A1,12,00,
-1666864172130693,1BFE2215,true,Rx,0,8,60,97,9E,80,80,80,AA,9A,
-1666864172130394,1BFE2216,true,Rx,0,8,00,00,00,00,00,00,BF,FA,
-1666864172130095,1BFE2217,true,Rx,0,8,00,00,CD,B4,A5,00,00,00,
-1666864172129754,1BFE2218,true,Rx,0,8,00,00,00,00,00,00,00,00,
-1666864172129455,1BFE2219,true,Rx,0,8,00,00,00,00,00,00,00,00,
-1666864172129114,1BFE221B,true,Rx,0,8,00,00,00,00,00,00,00,00,
-1666864172128815,1BFE221C,true,Rx,0,8,00,00,3F,00,00,00,00,00,
-1666864172128517,1BFE221E,true,Rx,0,8,7D,01,00,00,00,00,00,00,
-1666864172128175,1BFE2222,true,Rx,0,8,00,00,58,00,7E,1C,00,00,
-1666864172127877,1BFE2223,true,Rx,0,8,11,01,00,00,00,00,00,00,
-1666864172127578,1BFE2225,true,Rx,0,8,00,00,00,00,00,00,00,00,
-1666864172127237,1BFE2227,true,Rx,0,8,00,00,00,00,00,04,00,00,
-1666864172126938,1BFE2232,true,Rx,0,8,00,00,00,00,00,00,00,00,
-1666864172126597,1BFE2235,true,Rx,0,8,81,04,00,00,00,00,00,00,
-1666864172126298,1BFE2238,true,Rx,0,8,00,00,32,00,01,01,00,00,
-1666864172125957,1BFE2239,true,Rx,0,8,00,01,01,00,00,00,00,00,
-1666864172125658,1BFE223A,true,Rx,0,8,04,01,00,00,63,00,00,00,
-1666864172125317,1BFE223B,true,Rx,0,8,12,00,00,00,00,00,00,00,
-1666864172124976,1BFE223C,true,Rx,0,8,22,00,00,00,00,00,00,00,
-1666864172124677,1BFE223D,true,Rx,0,8,00,00,00,00,00,00,00,5C,
-1666864172124336,1BFE2248,true,Rx,0,8,00,00,00,00,00,00,00,00,
-1666864172051210,0000038B,false,Rx,0,8,00,00,00,00,00,00,00,00,
-1666864172041226,00000564,false,Rx,0,8,DF,0D,00,00,F8,17,3D,00,
-1666864172031286,1BFE221A,true,Rx,0,8,00,A6,00,00,7E,00,00,00,
-1666864172030987,1BFE2215,true,Rx,0,8,60,97,9E,80,80,80,AA,9A,
-1666864172030688,1BFE2216,true,Rx,0,8,00,00,00,00,00,00,C0,FA,
-1666864172030390,1BFE2217,true,Rx,0,8,00,00,CD,B4,A5,00,00,00,
-1666864172030091,1BFE2218,true,Rx,0,8,00,00,00,00,00,00,00,00,
-1666864172029750,1BFE2219,true,Rx,0,8,00,00,00,00,00,00,00,00,
-1666864172029451,1BFE221B,true,Rx,0,8,00,00,00,00,00,00,00,00,
-1666864172029110,1BFE221C,true,Rx,0,8,00,00,3F,00,00,00,00,00,
-1666864172028811,1BFE221E,true,Rx,0,8,7D,01,00,00,00,00,00,00,
-1666864172028512,1BFE2222,true,Rx,0,8,00,00,58,00,7E,1C,00,00,
-1666864172028171,1BFE2223,true,Rx,0,8,11,01,00,00,00,00,00,00,
-1666864172027872,1BFE2225,true,Rx,0,8,00,00,00,00,00,00,00,00,
-1666864172027531,1BFE2227,true,Rx,0,8,00,00,00,00,00,04,00,00,
-1666864172027232,1BFE2232,true,Rx,0,8,00,00,00,00,00,00,00,00,
-1666864172026891,1BFE2235,true,Rx,0,8,81,04,00,00,00,00,00,00,
-1666864172026593,1BFE2238,true,Rx,0,8,00,00,32,00,01,01,00,00,
-1666864172026251,1BFE2239,true,Rx,0,8,00,01,01,00,00,00,00,00,
-1666864172025953,1BFE223A,true,Rx,0,8,04,01,00,00,59,00,00,00,
-1666864172025611,1BFE223B,true,Rx,0,8,08,00,00,00,00,00,00,00,
-1666864172025313,1BFE223C,true,Rx,0,8,22,00,00,00,00,00,00,00,
-1666864172024971,1BFE223D,true,Rx,0,8,00,00,00,00,00,00,00,5C,
-1666864172024630,1BFE2248,true,Rx,0,8,00,00,00,00,00,00,00,00,
-1666864171951205,0000038B,false,Rx,0,8,00,00,00,00,00,00,00,00,
-1666864171931324,1BFE221A,true,Rx,0,8,00,A6,00,00,7E,00,00,00,
-1666864171930982,1BFE2204,true,Rx,0,8,00,00,00,00,0F,00,00,00,
-1666864171930684,1BFE2215,true,Rx,0,8,60,97,9E,80,80,80,AA,9A,
-1666864171930385,1BFE2216,true,Rx,0,8,00,00,00,00,00,00,C0,FA,
-1666864171930087,1BFE2217,true,Rx,0,8,00,00,CD,B4,A5,00,00,00,
-1666864171929788,1BFE2218,true,Rx,0,8,00,00,00,00,00,00,00,00,
-1666864171929447,1BFE2219,true,Rx,0,8,00,00,00,00,00,00,00,00,
-1666864171929148,1BFE221B,true,Rx,0,8,00,00,00,00,00,00,00,00,
-1666864171928849,1BFE221C,true,Rx,0,8,00,00,3F,00,00,00,00,00,
-1666864171928508,1BFE221E,true,Rx,0,8,7D,01,00,00,00,00,00,00,
-1666864171928209,1BFE2222,true,Rx,0,8,00,00,58,00,7E,1C,00,00,
-1666864171927911,1BFE2223,true,Rx,0,8,11,01,00,00,00,00,00,00,
-1666864171927569,1BFE2225,true,Rx,0,8,00,00,00,00,00,00,00,00,
-1666864171927271,1BFE2227,true,Rx,0,8,00,00,00,00,00,04,00,00,
-1666864171926929,1BFE2232,true,Rx,0,8,00,00,00,00,00,00,00,00,
-1666864171926631,1BFE2235,true,Rx,0,8,81,04,00,00,00,00,00,00,
-1666864171926289,1BFE2238,true,Rx,0,8,00,00,32,00,01,01,00,00,
-1666864171925991,1BFE2239,true,Rx,0,8,00,01,01,00,00,00,00,00,
-1666864171925649,1BFE223A,true,Rx,0,8,04,01,00,00,63,00,00,00,
-1666864171925351,1BFE223B,true,Rx,0,8,12,00,00,00,00,00,00,00,
-1666864171925010,1BFE223C,true,Rx,0,8,22,00,00,00,00,00,00,00,
-1666864171924668,1BFE223D,true,Rx,0,8,00,00,00,00,00,00,00,5C,
-1666864171924370,1BFE2248,true,Rx,0,8,00,00,00,00,00,00,00,00,
-1666864171851243,0000038B,false,Rx,0,8,00,00,00,00,00,00,00,00,
-1666864171831319,1BFE221A,true,Rx,0,8,00,A6,00,00,7E,00,00,00,
-1666864171831021,1BFE2207,true,Rx,0,8,46,00,00,88,00,28,01,04,
-1666864171830722,1BFE2215,true,Rx,0,8,60,97,9E,80,80,80,AA,9A,
-1666864171830423,1BFE2216,true,Rx,0,8,00,00,00,00,00,00,BF,FA,
-1666864171830125,1BFE2217,true,Rx,0,8,00,00,CD,B4,A5,00,00,00,
-1666864171829783,1BFE2218,true,Rx,0,8,00,00,00,00,00,00,00,00,
-1666864171829485,1BFE2219,true,Rx,0,8,00,00,00,00,00,00,00,00,
-1666864171829186,1BFE221B,true,Rx,0,8,00,00,00,00,00,00,00,00,
-1666864171828845,1BFE221C,true,Rx,0,8,00,00,3F,00,00,00,00,00,
-1666864171828546,1BFE221E,true,Rx,0,8,7D,01,00,00,00,00,00,00,
-1666864171828248,1BFE2222,true,Rx,0,8,00,00,58,00,7E,1C,00,00,
-1666864171827906,1BFE2223,true,Rx,0,8,11,01,00,00,00,00,00,00,
-1666864171827608,1BFE2225,true,Rx,0,8,00,00,00,00,00,00,00,00,
-1666864171827266,1BFE2227,true,Rx,0,8,00,00,00,00,00,04,00,00,
-1666864171826968,1BFE2232,true,Rx,0,8,00,00,00,00,00,00,00,00,
-1666864171826626,1BFE2235,true,Rx,0,8,81,04,00,00,00,00,00,00,
-1666864171826328,1BFE2238,true,Rx,0,8,00,00,32,00,01,01,00,00,
-1666864171825986,1BFE2239,true,Rx,0,8,00,01,01,00,00,00,00,00,
-1666864171825688,1BFE223A,true,Rx,0,8,04,01,00,00,59,00,00,00,
-1666864171825346,1BFE223B,true,Rx,0,8,08,00,00,00,00,00,00,00,
-1666864171825048,1BFE223C,true,Rx,0,8,22,00,00,00,00,00,00,00,
-1666864171824706,1BFE223D,true,Rx,0,8,00,00,00,00,00,00,00,5C,
-1666864171824365,1BFE2248,true,Rx,0,8,00,00,00,00,00,00,00,00,
-1666864171751239,0000038B,false,Rx,0,8,00,00,00,00,00,00,00,00,
-1666864171731315,1BFE221A,true,Rx,0,8,00,A6,00,00,7E,00,00,00,
-1666864171731016,1BFE2209,true,Rx,0,8,00,00,01,00,10,81,12,00,
-1666864171730718,1BFE2215,true,Rx,0,8,60,97,9E,80,80,80,AA,9A,
-1666864171730419,1BFE2216,true,Rx,0,8,00,00,00,00,00,00,C0,FA,
-1666864171730120,1BFE2217,true,Rx,0,8,00,00,CD,B4,A5,00,00,00,
-1666864171729822,1BFE2218,true,Rx,0,8,00,00,00,00,00,00,00,00,
-1666864171729480,1BFE2219,true,Rx,0,8,00,00,00,00,00,00,00,00,
-1666864171729182,1BFE221B,true,Rx,0,8,00,00,00,00,00,00,00,00,
-1666864171728840,1BFE221C,true,Rx,0,8,00,00,3F,00,00,00,00,00,
-1666864171728542,1BFE221E,true,Rx,0,8,7D,01,00,00,00,00,00,00,
-1666864171728243,1BFE2222,true,Rx,0,8,00,00,58,00,7E,1C,00,00,
-1666864171727945,1BFE2223,true,Rx,0,8,11,01,00,00,00,00,00,00,
-1666864171727603,1BFE2225,true,Rx,0,8,00,00,00,00,00,00,00,00,
-1666864171727305,1BFE2227,true,Rx,0,8,00,00,00,00,00,04,00,00,
-1666864171726963,1BFE2232,true,Rx,0,8,00,00,00,00,00,00,00,00,
-1666864171726665,1BFE2235,true,Rx,0,8,81,04,00,00,00,00,00,00,
-1666864171726323,1BFE2238,true,Rx,0,8,00,00,32,00,01,01,00,00,
-1666864171725982,1BFE2239,true,Rx,0,8,00,01,01,00,00,00,00,00,
-1666864171725683,1BFE223A,true,Rx,0,8,04,01,00,00,63,00,00,00,
-1666864171725385,1BFE223B,true,Rx,0,8,12,00,00,00,00,00,00,00,
-1666864171725043,1BFE223C,true,Rx,0,8,22,00,00,00,00,00,00,00,
-1666864171724702,1BFE223D,true,Rx,0,8,00,00,00,00,00,00,00,5C,
-1666864171724403,1BFE2248,true,Rx,0,8,00,00,00,00,00,00,00,00,
-1666864171651235,0000038B,false,Rx,0,8,00,00,00,00,00,00,00,00,
-1666864171631353,1BFE221A,true,Rx,0,8,00,A5,00,00,7E,00,00,00,
-1666864171631055,1BFE2215,true,Rx,0,8,60,97,9E,80,80,80,AA,9A,
-1666864171630756,1BFE2216,true,Rx,0,8,00,00,00,00,00,00,C0,FA,
-1666864171630457,1BFE2217,true,Rx,0,8,00,00,CD,B4,A5,00,00,00,
-1666864171630116,1BFE2218,true,Rx,0,8,00,00,00,00,00,00,00,00,
-1666864171629817,1BFE2219,true,Rx,0,8,00,00,00,00,00,00,00,00,
-1666864171629476,1BFE221B,true,Rx,0,8,00,00,00,00,00,00,00,00,
-1666864171629177,1BFE221C,true,Rx,0,8,00,00,3F,00,00,00,00,00,
-1666864171628879,1BFE221E,true,Rx,0,8,7D,01,00,00,00,00,00,00,
-1666864171628537,1BFE2222,true,Rx,0,8,00,00,58,00,7E,1C,00,00,
-1666864171628239,1BFE2223,true,Rx,0,8,11,01,00,00,00,00,00,00,
-1666864171627897,1BFE2225,true,Rx,0,8,00,00,00,00,00,00,00,00,
-1666864171627599,1BFE2227,true,Rx,0,8,00,00,00,00,00,04,00,00,
-1666864171627257,1BFE2232,true,Rx,0,8,00,00,00,00,00,00,00,00,
-1666864171626959,1BFE2235,true,Rx,0,8,81,04,00,00,00,00,00,00,
-1666864171626618,1BFE2238,true,Rx,0,8,00,00,32,00,01,01,00,00,
-1666864171626319,1BFE2239,true,Rx,0,8,00,01,01,00,00,00,00,00,
-1666864171625978,1BFE223A,true,Rx,0,8,04,01,00,00,59,00,00,00,
-1666864171625679,1BFE223B,true,Rx,0,8,08,00,00,00,00,00,00,00,
-1666864171625338,1BFE223C,true,Rx,0,8,22,00,00,00,00,00,00,00,
-1666864171625039,1BFE223D,true,Rx,0,8,00,00,00,00,00,00,00,5C,
-1666864171624698,1BFE2248,true,Rx,0,8,00,00,00,00,00,00,00,00,
-1666864171551273,0000038B,false,Rx,0,8,00,00,00,00,00,00,00,00,
-1666864171531349,1BFE221A,true,Rx,0,8,00,A5,00,00,7E,00,00,00,
-1666864171531050,1BFE2207,true,Rx,0,8,46,00,00,86,00,28,01,04,
-1666864171530751,1BFE2215,true,Rx,0,8,60,97,9E,80,80,80,AA,9A,
-1666864171530453,1BFE2216,true,Rx,0,8,00,00,00,00,00,00,C0,FA,
-1666864171530154,1BFE2217,true,Rx,0,8,00,00,CD,B4,A5,00,00,00,
-1666864171529856,1BFE2218,true,Rx,0,8,00,00,00,00,00,00,00,00,
-1666864171529514,1BFE2219,true,Rx,0,8,00,00,00,00,00,00,00,00,
-1666864171529216,1BFE221B,true,Rx,0,8,00,00,00,00,00,00,00,00,
-1666864171528874,1BFE221C,true,Rx,0,8,00,00,3F,00,00,00,00,00,
-1666864171528576,1BFE221E,true,Rx,0,8,7D,01,00,00,00,00,00,00,
-1666864171528277,1BFE2222,true,Rx,0,8,00,00,58,00,7E,1C,00,00,
-1666864171527936,1BFE2223,true,Rx,0,8,11,01,00,00,00,00,00,00,
-1666864171527637,1BFE2225,true,Rx,0,8,00,00,00,00,00,00,00,00,
-1666864171527296,1BFE2227,true,Rx,0,8,00,00,00,00,00,04,00,00,
-1666864171526997,1BFE2232,true,Rx,0,8,00,00,00,00,00,00,00,00,
-1666864171526656,1BFE2235,true,Rx,0,8,81,04,00,00,00,00,00,00,
-1666864171526357,1BFE2238,true,Rx,0,8,00,00,32,00,01,01,00,00,
-1666864171526016,1BFE2239,true,Rx,0,8,00,01,01,00,00,00,00,00,
-1666864171525717,1BFE223A,true,Rx,0,8,04,01,00,00,63,00,00,00,
-1666864171525376,1BFE223B,true,Rx,0,8,12,00,00,00,00,00,00,00,
-1666864171525077,1BFE223C,true,Rx,0,8,22,00,00,00,00,00,00,00,
-1666864171524736,1BFE223D,true,Rx,0,8,00,00,00,00,00,00,00,5C,
-1666864171524395,1BFE2248,true,Rx,0,8,00,00,00,00,00,00,00,00,
-1666864171461252,1BFE2234,true,Rx,0,8,00,00,00,00,00,00,00,00,
-1666864171451268,0000038B,false,Rx,0,8,00,00,00,00,00,00,00,00,
-1666864171441285,0000067E,false,Rx,0,8,11,0A,00,00,5B,00,00,40,
-1666864171431387,1BFE221A,true,Rx,0,8,00,A5,00,00,7E,00,00,00,
-1666864171431088,1BFE2202,true,Rx,0,8,90,21,43,06,00,00,00,07,
-1666864171430790,1BFE2207,true,Rx,0,8,46,00,00,86,00,26,01,04,
-1666864171430448,1BFE2208,true,Rx,0,8,32,00,00,00,00,00,00,00,
-1666864171430150,1BFE2215,true,Rx,0,8,60,97,9E,80,80,80,AA,9A,
-1666864171429851,1BFE2216,true,Rx,0,8,00,00,00,00,00,00,C0,FA,
-1666864171429552,1BFE2217,true,Rx,0,8,00,00,CD,B5,A5,00,00,00,
-1666864171429254,1BFE2218,true,Rx,0,8,00,00,00,00,00,00,00,00,
-1666864171428913,1BFE2219,true,Rx,0,8,00,00,00,00,00,00,00,00,
-1666864171428614,1BFE221B,true,Rx,0,8,00,00,00,00,00,00,00,00,
-1666864171428273,1BFE221C,true,Rx,0,8,00,00,3F,00,00,00,00,00,
-1666864171427974,1BFE221E,true,Rx,0,8,7D,01,00,00,00,00,00,00,
-1666864171427675,1BFE2222,true,Rx,0,8,00,00,58,00,7E,1C,00,00,
-1666864171427377,1BFE2223,true,Rx,0,8,11,01,00,00,00,00,00,00,
-1666864171427035,1BFE2225,true,Rx,0,8,00,00,00,00,00,00,00,00,
-1666864171426737,1BFE2227,true,Rx,0,8,00,00,00,00,00,04,00,00,
-1666864171426395,1BFE2232,true,Rx,0,8,00,00,00,00,00,00,00,00,
-1666864171426054,1BFE2235,true,Rx,0,8,81,04,00,00,00,00,00,00,
-1666864171425755,1BFE2238,true,Rx,0,8,00,00,32,00,01,01,00,00,
-1666864171425414,1BFE2239,true,Rx,0,8,00,01,01,00,00,00,00,00,
-1666864171425115,1BFE223A,true,Rx,0,8,04,01,00,00,59,00,00,00,
-1666864171424817,1BFE223B,true,Rx,0,8,08,00,00,00,00,00,00,00,
-1666864171424475,1BFE223C,true,Rx,0,8,22,00,00,00,00,00,00,00,
-1666864171424134,1BFE223D,true,Rx,0,8,00,00,00,00,00,00,00,5C,
-1666864171423836,1BFE2248,true,Rx,0,8,00,00,00,00,00,00,00,00,
-1666864171351252,0000038B,false,Rx,0,8,00,00,00,00,00,00,00,00,
-1666864171331371,1BFE221A,true,Rx,0,8,00,A5,00,00,7E,00,00,00,
-1666864171331072,1BFE2206,true,Rx,0,8,46,00,00,86,00,22,00,04,
-1666864171330773,1BFE2207,true,Rx,0,8,46,00,00,88,00,26,01,04,
-1666864171330475,1BFE2209,true,Rx,0,8,00,00,01,00,10,61,12,00,
-1666864171330176,1BFE2215,true,Rx,0,8,60,97,9E,80,80,80,AA,9A,
-1666864171329877,1BFE2216,true,Rx,0,8,00,00,00,00,00,00,BF,FA,
-1666864171329579,1BFE2217,true,Rx,0,8,00,00,CD,B4,A5,00,00,00,
-1666864171329237,1BFE2218,true,Rx,0,8,00,00,00,00,00,00,00,00,
-1666864171328939,1BFE2219,true,Rx,0,8,00,00,00,00,00,00,00,00,
-1666864171328640,1BFE221B,true,Rx,0,8,00,00,00,00,00,00,00,00,
-1666864171328299,1BFE221C,true,Rx,0,8,00,00,3F,00,00,00,00,00,
-1666864171328000,1BFE221E,true,Rx,0,8,7D,01,00,00,00,00,00,00,
-1666864171327702,1BFE2222,true,Rx,0,8,00,00,58,00,7E,1C,00,00,
-1666864171327360,1BFE2223,true,Rx,0,8,11,01,00,00,00,00,00,00,
-1666864171327062,1BFE2225,true,Rx,0,8,00,00,00,00,00,00,00,00,
-1666864171326720,1BFE2227,true,Rx,0,8,00,00,00,00,00,04,00,00,
-1666864171326422,1BFE2232,true,Rx,0,8,00,00,00,00,00,00,00,00,
-1666864171326080,1BFE2235,true,Rx,0,8,81,04,00,00,00,00,00,00,
-1666864171325782,1BFE2238,true,Rx,0,8,00,00,32,00,01,01,00,00,
-1666864171325440,1BFE2239,true,Rx,0,8,00,01,01,00,00,00,00,00,
-1666864171325142,1BFE223A,true,Rx,0,8,04,01,00,00,63,00,00,00,
-1666864171324800,1BFE223B,true,Rx,0,8,12,00,00,00,00,00,00,00,
-1666864171324502,1BFE223C,true,Rx,0,8,22,00,00,00,00,00,00,00,
-1666864171324160,1BFE223D,true,Rx,0,8,00,00,00,00,00,00,00,5C,
-1666864171323819,1BFE2248,true,Rx,0,8,00,00,00,00,00,00,00,00,
-1666864171251290,0000038B,false,Rx,0,8,00,00,00,00,00,00,00,00,
-1666864171231409,1BFE220A,true,Rx,0,8,02,02,02,02,00,00,01,02,
-1666864171231068,1BFE220E,true,Rx,0,8,00,00,00,00,00,00,00,00,
-1666864171230769,1BFE220F,true,Rx,0,8,00,00,00,10,10,00,00,00,
-1666864171230470,1BFE2210,true,Rx,0,8,00,00,00,10,10,00,00,00,
-1666864171230129,1BFE2211,true,Rx,0,8,00,00,00,00,00,00,00,00,
-1666864171229873,1BFE2215,true,Rx,0,8,60,97,9E,80,80,80,AA,9A,
-1666864171229532,1BFE2216,true,Rx,0,8,00,00,00,00,00,00,C0,FA,
-1666864171229233,1BFE2217,true,Rx,0,8,00,00,CD,B4,A5,00,00,00,
-1666864171228934,1BFE2218,true,Rx,0,8,00,00,00,00,00,00,00,00,
-1666864171228593,1BFE2219,true,Rx,0,8,00,00,00,00,00,00,00,00,
-1666864171228294,1BFE221A,true,Rx,0,8,00,A6,00,00,7E,00,00,00,
-1666864171227996,1BFE221B,true,Rx,0,8,00,00,00,00,00,00,00,00,
-1666864171227654,1BFE221C,true,Rx,0,8,00,00,3F,00,00,00,00,00,
-1666864171227356,1BFE221E,true,Rx,0,8,7D,01,00,00,00,00,00,00,
-1666864171227057,1BFE2222,true,Rx,0,8,00,00,58,00,7E,1C,00,00,
-1666864171226716,1BFE2223,true,Rx,0,8,11,01,00,00,00,00,00,00,
-1666864171226417,1BFE2225,true,Rx,0,8,00,00,00,00,00,00,00,00,
-1666864171226076,1BFE2227,true,Rx,0,8,00,00,00,00,00,04,00,00,
-1666864171225777,1BFE2232,true,Rx,0,8,00,00,00,00,00,00,00,00,
-1666864171225436,1BFE2235,true,Rx,0,8,81,04,00,00,00,00,00,00,
-1666864171225137,1BFE2238,true,Rx,0,8,00,00,32,00,01,01,00,00,
-1666864171224796,1BFE2239,true,Rx,0,8,00,01,01,00,00,00,00,00,
-1666864171224497,1BFE223A,true,Rx,0,8,04,01,00,00,59,00,00,00,
-1666864171224156,1BFE223B,true,Rx,0,8,08,00,00,00,00,00,00,00,
-1666864171223815,1BFE223C,true,Rx,0,8,22,00,00,00,00,00,00,00,
-1666864171223516,1BFE223D,true,Rx,0,8,00,00,00,00,00,00,00,5C,
-1666864171223175,1BFE2248,true,Rx,0,8,00,00,00,00,00,00,00,00,
-1666864171151286,0000038B,false,Rx,0,8,00,00,00,00,00,00,00,00,
-1666864171131404,1BFE221A,true,Rx,0,8,00,A5,00,00,7E,00,00,00,
-1666864171131106,1BFE2215,true,Rx,0,8,60,97,9E,80,80,80,AA,9A,
-1666864171130807,1BFE2216,true,Rx,0,8,00,00,00,00,00,00,BF,FA,
-1666864171130466,1BFE2217,true,Rx,0,8,00,00,CD,B4,A5,00,00,00,
-1666864171130167,1BFE2218,true,Rx,0,8,00,00,00,00,00,00,00,00,
-1666864171129869,1BFE2219,true,Rx,0,8,00,00,00,00,00,00,00,00,
-1666864171129527,1BFE221B,true,Rx,0,8,00,00,00,00,00,00,00,00,
-1666864171129229,1BFE221C,true,Rx,0,8,00,00,3F,00,00,00,00,00,
-1666864171128930,1BFE221E,true,Rx,0,8,7D,01,00,00,00,00,00,00,
-1666864171128589,1BFE2222,true,Rx,0,8,00,00,58,00,7E,1C,00,00,
-1666864171128290,1BFE2223,true,Rx,0,8,11,01,00,00,00,00,00,00,
-1666864171127949,1BFE2225,true,Rx,0,8,00,00,00,00,00,00,00,00,
-1666864171127650,1BFE2227,true,Rx,0,8,00,00,00,00,00,04,00,00,
-1666864171127351,1BFE2232,true,Rx,0,8,00,00,00,00,00,00,00,00,
-1666864171127010,1BFE2235,true,Rx,0,8,81,04,00,00,00,00,00,00,
-1666864171126669,1BFE2238,true,Rx,0,8,00,00,32,00,01,01,00,00,
-1666864171126370,1BFE2239,true,Rx,0,8,00,01,01,00,00,00,00,00,
-1666864171126071,1BFE223A,true,Rx,0,8,04,01,00,00,63,00,00,00,
-1666864171125730,1BFE223B,true,Rx,0,8,12,00,00,00,00,00,00,00,
-1666864171125389,1BFE223C,true,Rx,0,8,22,00,00,00,00,00,00,00,
-1666864171125090,1BFE223D,true,Rx,0,8,00,00,00,00,00,00,00,5C,
-1666864171124749,1BFE2248,true,Rx,0,8,00,00,00,00,00,00,00,00,
-1666864171051324,0000038B,false,Rx,0,8,00,00,00,00,00,00,00,00,
-1666864171041341,00000564,false,Rx,0,8,DC,0E,00,00,F8,17,3D,00,
-1666864171031400,1BFE221A,true,Rx,0,8,00,A5,00,00,7E,00,00,00,
-1666864171031101,1BFE2215,true,Rx,0,8,60,97,9E,80,80,80,AA,9A,
-1666864171030803,1BFE2216,true,Rx,0,8,00,00,00,00,00,00,BF,FA,
-1666864171030504,1BFE2217,true,Rx,0,8,00,00,CD,B4,A5,00,00,00,
-1666864171030205,1BFE2218,true,Rx,0,8,00,00,00,00,00,00,00,00,
-1666864171029864,1BFE2219,true,Rx,0,8,00,00,00,00,00,00,00,00,
-1666864171029565,1BFE221B,true,Rx,0,8,00,00,00,00,00,00,00,00,
-1666864171029224,1BFE221C,true,Rx,0,8,00,00,3F,00,00,00,00,00,
-1666864171028926,1BFE221E,true,Rx,0,8,7D,01,00,00,00,00,00,00,
-1666864171028627,1BFE2222,true,Rx,0,8,00,00,58,00,7E,1C,00,00,
-1666864171028286,1BFE2223,true,Rx,0,8,11,01,00,00,00,00,00,00,
-1666864171027987,1BFE2225,true,Rx,0,8,00,00,00,00,00,00,00,00,
-1666864171027646,1BFE2227,true,Rx,0,8,00,00,00,00,00,04,00,00,
-1666864171027347,1BFE2232,true,Rx,0,8,00,00,00,00,00,00,00,00,
-1666864171027006,1BFE2235,true,Rx,0,8,81,04,00,00,00,00,00,00,
-1666864171026707,1BFE2238,true,Rx,0,8,00,00,32,00,01,01,00,00,
-1666864171026366,1BFE2239,true,Rx,0,8,00,01,01,00,00,00,00,00,
-1666864171026067,1BFE223A,true,Rx,0,8,04,01,00,00,59,00,00,00,
-1666864171025726,1BFE223B,true,Rx,0,8,08,00,00,00,00,00,00,00,
-1666864171025427,1BFE223C,true,Rx,0,8,22,00,00,00,00,00,00,00,
-1666864171025086,1BFE223D,true,Rx,0,8,00,00,00,00,00,00,00,5C,
-1666864171024744,1BFE2248,true,Rx,0,8,00,00,00,00,00,00,00,00,
-1666864170951320,0000038B,false,Rx,0,8,00,00,00,00,00,00,00,00,
-1666864170931438,1BFE221A,true,Rx,0,8,00,A6,00,00,7E,00,00,00,
-1666864170931140,1BFE2207,true,Rx,0,8,46,00,00,88,00,24,01,04,
-1666864170930841,1BFE2215,true,Rx,0,8,60,97,9E,80,80,80,AA,9A,
-1666864170930500,1BFE2216,true,Rx,0,8,00,00,00,00,00,00,C0,FA,
-1666864170930201,1BFE2217,true,Rx,0,8,00,00,CD,B5,A5,00,00,00,
-1666864170929902,1BFE2218,true,Rx,0,8,00,00,00,00,00,00,00,00,
-1666864170929561,1BFE2219,true,Rx,0,8,00,00,00,00,00,00,00,00,
-1666864170929262,1BFE221B,true,Rx,0,8,00,00,00,00,00,00,00,00,
-1666864170928964,1BFE221C,true,Rx,0,8,00,00,3F,00,00,00,00,00,
-1666864170928622,1BFE221E,true,Rx,0,8,7D,01,00,00,00,00,00,00,
-1666864170928324,1BFE2222,true,Rx,0,8,00,00,58,00,7E,1C,00,00,
-1666864170928025,1BFE2223,true,Rx,0,8,11,01,00,00,00,00,00,00,
-1666864170927684,1BFE2225,true,Rx,0,8,00,00,00,00,00,00,00,00,
-1666864170927385,1BFE2227,true,Rx,0,8,00,00,00,00,00,04,00,00,
-1666864170927044,1BFE2232,true,Rx,0,8,00,00,00,00,00,00,00,00,
-1666864170926745,1BFE2235,true,Rx,0,8,81,04,00,00,00,00,00,00,
-1666864170926404,1BFE2238,true,Rx,0,8,00,00,32,00,01,01,00,00,
-1666864170926105,1BFE2239,true,Rx,0,8,00,01,01,00,00,00,00,00,
-1666864170925764,1BFE223A,true,Rx,0,8,04,01,00,00,63,00,00,00,
-1666864170925465,1BFE223B,true,Rx,0,8,12,00,00,00,00,00,00,00,
-1666864170925124,1BFE223C,true,Rx,0,8,22,00,00,00,00,00,00,00,
-1666864170924783,1BFE223D,true,Rx,0,8,00,00,00,00,00,00,00,5C,
-1666864170924484,1BFE2248,true,Rx,0,8,00,00,00,00,00,00,00,00,
-1666864170851315,0000038B,false,Rx,0,8,00,00,00,00,00,00,00,00,
-1666864170831434,1BFE221A,true,Rx,0,8,00,A6,00,00,7E,00,00,00,
-1666864170831135,1BFE2209,true,Rx,0,8,00,00,01,00,10,41,12,00,
-1666864170830837,1BFE2215,true,Rx,0,8,60,97,9E,80,80,80,AA,9A,
-1666864170830538,1BFE2216,true,Rx,0,8,00,00,00,00,00,00,C0,FA,
-1666864170830239,1BFE2217,true,Rx,0,8,00,00,CD,B4,A5,00,00,00,
-1666864170829898,1BFE2218,true,Rx,0,8,00,00,00,00,00,00,00,00,
-1666864170829599,1BFE2219,true,Rx,0,8,00,00,00,00,00,00,00,00,
-1666864170829258,1BFE221B,true,Rx,0,8,00,00,00,00,00,00,00,00,
-1666864170828959,1BFE221C,true,Rx,0,8,00,00,3F,00,00,00,00,00,
-1666864170828661,1BFE221E,true,Rx,0,8,7D,01,00,00,00,00,00,00,
-1666864170828319,1BFE2222,true,Rx,0,8,00,00,58,00,7E,1C,00,00,
-1666864170828021,1BFE2223,true,Rx,0,8,11,01,00,00,00,00,00,00,
-1666864170827722,1BFE2225,true,Rx,0,8,00,00,00,00,00,00,00,00,
-1666864170827381,1BFE2227,true,Rx,0,8,00,00,00,00,00,04,00,00,
-1666864170827082,1BFE2232,true,Rx,0,8,00,00,00,00,00,00,00,00,
-1666864170826741,1BFE2235,true,Rx,0,8,81,04,00,00,00,00,00,00,
-1666864170826442,1BFE2238,true,Rx,0,8,00,00,32,00,01,01,00,00,
-1666864170826101,1BFE2239,true,Rx,0,8,00,01,01,00,00,00,00,00,
-1666864170825802,1BFE223A,true,Rx,0,8,04,01,00,00,59,00,00,00,
-1666864170825461,1BFE223B,true,Rx,0,8,08,00,00,00,00,00,00,00,
-1666864170825120,1BFE223C,true,Rx,0,8,22,00,00,00,00,00,00,00,
-1666864170824821,1BFE223D,true,Rx,0,8,00,00,00,00,00,00,00,5C,
-1666864170824480,1BFE2248,true,Rx,0,8,00,00,00,00,00,00,00,00,
-1666864170751354,0000038B,false,Rx,0,8,00,00,00,00,00,00,00,00,
-1666864170731429,1BFE221A,true,Rx,0,8,00,A5,00,00,7E,00,00,00,
-1666864170731131,1BFE2215,true,Rx,0,8,60,97,9E,80,80,80,AA,9A,
-1666864170730832,1BFE2216,true,Rx,0,8,00,00,00,00,00,00,C0,FA,
-1666864170730534,1BFE2217,true,Rx,0,8,00,00,CD,B4,A5,00,00,00,
-1666864170730235,1BFE2218,true,Rx,0,8,00,00,00,00,00,00,00,00,
-1666864170729894,1BFE2219,true,Rx,0,8,00,00,00,00,00,00,00,00,
-1666864170729595,1BFE221B,true,Rx,0,8,00,00,00,00,00,00,00,00,
-1666864170729254,1BFE221C,true,Rx,0,8,00,00,3F,00,00,00,00,00,
-1666864170728955,1BFE221E,true,Rx,0,8,7D,01,00,00,00,00,00,00,
-1666864170728656,1BFE2222,true,Rx,0,8,00,00,58,00,7E,1C,00,00,
-1666864170728315,1BFE2223,true,Rx,0,8,11,01,00,00,00,00,00,00,
-1666864170728016,1BFE2225,true,Rx,0,8,00,00,00,00,00,00,00,00,
-1666864170727675,1BFE2227,true,Rx,0,8,00,00,00,00,00,04,00,00,
-1666864170727376,1BFE2232,true,Rx,0,8,00,00,00,00,00,00,00,00,
-1666864170727035,1BFE2235,true,Rx,0,8,81,04,00,00,00,00,00,00,
-1666864170726736,1BFE2238,true,Rx,0,8,00,00,32,00,01,01,00,00,
-1666864170726395,1BFE2239,true,Rx,0,8,00,01,01,00,00,00,00,00,
-1666864170726096,1BFE223A,true,Rx,0,8,04,01,00,00,63,00,00,00,
-1666864170725755,1BFE223B,true,Rx,0,8,12,00,00,00,00,00,00,00,
-1666864170725456,1BFE223C,true,Rx,0,8,22,00,00,00,00,00,00,00,
-1666864170725115,1BFE223D,true,Rx,0,8,00,00,00,00,00,00,00,5C,
-1666864170724774,1BFE2248,true,Rx,0,8,00,00,00,00,00,00,00,00,
-1666864170651349,0000038B,false,Rx,0,8,00,00,00,00,00,00,00,00,
-1666864170631468,1BFE221A,true,Rx,0,8,00,A5,00,00,7E,00,00,00,
-1666864170631169,1BFE2207,true,Rx,0,8,46,00,00,88,00,22,01,04,
-1666864170630870,1BFE2215,true,Rx,0,8,60,97,9E,80,80,80,AA,9A,
-1666864170630572,1BFE2216,true,Rx,0,8,00,00,00,00,00,00,C0,FA,
-1666864170630273,1BFE2217,true,Rx,0,8,00,00,CD,B4,A5,00,00,00,
-1666864170629932,1BFE2218,true,Rx,0,8,00,00,00,00,00,00,00,00,
-1666864170629633,1BFE2219,true,Rx,0,8,00,00,00,00,00,00,00,00,
-1666864170629292,1BFE221B,true,Rx,0,8,00,00,00,00,00,00,00,00,
-1666864170628993,1BFE221C,true,Rx,0,8,00,00,3F,00,00,00,00,00,
-1666864170628695,1BFE221E,true,Rx,0,8,7D,01,00,00,00,00,00,00,
-1666864170628353,1BFE2222,true,Rx,0,8,00,00,58,00,7E,1C,00,00,
-1666864170628055,1BFE2223,true,Rx,0,8,11,01,00,00,00,00,00,00,
-1666864170627756,1BFE2225,true,Rx,0,8,00,00,00,00,00,00,00,00,
-1666864170627415,1BFE2227,true,Rx,0,8,00,00,00,00,00,04,00,00,
-1666864170627116,1BFE2232,true,Rx,0,8,00,00,00,00,00,00,00,00,
-1666864170626775,1BFE2235,true,Rx,0,8,81,04,00,00,00,00,00,00,
-1666864170626476,1BFE2238,true,Rx,0,8,00,00,32,00,01,01,00,00,
-1666864170626135,1BFE2239,true,Rx,0,8,00,01,01,00,00,00,00,00,
-1666864170625836,1BFE223A,true,Rx,0,8,04,01,00,00,59,00,00,00,
-1666864170625495,1BFE223B,true,Rx,0,8,08,00,00,00,00,00,00,00,
-1666864170625153,1BFE223C,true,Rx,0,8,22,00,00,00,00,00,00,00,
-1666864170624855,1BFE223D,true,Rx,0,8,00,00,00,00,00,00,00,5C,
-1666864170624513,1BFE2248,true,Rx,0,8,00,00,00,00,00,00,00,00,
-1666864170551387,0000038B,false,Rx,0,8,00,00,00,00,00,00,00,00,
-1666864170531463,1BFE221A,true,Rx,0,8,00,A5,00,00,7E,00,00,00,
-1666864170531165,1BFE2215,true,Rx,0,8,60,97,9E,80,80,80,AA,9A,
-1666864170530866,1BFE2216,true,Rx,0,8,00,00,00,00,00,00,C0,FA,
-1666864170530567,1BFE2217,true,Rx,0,8,00,00,CD,B4,A5,00,00,00,
-1666864170530269,1BFE2218,true,Rx,0,8,00,00,00,00,00,00,00,00,
-1666864170529927,1BFE2219,true,Rx,0,8,00,00,00,00,00,00,00,00,
-1666864170529629,1BFE221B,true,Rx,0,8,00,00,00,00,00,00,00,00,
-1666864170529287,1BFE221C,true,Rx,0,8,00,00,3F,00,00,00,00,00,
-1666864170528989,1BFE221E,true,Rx,0,8,7D,01,00,00,00,00,00,00,
-1666864170528690,1BFE2222,true,Rx,0,8,00,00,58,00,7E,1C,00,00,
-1666864170528349,1BFE2223,true,Rx,0,8,11,01,00,00,00,00,00,00,
-1666864170528050,1BFE2225,true,Rx,0,8,00,00,00,00,00,00,00,00,
-1666864170527709,1BFE2227,true,Rx,0,8,00,00,00,00,00,04,00,00,
-1666864170527410,1BFE2232,true,Rx,0,8,00,00,00,00,00,00,00,00,
-1666864170527069,1BFE2235,true,Rx,0,8,81,04,00,00,00,00,00,00,
-1666864170526770,1BFE2238,true,Rx,0,8,00,00,32,00,01,01,00,00,
-1666864170526429,1BFE2239,true,Rx,0,8,00,01,01,00,00,00,00,00,
-1666864170526130,1BFE223A,true,Rx,0,8,04,01,00,00,63,00,00,00,
-1666864170525789,1BFE223B,true,Rx,0,8,12,00,00,00,00,00,00,00,
-1666864170525448,1BFE223C,true,Rx,0,8,22,00,00,00,00,00,00,00,
-1666864170525149,1BFE223D,true,Rx,0,8,00,00,00,00,00,00,00,5C,
-1666864170524808,1BFE2248,true,Rx,0,8,00,00,00,00,00,00,00,00,
-1666864170451383,0000038B,false,Rx,0,8,00,00,00,00,00,00,00,00,
-1666864170441400,0000067E,false,Rx,0,8,10,0B,00,00,5B,00,00,40,
-1666864170431502,1BFE221A,true,Rx,0,8,00,A6,00,00,7E,00,00,00,
-1666864170431203,1BFE2209,true,Rx,0,8,00,00,01,00,10,21,12,00,
-1666864170430904,1BFE2215,true,Rx,0,8,60,97,9E,80,80,80,AA,9A,
-1666864170430563,1BFE2216,true,Rx,0,8,00,00,00,00,00,00,C0,FA,
-1666864170430264,1BFE2217,true,Rx,0,8,00,00,CD,B5,A5,00,00,00,
-1666864170429966,1BFE2218,true,Rx,0,8,00,00,00,00,00,00,00,00,
-1666864170429667,1BFE2219,true,Rx,0,8,00,00,00,00,00,00,00,00,
-1666864170429326,1BFE221B,true,Rx,0,8,00,00,00,00,00,00,00,00,
-1666864170429027,1BFE221C,true,Rx,0,8,00,00,3F,00,00,00,00,00,
-1666864170428686,1BFE221E,true,Rx,0,8,7D,01,00,00,00,00,00,00,
-1666864170428387,1BFE2222,true,Rx,0,8,00,00,58,00,7E,1C,00,00,
-1666864170428088,1BFE2223,true,Rx,0,8,11,01,00,00,00,00,00,00,
-1666864170427747,1BFE2225,true,Rx,0,8,00,00,00,00,00,00,00,00,
-1666864170427448,1BFE2227,true,Rx,0,8,00,00,00,00,00,04,00,00,
-1666864170427107,1BFE2232,true,Rx,0,8,00,00,00,00,00,00,00,00,
-1666864170426808,1BFE2235,true,Rx,0,8,81,04,00,00,00,00,00,00,
-1666864170426467,1BFE2238,true,Rx,0,8,00,00,32,00,01,01,00,00,
-1666864170426169,1BFE2239,true,Rx,0,8,00,01,01,00,00,00,00,00,
-1666864170425827,1BFE223A,true,Rx,0,8,04,01,00,00,59,00,00,00,
-1666864170425529,1BFE223B,true,Rx,0,8,08,00,00,00,00,00,00,00,
-1666864170425187,1BFE223C,true,Rx,0,8,22,00,00,00,00,00,00,00,
-1666864170424889,1BFE223D,true,Rx,0,8,00,00,00,00,00,00,00,5C,
-1666864170424547,1BFE2248,true,Rx,0,8,00,00,00,00,00,00,00,00,
-1666864170351349,0000038B,false,Rx,0,8,00,00,00,00,00,00,00,00,
-1666864170331467,1BFE221A,true,Rx,0,8,00,A6,00,00,7E,00,00,00,
-1666864170331168,1BFE2215,true,Rx,0,8,60,97,9E,80,80,80,AA,9A,
-1666864170330870,1BFE2216,true,Rx,0,8,00,00,00,00,00,00,C0,FA,
-1666864170330571,1BFE2217,true,Rx,0,8,00,00,CD,B4,A5,00,00,00,
-1666864170330230,1BFE2218,true,Rx,0,8,00,00,00,00,00,00,00,00,
-1666864170329931,1BFE2219,true,Rx,0,8,00,00,00,00,00,00,00,00,
-1666864170329633,1BFE221B,true,Rx,0,8,00,00,00,00,00,00,00,00,
-1666864170329291,1BFE221C,true,Rx,0,8,00,00,3F,00,00,00,00,00,
-1666864170328993,1BFE221E,true,Rx,0,8,7D,01,00,00,00,00,00,00,
-1666864170328651,1BFE2222,true,Rx,0,8,00,00,58,00,7E,1C,00,00,
-1666864170328353,1BFE2223,true,Rx,0,8,11,01,00,00,00,00,00,00,
-1666864170328011,1BFE2225,true,Rx,0,8,00,00,00,00,00,00,00,00,
-1666864170327713,1BFE2227,true,Rx,0,8,00,00,00,00,00,04,00,00,
-1666864170327371,1BFE2232,true,Rx,0,8,00,00,00,00,00,00,00,00,
-1666864170327073,1BFE2235,true,Rx,0,8,81,04,00,00,00,00,00,00,
-1666864170326731,1BFE2238,true,Rx,0,8,00,00,32,00,01,01,00,00,
-1666864170326433,1BFE2239,true,Rx,0,8,00,01,01,00,00,00,00,00,
-1666864170326091,1BFE223A,true,Rx,0,8,04,01,00,00,63,00,00,00,
-1666864170325793,1BFE223B,true,Rx,0,8,12,00,00,00,00,00,00,00,
-1666864170325451,1BFE223C,true,Rx,0,8,22,00,00,00,00,00,00,00,
-1666864170325153,1BFE223D,true,Rx,0,8,00,00,00,00,00,00,00,5C,
-1666864170324812,1BFE2248,true,Rx,0,8,00,00,00,00,00,00,00,00,
-1666864170251387,0000038B,false,Rx,0,8,00,00,00,00,00,00,00,00,
-1666864170231505,1BFE220C,true,Rx,0,8,00,00,00,00,00,00,00,00,
-1666864170231164,1BFE220D,true,Rx,0,8,00,00,00,00,00,00,00,00,
-1666864170230865,1BFE2215,true,Rx,0,8,60,97,9E,80,80,80,AA,9A,
-1666864170230567,1BFE2216,true,Rx,0,8,00,00,00,00,00,00,C0,FA,
-1666864170230268,1BFE2217,true,Rx,0,8,00,00,CD,B4,A5,00,00,00,
-1666864170229927,1BFE2218,true,Rx,0,8,00,00,00,00,00,00,00,00,
-1666864170229628,1BFE2219,true,Rx,0,8,00,00,00,00,00,00,00,00,
-1666864170229330,1BFE221A,true,Rx,0,8,00,A5,00,00,7E,00,00,00,
-1666864170228988,1BFE221B,true,Rx,0,8,00,00,00,00,00,00,00,00,
-1666864170228690,1BFE221C,true,Rx,0,8,00,00,3F,00,00,00,00,00,
-1666864170228348,1BFE221E,true,Rx,0,8,7D,01,00,00,00,00,00,00,
-1666864170228050,1BFE2222,true,Rx,0,8,00,00,58,00,7E,1C,00,00,
-1666864170227751,1BFE2223,true,Rx,0,8,11,01,00,00,00,00,00,00,
-1666864170227410,1BFE2225,true,Rx,0,8,00,00,00,00,00,00,00,00,
-1666864170227111,1BFE2227,true,Rx,0,8,00,00,00,00,00,04,00,00,
-1666864170226770,1BFE2232,true,Rx,0,8,00,00,00,00,00,00,00,00,
-1666864170226471,1BFE2235,true,Rx,0,8,81,04,00,00,00,00,00,00,
-1666864170226130,1BFE2238,true,Rx,0,8,00,00,32,00,01,01,00,00,
-1666864170225831,1BFE2239,true,Rx,0,8,00,01,01,00,00,00,00,00,
-1666864170225490,1BFE223A,true,Rx,0,8,04,01,00,00,59,00,00,00,
-1666864170225191,1BFE223B,true,Rx,0,8,08,00,00,00,00,00,00,00,
-1666864170224850,1BFE223C,true,Rx,0,8,22,00,00,00,00,00,00,00,
-1666864170224551,1BFE223D,true,Rx,0,8,00,00,00,00,00,00,00,5C,
-1666864170224210,1BFE2248,true,Rx,0,8,00,00,00,00,00,00,00,00,
-1666864170151382,0000038B,false,Rx,0,8,00,00,00,00,00,00,00,00,
-1666864170131501,1BFE220B,true,Rx,0,8,00,00,00,00,00,00,11,00,
-1666864170131202,1BFE2207,true,Rx,0,8,46,00,00,88,00,20,01,04,
-1666864170130904,1BFE2215,true,Rx,0,8,60,97,9E,80,80,80,AA,9A,
-1666864170130605,1BFE2216,true,Rx,0,8,00,00,00,00,00,00,BF,FA,
-1666864170130306,1BFE2217,true,Rx,0,8,00,00,CD,B4,A5,00,00,00,
-1666864170129965,1BFE2218,true,Rx,0,8,00,00,00,00,00,00,00,00,
-1666864170129666,1BFE2219,true,Rx,0,8,00,00,00,00,00,00,00,00,
-1666864170129325,1BFE221A,true,Rx,0,8,00,A5,00,00,7E,00,00,00,
-1666864170129026,1BFE221B,true,Rx,0,8,00,00,00,00,00,00,00,00,
-1666864170128728,1BFE221C,true,Rx,0,8,00,00,3F,00,00,00,00,00,
-1666864170128386,1BFE221E,true,Rx,0,8,7D,01,00,00,00,00,00,00,
-1666864170128088,1BFE2222,true,Rx,0,8,00,00,58,00,7E,1C,00,00,
-1666864170127789,1BFE2223,true,Rx,0,8,11,01,00,00,00,00,00,00,
-1666864170127448,1BFE2225,true,Rx,0,8,00,00,00,00,00,00,00,00,
-1666864170127149,1BFE2227,true,Rx,0,8,00,00,00,00,00,04,00,00,
-1666864170126808,1BFE2232,true,Rx,0,8,00,00,00,00,00,00,00,00,
-1666864170126509,1BFE2235,true,Rx,0,8,81,04,00,00,00,00,00,00,
-1666864170126168,1BFE2238,true,Rx,0,8,00,00,32,00,01,01,00,00,
-1666864170125869,1BFE2239,true,Rx,0,8,00,01,01,00,00,00,00,00,
-1666864170125528,1BFE223A,true,Rx,0,8,04,01,00,00,63,00,00,00,
-1666864170125229,1BFE223B,true,Rx,0,8,12,00,00,00,00,00,00,00,
-1666864170124888,1BFE223C,true,Rx,0,8,22,00,00,00,00,00,00,00,
-1666864170124547,1BFE223D,true,Rx,0,8,00,00,00,00,00,00,00,5C,
-1666864170124248,1BFE2248,true,Rx,0,8,00,00,00,00,00,00,00,00,
-1666864170051421,0000038B,false,Rx,0,8,00,00,00,00,00,00,00,00,
-1666864170041437,00000564,false,Rx,0,8,DD,0F,00,00,F8,17,3D,00,
-1666864170031497,1BFE221A,true,Rx,0,8,00,A6,00,00,7E,00,00,00,
-1666864170031198,1BFE2203,true,Rx,0,8,00,00,00,18,00,18,00,00,
-1666864170030899,1BFE2209,true,Rx,0,8,00,00,01,00,10,01,12,00,
-1666864170030601,1BFE2215,true,Rx,0,8,60,97,9E,80,80,80,AA,9A,
-1666864170030302,1BFE2216,true,Rx,0,8,00,00,00,00,00,00,C0,FA,
-1666864170030003,1BFE2217,true,Rx,0,8,00,00,CD,B4,A5,00,00,00,
-1666864170029662,1BFE2218,true,Rx,0,8,00,00,00,00,00,00,00,00,
-1666864170029363,1BFE2219,true,Rx,0,8,00,00,00,00,00,00,00,00,
-1666864170029022,1BFE221B,true,Rx,0,8,00,00,00,00,00,00,00,00,
-1666864170028723,1BFE221C,true,Rx,0,8,00,00,3F,00,00,00,00,00,
-1666864170028425,1BFE221E,true,Rx,0,8,7D,01,00,00,00,00,00,00,
-1666864170028083,1BFE2222,true,Rx,0,8,00,00,58,00,7E,1C,00,00,
-1666864170027785,1BFE2223,true,Rx,0,8,11,01,00,00,00,00,00,00,
-1666864170027443,1BFE2225,true,Rx,0,8,00,00,00,00,00,00,00,00,
-1666864170027145,1BFE2227,true,Rx,0,8,00,00,00,00,00,04,00,00,
-1666864170026846,1BFE2232,true,Rx,0,8,00,00,00,00,00,00,00,00,
-1666864170026505,1BFE2235,true,Rx,0,8,81,04,00,00,00,00,00,00,
-1666864170026164,1BFE2238,true,Rx,0,8,00,00,32,00,01,01,00,00,
-1666864170025865,1BFE2239,true,Rx,0,8,00,01,01,00,00,00,00,00,
-1666864170025566,1BFE223A,true,Rx,0,8,04,01,00,00,59,00,00,00,
-1666864170025225,1BFE223B,true,Rx,0,8,08,00,00,00,00,00,00,00,
-1666864170024884,1BFE223C,true,Rx,0,8,22,00,00,00,00,00,00,00,
-1666864170024585,1BFE223D,true,Rx,0,8,00,00,00,00,00,00,00,5C,
-1666864170024244,1BFE2248,true,Rx,0,8,00,00,00,00,00,00,00,00,
-1666864169951416,0000038B,false,Rx,0,8,00,00,00,00,00,00,00,00,
-1666864169931535,1BFE221A,true,Rx,0,8,00,A6,00,00,7E,00,00,00,
-1666864169931236,1BFE2205,true,Rx,0,8,45,45,00,00,00,41,09,30,
-1666864169930937,1BFE2215,true,Rx,0,8,60,97,9E,80,80,80,AA,9A,
-1666864169930596,1BFE2216,true,Rx,0,8,00,00,00,00,00,00,C0,FA,
-1666864169930298,1BFE2217,true,Rx,0,8,00,00,CD,B4,A5,00,00,00,
-1666864169929999,1BFE2218,true,Rx,0,8,00,00,00,00,00,00,00,00,
-1666864169929700,1BFE2219,true,Rx,0,8,00,00,00,00,00,00,00,00,
-1666864169929359,1BFE221B,true,Rx,0,8,00,00,00,00,00,00,00,00,
-1666864169929060,1BFE221C,true,Rx,0,8,00,00,3F,00,00,00,00,00,
-1666864169928719,1BFE221E,true,Rx,0,8,7D,01,00,00,00,00,00,00,
-1666864169928420,1BFE2222,true,Rx,0,8,00,00,58,00,7E,1C,00,00,
-1666864169928122,1BFE2223,true,Rx,0,8,11,01,00,00,00,00,00,00,
-1666864169927780,1BFE2225,true,Rx,0,8,00,00,00,00,00,00,00,00,
-1666864169927482,1BFE2227,true,Rx,0,8,00,00,00,00,00,04,00,00,
-1666864169927140,1BFE2232,true,Rx,0,8,00,00,00,00,00,00,00,00,
-1666864169926842,1BFE2235,true,Rx,0,8,81,04,00,00,00,00,00,00,
-1666864169926500,1BFE2238,true,Rx,0,8,00,00,32,00,01,01,00,00,
-1666864169926202,1BFE2239,true,Rx,0,8,00,01,01,00,00,00,00,00,
-1666864169925860,1BFE223A,true,Rx,0,8,04,01,00,00,63,00,00,00,
-1666864169925562,1BFE223B,true,Rx,0,8,12,00,00,00,00,00,00,00,
-1666864169925221,1BFE223C,true,Rx,0,8,22,00,00,00,00,00,00,00,
-1666864169924879,1BFE223D,true,Rx,0,8,00,00,00,00,00,00,00,5C,
-1666864169924581,1BFE2248,true,Rx,0,8,00,00,00,00,00,00,00,00,
-1666864169851454,0000038B,false,Rx,0,8,00,00,00,00,00,00,00,00,
-1666864169831530,1BFE221A,true,Rx,0,8,00,A6,00,00,7E,00,00,00,
-1666864169831232,1BFE2215,true,Rx,0,8,60,97,9E,80,80,80,AA,9A,
-1666864169830933,1BFE2216,true,Rx,0,8,00,00,00,00,00,00,C0,FA,
-1666864169830634,1BFE2217,true,Rx,0,8,00,00,CD,B4,A5,00,00,00,
-1666864169830293,1BFE2218,true,Rx,0,8,00,00,00,00,00,00,00,00,
-1666864169829994,1BFE2219,true,Rx,0,8,00,00,00,00,00,00,00,00,
-1666864169829696,1BFE221B,true,Rx,0,8,00,00,00,00,00,00,00,00,
-1666864169829355,1BFE221C,true,Rx,0,8,00,00,3F,00,00,00,00,00,
-1666864169829056,1BFE221E,true,Rx,0,8,7D,01,00,00,00,00,00,00,
-1666864169828715,1BFE2222,true,Rx,0,8,00,00,58,00,7E,1C,00,00,
-1666864169828416,1BFE2223,true,Rx,0,8,11,01,00,00,00,00,00,00,
-1666864169828075,1BFE2225,true,Rx,0,8,00,00,00,00,00,00,00,00,
-1666864169827776,1BFE2227,true,Rx,0,8,00,00,00,00,00,04,00,00,
-1666864169827477,1BFE2232,true,Rx,0,8,00,00,00,00,00,00,00,00,
-1666864169827136,1BFE2235,true,Rx,0,8,81,04,00,00,00,00,00,00,
-1666864169826795,1BFE2238,true,Rx,0,8,00,00,32,00,01,01,00,00,
-1666864169826496,1BFE2239,true,Rx,0,8,00,01,01,00,00,00,00,00,
-1666864169826197,1BFE223A,true,Rx,0,8,04,01,00,00,59,00,00,00,
-1666864169825856,1BFE223B,true,Rx,0,8,08,00,00,00,00,00,00,00,
-1666864169825515,1BFE223C,true,Rx,0,8,22,00,00,00,00,00,00,00,
-1666864169825216,1BFE223D,true,Rx,0,8,00,00,00,00,00,00,00,5C,
-1666864169824875,1BFE2248,true,Rx,0,8,00,00,00,00,00,00,00,00,
-1666864169751450,0000038B,false,Rx,0,8,00,00,00,00,00,00,00,00,
-1666864169731526,1BFE221A,true,Rx,0,8,00,A5,00,00,7E,00,00,00,
-1666864169731227,1BFE2207,true,Rx,0,8,46,00,00,88,00,1E,01,04,
-1666864169730929,1BFE2215,true,Rx,0,8,60,97,9E,80,80,80,AA,9A,
-1666864169730630,1BFE2216,true,Rx,0,8,00,00,00,00,00,00,C0,FA,
-1666864169730331,1BFE2217,true,Rx,0,8,00,00,CD,B4,A5,00,00,00,
-1666864169730033,1BFE2218,true,Rx,0,8,00,00,00,00,00,00,00,00,
-1666864169729691,1BFE2219,true,Rx,0,8,00,00,00,00,00,00,00,00,
-1666864169729393,1BFE221B,true,Rx,0,8,00,00,00,00,00,00,00,00,
-1666864169729051,1BFE221C,true,Rx,0,8,00,00,3F,00,00,00,00,00,
-1666864169728753,1BFE221E,true,Rx,0,8,7D,01,00,00,00,00,00,00,
-1666864169728454,1BFE2222,true,Rx,0,8,00,00,58,00,7E,1C,00,00,
-1666864169728113,1BFE2223,true,Rx,0,8,11,01,00,00,00,00,00,00,
-1666864169727814,1BFE2225,true,Rx,0,8,00,00,00,00,00,00,00,00,
-1666864169727516,1BFE2227,true,Rx,0,8,00,00,00,00,00,04,00,00,
-1666864169727174,1BFE2232,true,Rx,0,8,00,00,00,00,00,00,00,00,
-1666864169726833,1BFE2235,true,Rx,0,8,81,04,00,00,00,00,00,00,
-1666864169726534,1BFE2238,true,Rx,0,8,00,00,32,00,01,01,00,00,
-1666864169726193,1BFE2239,true,Rx,0,8,00,01,01,00,00,00,00,00,
-1666864169725894,1BFE223A,true,Rx,0,8,04,01,00,00,63,00,00,00,
-1666864169725553,1BFE223B,true,Rx,0,8,12,00,00,00,00,00,00,00,
-1666864169725254,1BFE223C,true,Rx,0,8,22,00,00,00,00,00,00,00,
-1666864169724913,1BFE223D,true,Rx,0,8,00,00,00,00,00,00,00,5C,
-1666864169724614,1BFE2248,true,Rx,0,8,00,00,00,00,00,00,00,00,
-1666864169651446,0000038B,false,Rx,0,8,00,00,00,00,00,00,00,00,
-1666864169631564,1BFE221A,true,Rx,0,8,00,A5,00,00,7E,00,00,00,
-1666864169631266,1BFE2209,true,Rx,0,8,00,00,01,00,20,E1,11,00,
-1666864169630967,1BFE2215,true,Rx,0,8,60,97,9E,80,80,80,AA,9A,
-1666864169630626,1BFE2216,true,Rx,0,8,00,00,00,00,00,00,C0,FA,
-1666864169630327,1BFE2217,true,Rx,0,8,00,00,CD,B4,A5,00,00,00,
-1666864169630028,1BFE2218,true,Rx,0,8,00,00,00,00,00,00,00,00,
-1666864169629730,1BFE2219,true,Rx,0,8,00,00,00,00,00,00,00,00,
-1666864169629388,1BFE221B,true,Rx,0,8,00,00,00,00,00,00,00,00,
-1666864169629090,1BFE221C,true,Rx,0,8,00,00,3F,00,00,00,00,00,
-1666864169628748,1BFE221E,true,Rx,0,8,7D,01,00,00,00,00,00,00,
-1666864169628450,1BFE2222,true,Rx,0,8,00,00,58,00,7E,1C,00,00,
-1666864169628151,1BFE2223,true,Rx,0,8,11,01,00,00,00,00,00,00,
-1666864169627810,1BFE2225,true,Rx,0,8,00,00,00,00,00,00,00,00,
-1666864169627511,1BFE2227,true,Rx,0,8,00,00,00,00,00,04,00,00,
-1666864169627170,1BFE2232,true,Rx,0,8,00,00,00,00,00,00,00,00,
-1666864169626871,1BFE2235,true,Rx,0,8,81,04,00,00,00,00,00,00,
-1666864169626530,1BFE2238,true,Rx,0,8,00,00,32,00,01,01,00,00,
-1666864169626231,1BFE2239,true,Rx,0,8,00,01,01,00,00,00,00,00,
-1666864169625890,1BFE223A,true,Rx,0,8,04,01,00,00,59,00,00,00,
-1666864169625591,1BFE223B,true,Rx,0,8,08,00,00,00,00,00,00,00,
-1666864169625250,1BFE223C,true,Rx,0,8,22,00,00,00,00,00,00,00,
-1666864169624951,1BFE223D,true,Rx,0,8,00,00,00,00,00,00,00,5C,
-1666864169624610,1BFE2248,true,Rx,0,8,00,00,00,00,00,00,00,00,
-1666864169551441,0000038B,false,Rx,0,8,00,00,00,00,00,00,00,00,
-1666864169531560,1BFE221A,true,Rx,0,8,00,A5,00,00,7E,00,00,00,
-1666864169531261,1BFE2209,true,Rx,0,8,00,00,01,00,10,E1,11,00,
-1666864169530962,1BFE2215,true,Rx,0,8,60,97,9E,80,80,80,AA,9A,
-1666864169530664,1BFE2216,true,Rx,0,8,00,00,00,00,00,00,C0,FA,
-1666864169530365,1BFE2217,true,Rx,0,8,00,00,CD,B4,A5,00,00,00,
-1666864169530024,1BFE2218,true,Rx,0,8,00,00,00,00,00,00,00,00,
-1666864169529725,1BFE2219,true,Rx,0,8,00,00,00,00,00,00,00,00,
-1666864169529427,1BFE221B,true,Rx,0,8,00,00,00,00,00,00,00,00,
-1666864169529085,1BFE221C,true,Rx,0,8,00,00,3F,00,00,00,00,00,
-1666864169528787,1BFE221E,true,Rx,0,8,7D,01,00,00,00,00,00,00,
-1666864169528488,1BFE2222,true,Rx,0,8,00,00,58,00,7E,1C,00,00,
-1666864169528147,1BFE2223,true,Rx,0,8,11,01,00,00,00,00,00,00,
-1666864169527848,1BFE2225,true,Rx,0,8,00,00,00,00,00,00,00,00,
-1666864169527507,1BFE2227,true,Rx,0,8,00,00,00,00,00,04,00,00,
-1666864169527208,1BFE2232,true,Rx,0,8,00,00,00,00,00,00,00,00,
-1666864169526867,1BFE2235,true,Rx,0,8,81,04,00,00,00,00,00,00,
-1666864169526568,1BFE2238,true,Rx,0,8,00,00,32,00,01,01,00,00,
-1666864169526227,1BFE2239,true,Rx,0,8,00,01,01,00,00,00,00,00,
-1666864169525928,1BFE223A,true,Rx,0,8,04,01,00,00,63,00,00,00,
-1666864169525587,1BFE223B,true,Rx,0,8,12,00,00,00,00,00,00,00,
-1666864169525288,1BFE223C,true,Rx,0,8,22,00,00,00,00,00,00,00,
-1666864169524947,1BFE223D,true,Rx,0,8,00,00,00,00,00,00,00,5C,
-1666864169524606,1BFE2248,true,Rx,0,8,00,00,00,00,00,00,00,00,
-1666864169451479,0000038B,false,Rx,0,8,00,00,00,00,00,00,00,00,
-1666864169441496,0000067E,false,Rx,0,8,17,0C,00,00,5B,00,00,40,
-1666864169431598,1BFE221A,true,Rx,0,8,00,A6,00,00,7E,00,00,00,
-1666864169431299,1BFE2215,true,Rx,0,8,60,97,9E,80,80,80,AA,9A,
-1666864169430958,1BFE2216,true,Rx,0,8,00,00,00,00,00,00,C0,FA,
-1666864169430659,1BFE2217,true,Rx,0,8,00,00,CD,B4,A5,00,00,00,
-1666864169430361,1BFE2218,true,Rx,0,8,00,00,00,00,00,00,00,00,
-1666864169430019,1BFE2219,true,Rx,0,8,00,00,00,00,00,00,00,00,
-1666864169429721,1BFE221B,true,Rx,0,8,00,00,00,00,00,00,00,00,
-1666864169429422,1BFE221C,true,Rx,0,8,00,00,3F,00,00,00,00,00,
-1666864169429081,1BFE221E,true,Rx,0,8,7D,01,00,00,00,00,00,00,
-1666864169428782,1BFE2222,true,Rx,0,8,00,00,58,00,7E,1C,00,00,
-1666864169428484,1BFE2223,true,Rx,0,8,11,01,00,00,00,00,00,00,
-1666864169428142,1BFE2225,true,Rx,0,8,00,00,00,00,00,00,00,00,
-1666864169427844,1BFE2227,true,Rx,0,8,00,00,00,00,00,04,00,00,
-1666864169427502,1BFE2232,true,Rx,0,8,00,00,00,00,00,00,00,00,
-1666864169427204,1BFE2235,true,Rx,0,8,81,04,00,00,00,00,00,00,
-1666864169426862,1BFE2238,true,Rx,0,8,00,00,32,00,01,01,00,00,
-1666864169426564,1BFE2239,true,Rx,0,8,00,01,01,00,00,00,00,00,
-1666864169426222,1BFE223A,true,Rx,0,8,04,01,00,00,59,00,00,00,
-1666864169425924,1BFE223B,true,Rx,0,8,08,00,00,00,00,00,00,00,
-1666864169425582,1BFE223C,true,Rx,0,8,22,00,00,00,00,00,00,00,
-1666864169425241,1BFE223D,true,Rx,0,8,00,00,00,00,00,00,00,5C,
-1666864169424942,1BFE2248,true,Rx,0,8,00,00,00,00,00,00,00,00,
-1666864169351573,0000038B,false,Rx,0,8,00,00,00,00,00,00,00,00,
-1666864169331692,1BFE221A,true,Rx,0,8,00,A6,00,00,7E,00,00,00,
-1666864169331393,1BFE2207,true,Rx,0,8,46,00,00,88,00,1C,01,04,
-1666864169331094,1BFE2215,true,Rx,0,8,60,97,9E,80,80,80,AA,9A,
-1666864169330796,1BFE2216,true,Rx,0,8,00,00,00,00,00,00,C0,FA,
-1666864169330497,1BFE2217,true,Rx,0,8,00,00,CD,B4,A5,00,00,00,
-1666864169330156,1BFE2218,true,Rx,0,8,00,00,00,00,00,00,00,00,
-1666864169329857,1BFE2219,true,Rx,0,8,00,00,00,00,00,00,00,00,
-1666864169329516,1BFE221B,true,Rx,0,8,00,00,00,00,00,00,00,00,
-1666864169329217,1BFE221C,true,Rx,0,8,00,00,3F,00,00,00,00,00,
-1666864169328918,1BFE221E,true,Rx,0,8,7D,01,00,00,00,00,00,00,
-1666864169328577,1BFE2222,true,Rx,0,8,00,00,58,00,7E,1C,00,00,
-1666864169328278,1BFE2223,true,Rx,0,8,11,01,00,00,00,00,00,00,
-1666864169327980,1BFE2225,true,Rx,0,8,00,00,00,00,00,00,00,00,
-1666864169327639,1BFE2227,true,Rx,0,8,00,00,00,00,00,04,00,00,
-1666864169327340,1BFE2232,true,Rx,0,8,00,00,00,00,00,00,00,00,
-1666864169326999,1BFE2235,true,Rx,0,8,81,04,00,00,00,00,00,00,
-1666864169326700,1BFE2238,true,Rx,0,8,00,00,32,00,01,01,00,00,
-1666864169326359,1BFE2239,true,Rx,0,8,00,01,01,00,00,00,00,00,
-1666864169326060,1BFE223A,true,Rx,0,8,04,01,00,00,63,00,00,00,
-1666864169325719,1BFE223B,true,Rx,0,8,12,00,00,00,00,00,00,00,
-1666864169325377,1BFE223C,true,Rx,0,8,22,00,00,00,00,00,00,00,
-1666864169325079,1BFE223D,true,Rx,0,8,00,00,00,00,00,00,00,5C,
-1666864169324737,1BFE2248,true,Rx,0,8,00,00,00,00,00,00,00,00,
-1666864169251611,0000038B,false,Rx,0,8,00,00,00,00,00,00,00,00,
-1666864169231687,1BFE221A,true,Rx,0,8,00,A5,00,00,7E,00,00,00,
-1666864169231389,1BFE2209,true,Rx,0,8,00,00,01,00,10,C1,11,00,
-1666864169231090,1BFE2215,true,Rx,0,8,60,97,9E,80,80,80,AA,9A,
-1666864169230791,1BFE2216,true,Rx,0,8,00,00,00,00,00,00,BF,FA,
-1666864169230493,1BFE2217,true,Rx,0,8,00,00,CD,B4,A5,00,00,00,
-1666864169230194,1BFE2218,true,Rx,0,8,00,00,00,00,00,00,00,00,
-1666864169229853,1BFE2219,true,Rx,0,8,00,00,00,00,00,00,00,00,
-1666864169229554,1BFE221B,true,Rx,0,8,00,00,00,00,00,00,00,00,
-1666864169229213,1BFE221C,true,Rx,0,8,00,00,3F,00,00,00,00,00,
-1666864169228914,1BFE221E,true,Rx,0,8,7D,01,00,00,00,00,00,00,
-1666864169228615,1BFE2222,true,Rx,0,8,00,00,58,00,7E,1C,00,00,
-1666864169228274,1BFE2223,true,Rx,0,8,11,01,00,00,00,00,00,00,
-1666864169227975,1BFE2225,true,Rx,0,8,00,00,00,00,00,00,00,00,
-1666864169227634,1BFE2227,true,Rx,0,8,00,00,00,00,00,04,00,00,
-1666864169227335,1BFE2232,true,Rx,0,8,00,00,00,00,00,00,00,00,
-1666864169226994,1BFE2235,true,Rx,0,8,81,04,00,00,00,00,00,00,
-1666864169226696,1BFE2238,true,Rx,0,8,00,00,32,00,01,01,00,00,
-1666864169226354,1BFE2239,true,Rx,0,8,00,01,01,00,00,00,00,00,
-1666864169226056,1BFE223A,true,Rx,0,8,04,01,00,00,59,00,00,00,
-1666864169225714,1BFE223B,true,Rx,0,8,08,00,00,00,00,00,00,00,
-1666864169225416,1BFE223C,true,Rx,0,8,22,00,00,00,00,00,00,00,
-1666864169225074,1BFE223D,true,Rx,0,8,00,00,00,00,00,00,00,5C,
-1666864169224776,1BFE2248,true,Rx,0,8,00,00,00,00,00,00,00,00,
-1666864169151607,0000038B,false,Rx,0,8,00,00,00,00,00,00,00,00,
-1666864169131725,1BFE221A,true,Rx,0,8,00,A5,00,00,7E,00,00,00,
-1666864169131427,1BFE2215,true,Rx,0,8,60,97,9E,80,80,80,AA,9A,
-1666864169131085,1BFE2216,true,Rx,0,8,00,00,00,00,00,00,C0,FA,
-1666864169130787,1BFE2217,true,Rx,0,8,00,00,CD,B4,A5,00,00,00,
-1666864169130488,1BFE2218,true,Rx,0,8,00,00,00,00,00,00,00,00,
-1666864169130190,1BFE2219,true,Rx,0,8,00,00,00,00,00,00,00,00,
-1666864169129848,1BFE221B,true,Rx,0,8,00,00,00,00,00,00,00,00,
-1666864169129550,1BFE221C,true,Rx,0,8,00,00,3F,00,00,00,00,00,
-1666864169129208,1BFE221E,true,Rx,0,8,7D,01,00,00,00,00,00,00,
-1666864169128910,1BFE2222,true,Rx,0,8,00,00,58,00,7E,1C,00,00,
-1666864169128568,1BFE2223,true,Rx,0,8,11,01,00,00,00,00,00,00,
-1666864169128270,1BFE2225,true,Rx,0,8,00,00,00,00,00,00,00,00,
-1666864169127928,1BFE2227,true,Rx,0,8,00,00,00,00,00,04,00,00,
-1666864169127630,1BFE2232,true,Rx,0,8,00,00,00,00,00,00,00,00,
-1666864169127288,1BFE2235,true,Rx,0,8,81,04,00,00,00,00,00,00,
-1666864169126990,1BFE2238,true,Rx,0,8,00,00,32,00,01,01,00,00,
-1666864169126648,1BFE2239,true,Rx,0,8,00,01,01,00,00,00,00,00,
-1666864169126350,1BFE223A,true,Rx,0,8,04,01,00,00,63,00,00,00,
-1666864169126008,1BFE223B,true,Rx,0,8,12,00,00,00,00,00,00,00,
-1666864169125710,1BFE223C,true,Rx,0,8,22,00,00,00,00,00,00,00,
-1666864169125369,1BFE223D,true,Rx,0,8,00,00,00,00,00,00,00,5C,
-1666864169125070,1BFE2248,true,Rx,0,8,00,00,00,00,00,00,00,00,
-1666864169051602,0000038B,false,Rx,0,8,00,00,00,00,00,00,00,00,
-1666864169041662,00000564,false,Rx,0,8,D2,00,00,00,F8,17,3D,00,
-1666864169031721,1BFE221A,true,Rx,0,8,00,A6,00,00,7E,00,00,00,
-1666864169031422,1BFE2215,true,Rx,0,8,60,97,9E,80,80,80,AA,9A,
-1666864169031124,1BFE2216,true,Rx,0,8,00,00,00,00,00,00,C0,FA,
-1666864169030825,1BFE2217,true,Rx,0,8,00,00,CD,B5,A5,00,00,00,
-1666864169030484,1BFE2218,true,Rx,0,8,00,00,00,00,00,00,00,00,
-1666864169030185,1BFE2219,true,Rx,0,8,00,00,00,00,00,00,00,00,
-1666864169029886,1BFE221B,true,Rx,0,8,00,00,00,00,00,00,00,00,
-1666864169029545,1BFE221C,true,Rx,0,8,00,00,3F,00,00,00,00,00,
-1666864169029247,1BFE221E,true,Rx,0,8,7D,01,00,00,00,00,00,00,
-1666864169028905,1BFE2222,true,Rx,0,8,00,00,58,00,7E,1C,00,00,
-1666864169028607,1BFE2223,true,Rx,0,8,11,01,00,00,00,00,00,00,
-1666864169028265,1BFE2225,true,Rx,0,8,00,00,00,00,00,00,00,00,
-1666864169027967,1BFE2227,true,Rx,0,8,00,00,00,00,00,04,00,00,
-1666864169027625,1BFE2232,true,Rx,0,8,00,00,00,00,00,00,00,00,
-1666864169027327,1BFE2235,true,Rx,0,8,81,04,00,00,00,00,00,00,
-1666864169026985,1BFE2238,true,Rx,0,8,00,00,32,00,01,01,00,00,
-1666864169026687,1BFE2239,true,Rx,0,8,00,01,01,00,00,00,00,00,
-1666864169026388,1BFE223A,true,Rx,0,8,04,01,00,00,59,00,00,00,
-1666864169026047,1BFE223B,true,Rx,0,8,08,00,00,00,00,00,00,00,
-1666864169025705,1BFE223C,true,Rx,0,8,22,00,00,00,00,00,00,00,
-1666864169025407,1BFE223D,true,Rx,0,8,00,00,00,00,00,00,00,5C,
-1666864169025065,1BFE2248,true,Rx,0,8,00,00,00,00,00,00,00,00,
-1666864168951641,0000038B,false,Rx,0,8,00,00,00,00,00,00,00,00,
-1666864168931717,1BFE221A,true,Rx,0,8,00,A5,00,00,7E,00,00,00,
-1666864168931418,1BFE2204,true,Rx,0,8,00,00,00,00,0F,00,00,00,
-1666864168931119,1BFE2215,true,Rx,0,8,60,97,9E,80,80,80,AA,9A,
-1666864168930821,1BFE2216,true,Rx,0,8,00,00,00,00,00,00,C0,FA,
-1666864168930522,1BFE2217,true,Rx,0,8,00,00,CD,B4,A5,00,00,00,
-1666864168930223,1BFE2218,true,Rx,0,8,00,00,00,00,00,00,00,00,
-1666864168929882,1BFE2219,true,Rx,0,8,00,00,00,00,00,00,00,00,
-1666864168929583,1BFE221B,true,Rx,0,8,00,00,00,00,00,00,00,00,
-1666864168929242,1BFE221C,true,Rx,0,8,00,00,3F,00,00,00,00,00,
-1666864168928943,1BFE221E,true,Rx,0,8,7D,01,00,00,00,00,00,00,
-1666864168928645,1BFE2222,true,Rx,0,8,00,00,58,00,7E,1C,00,00,
-1666864168928303,1BFE2223,true,Rx,0,8,11,01,00,00,00,00,00,00,
-1666864168928005,1BFE2225,true,Rx,0,8,00,00,00,00,00,00,00,00,
-1666864168927664,1BFE2227,true,Rx,0,8,00,00,00,00,00,04,00,00,
-1666864168927365,1BFE2232,true,Rx,0,8,00,00,00,00,00,00,00,00,
-1666864168927024,1BFE2235,true,Rx,0,8,81,04,00,00,00,00,00,00,
-1666864168926725,1BFE2238,true,Rx,0,8,00,00,32,00,01,01,00,00,
-1666864168926384,1BFE2239,true,Rx,0,8,00,01,01,00,00,00,00,00,
-1666864168926085,1BFE223A,true,Rx,0,8,04,01,00,00,63,00,00,00,
-1666864168925744,1BFE223B,true,Rx,0,8,12,00,00,00,00,00,00,00,
-1666864168925445,1BFE223C,true,Rx,0,8,22,00,00,00,00,00,00,00,
-1666864168925104,1BFE223D,true,Rx,0,8,00,00,00,00,00,00,00,5C,
-1666864168924762,1BFE2248,true,Rx,0,8,00,00,00,00,00,00,00,00,
-1666864168851636,0000038B,false,Rx,0,8,00,00,00,00,00,00,00,00,
-1666864168831755,1BFE221A,true,Rx,0,8,00,A5,00,00,7E,00,00,00,
-1666864168831456,1BFE2207,true,Rx,0,8,46,00,00,88,00,1A,01,04,
-1666864168831158,1BFE2215,true,Rx,0,8,60,97,9E,80,80,80,AA,9A,
-1666864168830859,1BFE2216,true,Rx,0,8,00,00,00,00,00,00,C0,FA,
-1666864168830560,1BFE2217,true,Rx,0,8,00,00,CD,B4,A5,00,00,00,
-1666864168830219,1BFE2218,true,Rx,0,8,00,00,00,00,00,00,00,00,
-1666864168829920,1BFE2219,true,Rx,0,8,00,00,00,00,00,00,00,00,
-1666864168829579,1BFE221B,true,Rx,0,8,00,00,00,00,00,00,00,00,
-1666864168829280,1BFE221C,true,Rx,0,8,00,00,3F,00,00,00,00,00,
-1666864168828982,1BFE221E,true,Rx,0,8,7D,01,00,00,00,00,00,00,
-1666864168828640,1BFE2222,true,Rx,0,8,00,00,58,00,7E,1C,00,00,
-1666864168828342,1BFE2223,true,Rx,0,8,11,01,00,00,00,00,00,00,
-1666864168828043,1BFE2225,true,Rx,0,8,00,00,00,00,00,00,00,00,
-1666864168827702,1BFE2227,true,Rx,0,8,00,00,00,00,00,04,00,00,
-1666864168827403,1BFE2232,true,Rx,0,8,00,00,00,00,00,00,00,00,
-1666864168827062,1BFE2235,true,Rx,0,8,81,04,00,00,00,00,00,00,
-1666864168826763,1BFE2238,true,Rx,0,8,00,00,32,00,01,01,00,00,
-1666864168826422,1BFE2239,true,Rx,0,8,00,01,01,00,00,00,00,00,
-1666864168826123,1BFE223A,true,Rx,0,8,04,01,00,00,59,00,00,00,
-1666864168825782,1BFE223B,true,Rx,0,8,08,00,00,00,00,00,00,00,
-1666864168825441,1BFE223C,true,Rx,0,8,22,00,00,00,00,00,00,00,
-1666864168825142,1BFE223D,true,Rx,0,8,00,00,00,00,00,00,00,5C,
-1666864168824801,1BFE2248,true,Rx,0,8,00,00,00,00,00,00,00,00,
-1666864168781667,1BFE2242,true,Rx,0,8,D0,00,02,2E,2F,00,00,00,
-1666864168751675,0000038B,false,Rx,0,8,00,00,00,00,00,00,00,00,
-1666864168731750,1BFE221A,true,Rx,0,8,00,A6,00,00,7E,00,00,00,
-1666864168731452,1BFE2209,true,Rx,0,8,00,00,01,00,10,A1,11,00,
-1666864168731153,1BFE2215,true,Rx,0,8,60,97,9E,80,80,80,AA,9A,
-1666864168730855,1BFE2216,true,Rx,0,8,00,00,00,00,00,00,C0,FA,
-1666864168730556,1BFE2217,true,Rx,0,8,00,00,CD,B4,A5,00,00,00,
-1666864168730257,1BFE2218,true,Rx,0,8,00,00,00,00,00,00,00,00,
-1666864168729916,1BFE2219,true,Rx,0,8,00,00,00,00,00,00,00,00,
-1666864168729617,1BFE221B,true,Rx,0,8,00,00,00,00,00,00,00,00,
-1666864168729276,1BFE221C,true,Rx,0,8,00,00,3F,00,00,00,00,00,
-1666864168728977,1BFE221E,true,Rx,0,8,7D,01,00,00,00,00,00,00,
-1666864168728679,1BFE2222,true,Rx,0,8,00,00,58,00,7E,1C,00,00,
-1666864168728337,1BFE2223,true,Rx,0,8,11,01,00,00,00,00,00,00,
-1666864168728039,1BFE2225,true,Rx,0,8,00,00,00,00,00,00,00,00,
-1666864168727697,1BFE2227,true,Rx,0,8,00,00,00,00,00,04,00,00,
-1666864168727399,1BFE2232,true,Rx,0,8,00,00,00,00,00,00,00,00,
-1666864168727057,1BFE2235,true,Rx,0,8,81,04,00,00,00,00,00,00,
-1666864168726759,1BFE2238,true,Rx,0,8,00,00,32,00,01,01,00,00,
-1666864168726417,1BFE2239,true,Rx,0,8,00,01,01,00,00,00,00,00,
-1666864168726119,1BFE223A,true,Rx,0,8,04,01,00,00,63,00,00,00,
-1666864168725777,1BFE223B,true,Rx,0,8,12,00,00,00,00,00,00,00,
-1666864168725479,1BFE223C,true,Rx,0,8,22,00,00,00,00,00,00,00,
-1666864168725138,1BFE223D,true,Rx,0,8,00,00,00,00,00,00,00,5C,
-1666864168724796,1BFE2248,true,Rx,0,8,00,00,00,00,00,00,00,00,
-1666864168651670,0000038B,false,Rx,0,8,00,00,00,00,00,00,00,00,
-1666864168631789,1BFE221A,true,Rx,0,8,00,A6,00,00,7E,00,00,00,
-1666864168631490,1BFE2215,true,Rx,0,8,60,97,9E,80,80,80,AA,9A,
-1666864168631149,1BFE2216,true,Rx,0,8,00,00,00,00,00,00,C0,FA,
-1666864168630850,1BFE2217,true,Rx,0,8,00,00,CD,B4,A5,00,00,00,
-1666864168630551,1BFE2218,true,Rx,0,8,00,00,00,00,00,00,00,00,
-1666864168630253,1BFE2219,true,Rx,0,8,00,00,00,00,00,00,00,00,
-1666864168629911,1BFE221B,true,Rx,0,8,00,00,00,00,00,00,00,00,
-1666864168629613,1BFE221C,true,Rx,0,8,00,00,3F,00,00,00,00,00,
-1666864168629314,1BFE221E,true,Rx,0,8,7D,01,00,00,00,00,00,00,
-1666864168628973,1BFE2222,true,Rx,0,8,00,00,58,00,7E,1C,00,00,
-1666864168628674,1BFE2223,true,Rx,0,8,11,01,00,00,00,00,00,00,
-1666864168628333,1BFE2225,true,Rx,0,8,00,00,00,00,00,00,00,00,
-1666864168628034,1BFE2227,true,Rx,0,8,00,00,00,00,00,04,00,00,
-1666864168627693,1BFE2232,true,Rx,0,8,00,00,00,00,00,00,00,00,
-1666864168627394,1BFE2235,true,Rx,0,8,81,04,00,00,00,00,00,00,
-1666864168627053,1BFE2238,true,Rx,0,8,00,00,32,00,01,01,00,00,
-1666864168626754,1BFE2239,true,Rx,0,8,00,01,01,00,00,00,00,00,
-1666864168626413,1BFE223A,true,Rx,0,8,04,01,00,00,59,00,00,00,
-1666864168626114,1BFE223B,true,Rx,0,8,08,00,00,00,00,00,00,00,
-1666864168625773,1BFE223C,true,Rx,0,8,22,00,00,00,00,00,00,00,
-1666864168625474,1BFE223D,true,Rx,0,8,00,00,00,00,00,00,00,5C,
-1666864168625133,1BFE2248,true,Rx,0,8,00,00,00,00,00,00,00,00,
-1666864168551666,0000038B,false,Rx,0,8,00,00,00,00,00,00,00,00,
-1666864168531784,1BFE221A,true,Rx,0,8,00,A6,00,00,7E,00,00,00,
-1666864168531486,1BFE2215,true,Rx,0,8,60,97,9E,80,80,80,AA,9A,
-1666864168531187,1BFE2216,true,Rx,0,8,00,00,00,00,00,00,C0,FA,
-1666864168530888,1BFE2217,true,Rx,0,8,00,00,CD,B4,A5,00,00,00,
-1666864168530547,1BFE2218,true,Rx,0,8,00,00,00,00,00,00,00,00,
-1666864168530248,1BFE2219,true,Rx,0,8,00,00,00,00,00,00,00,00,
-1666864168529950,1BFE221B,true,Rx,0,8,00,00,00,00,00,00,00,00,
-1666864168529608,1BFE221C,true,Rx,0,8,00,00,3F,00,00,00,00,00,
-1666864168529310,1BFE221E,true,Rx,0,8,7D,01,00,00,00,00,00,00,
-1666864168528968,1BFE2222,true,Rx,0,8,00,00,58,00,7E,1C,00,00,
-1666864168528670,1BFE2223,true,Rx,0,8,11,01,00,00,00,00,00,00,
-1666864168528328,1BFE2225,true,Rx,0,8,00,00,00,00,00,00,00,00,
-1666864168528030,1BFE2227,true,Rx,0,8,00,00,00,00,00,04,00,00,
-1666864168527689,1BFE2232,true,Rx,0,8,00,00,00,00,00,00,00,00,
-1666864168527390,1BFE2235,true,Rx,0,8,81,04,00,00,00,00,00,00,
-1666864168527049,1BFE2238,true,Rx,0,8,00,00,32,00,01,01,00,00,
-1666864168526750,1BFE2239,true,Rx,0,8,00,01,01,00,00,00,00,00,
-1666864168526409,1BFE223A,true,Rx,0,8,04,01,00,00,63,00,00,00,
-1666864168526110,1BFE223B,true,Rx,0,8,12,00,00,00,00,00,00,00,
-1666864168525769,1BFE223C,true,Rx,0,8,22,00,00,00,00,00,00,00,
-1666864168525470,1BFE223D,true,Rx,0,8,00,00,00,00,00,00,00,5C,
-1666864168525129,1BFE2248,true,Rx,0,8,00,00,00,00,00,00,00,00,
-1666864168461687,1BFE2234,true,Rx,0,8,00,00,00,00,00,00,00,00,
-1666864168451704,0000038B,false,Rx,0,8,00,00,00,00,00,00,00,00,
-1666864168441721,0000067E,false,Rx,0,8,16,0D,00,00,5B,00,00,40,
-1666864168431823,1BFE221A,true,Rx,0,8,00,A5,00,00,7E,00,00,00,
-1666864168431481,1BFE2202,true,Rx,0,8,90,21,43,06,00,00,00,07,
-1666864168431183,1BFE2207,true,Rx,0,8,46,00,00,88,00,18,01,04,
-1666864168430884,1BFE2208,true,Rx,0,8,32,00,00,00,00,00,00,00,
-1666864168430585,1BFE2209,true,Rx,0,8,00,00,01,00,10,81,11,00,
-1666864168430287,1BFE2215,true,Rx,0,8,60,97,9E,80,80,80,AA,9A,
-1666864168429988,1BFE2216,true,Rx,0,8,00,00,00,00,00,00,BF,FA,
-1666864168429689,1BFE2217,true,Rx,0,8,00,00,CD,B4,A5,00,00,00,
-1666864168429348,1BFE2218,true,Rx,0,8,00,00,00,00,00,00,00,00,
-1666864168429049,1BFE2219,true,Rx,0,8,00,00,00,00,00,00,00,00,
-1666864168428751,1BFE221B,true,Rx,0,8,00,00,00,00,00,00,00,00,
-1666864168428409,1BFE221C,true,Rx,0,8,00,00,3F,00,00,00,00,00,
-1666864168428111,1BFE221E,true,Rx,0,8,7D,01,00,00,00,00,00,00,
-1666864168427812,1BFE2222,true,Rx,0,8,00,00,58,00,7E,1C,00,00,
-1666864168427471,1BFE2223,true,Rx,0,8,11,01,00,00,00,00,00,00,
-1666864168427172,1BFE2225,true,Rx,0,8,00,00,00,00,00,00,00,00,
-1666864168426831,1BFE2227,true,Rx,0,8,00,00,00,00,00,04,00,00,
-1666864168426532,1BFE2232,true,Rx,0,8,00,00,00,00,00,00,00,00,
-1666864168426191,1BFE2235,true,Rx,0,8,81,04,00,00,00,00,00,00,
-1666864168425892,1BFE2238,true,Rx,0,8,00,00,32,00,01,01,00,00,
-1666864168425551,1BFE2239,true,Rx,0,8,00,01,01,00,00,00,00,00,
-1666864168425252,1BFE223A,true,Rx,0,8,04,01,00,00,59,00,00,00,
-1666864168424911,1BFE223B,true,Rx,0,8,08,00,00,00,00,00,00,00,
-1666864168424612,1BFE223C,true,Rx,0,8,22,00,00,00,00,00,00,00,
-1666864168424271,1BFE223D,true,Rx,0,8,00,00,00,00,00,00,00,5C,
-1666864168423930,1BFE2248,true,Rx,0,8,00,00,00,00,00,00,00,00,
-1666864168351670,0000038B,false,Rx,0,8,00,00,00,00,00,00,00,00,
-1666864168331788,1BFE221A,true,Rx,0,8,00,A5,00,00,7E,00,00,00,
-1666864168331489,1BFE2206,true,Rx,0,8,46,00,00,86,00,22,00,04,
-1666864168331191,1BFE2209,true,Rx,0,8,00,00,01,00,10,A1,11,00,
-1666864168330892,1BFE2215,true,Rx,0,8,60,97,9E,80,80,80,AA,9A,
-1666864168330551,1BFE2216,true,Rx,0,8,00,00,00,00,00,00,BF,FA,
-1666864168330252,1BFE2217,true,Rx,0,8,00,00,CD,B4,A5,00,00,00,
-1666864168329954,1BFE2218,true,Rx,0,8,00,00,00,00,00,00,00,00,
-1666864168329655,1BFE2219,true,Rx,0,8,00,00,00,00,00,00,00,00,
-1666864168329314,1BFE221B,true,Rx,0,8,00,00,00,00,00,00,00,00,
-1666864168329015,1BFE221C,true,Rx,0,8,00,00,3F,00,00,00,00,00,
-1666864168328674,1BFE221E,true,Rx,0,8,7D,01,00,00,00,00,00,00,
-1666864168328375,1BFE2222,true,Rx,0,8,00,00,58,00,7E,1C,00,00,
-1666864168328076,1BFE2223,true,Rx,0,8,11,01,00,00,00,00,00,00,
-1666864168327735,1BFE2225,true,Rx,0,8,00,00,00,00,00,00,00,00,
-1666864168327436,1BFE2227,true,Rx,0,8,00,00,00,00,00,04,00,00,
-1666864168327095,1BFE2232,true,Rx,0,8,00,00,00,00,00,00,00,00,
-1666864168326796,1BFE2235,true,Rx,0,8,81,04,00,00,00,00,00,00,
-1666864168326455,1BFE2238,true,Rx,0,8,00,00,32,00,01,01,00,00,
-1666864168326156,1BFE2239,true,Rx,0,8,00,01,01,00,00,00,00,00,
-1666864168325815,1BFE223A,true,Rx,0,8,04,01,00,00,63,00,00,00,
-1666864168325517,1BFE223B,true,Rx,0,8,12,00,00,00,00,00,00,00,
-1666864168325175,1BFE223C,true,Rx,0,8,22,00,00,00,00,00,00,00,
-1666864168324877,1BFE223D,true,Rx,0,8,00,00,00,00,00,00,00,5C,
-1666864168324535,1BFE2248,true,Rx,0,8,00,00,00,00,00,00,00,00,
-1666864168251708,0000038B,false,Rx,0,8,00,00,00,00,00,00,00,00,
-1666864168231826,1BFE220A,true,Rx,0,8,02,02,02,02,00,00,01,02,
-1666864168231485,1BFE2207,true,Rx,0,8,46,00,01,88,00,18,01,04,
-1666864168231186,1BFE2209,true,Rx,0,8,00,00,01,00,10,81,11,00,
-1666864168230888,1BFE220E,true,Rx,0,8,00,00,00,00,00,00,00,00,
-1666864168230589,1BFE220F,true,Rx,0,8,00,00,00,10,10,00,00,00,
-1666864168230248,1BFE2210,true,Rx,0,8,00,00,00,10,10,00,00,00,
-1666864168229949,1BFE2211,true,Rx,0,8,00,00,00,00,00,00,00,00,
-1666864168229650,1BFE2215,true,Rx,0,8,60,97,9E,80,80,80,AA,9A,
-1666864168229352,1BFE2216,true,Rx,0,8,00,00,00,00,00,00,C0,FA,
-1666864168229053,1BFE2217,true,Rx,0,8,00,00,CD,B4,A5,00,00,00,
-1666864168228712,1BFE2218,true,Rx,0,8,00,00,00,00,00,00,00,00,
-1666864168228413,1BFE2219,true,Rx,0,8,00,00,00,00,00,00,00,00,
-1666864168228115,1BFE221A,true,Rx,0,8,00,A5,00,00,7E,00,00,00,
-1666864168227773,1BFE221B,true,Rx,0,8,00,00,00,00,00,00,00,00,
-1666864168227475,1BFE221C,true,Rx,0,8,00,00,3F,00,00,00,00,00,
-1666864168227176,1BFE221E,true,Rx,0,8,7D,01,00,00,00,00,00,00,
-1666864168226835,1BFE2222,true,Rx,0,8,00,00,58,00,7E,1C,00,00,
-1666864168226536,1BFE2223,true,Rx,0,8,11,01,00,00,00,00,00,00,
-1666864168226195,1BFE2225,true,Rx,0,8,00,00,00,00,00,00,00,00,
-1666864168225896,1BFE2227,true,Rx,0,8,00,00,00,00,00,04,00,00,
-1666864168225555,1BFE2232,true,Rx,0,8,00,00,00,00,00,00,00,00,
-1666864168225256,1BFE2235,true,Rx,0,8,81,04,00,00,00,00,00,00,
-1666864168224915,1BFE2238,true,Rx,0,8,00,00,32,00,01,01,00,00,
-1666864168224616,1BFE2239,true,Rx,0,8,00,01,01,00,00,00,00,00,
-1666864168224275,1BFE223A,true,Rx,0,8,04,01,00,00,59,00,00,00,
-1666864168223976,1BFE223B,true,Rx,0,8,08,00,00,00,00,00,00,00,
-1666864168223635,1BFE223C,true,Rx,0,8,22,00,00,00,00,00,00,00,
-1666864168223336,1BFE223D,true,Rx,0,8,00,00,00,00,00,00,00,5C,
-1666864168222995,1BFE2248,true,Rx,0,8,00,00,00,00,00,00,00,00,
-1666864168151703,0000038B,false,Rx,0,8,01,00,00,00,00,00,00,00,
-1666864168131822,1BFE221A,true,Rx,0,8,00,A5,00,00,7E,00,00,00,
-1666864168131523,1BFE2207,true,Rx,0,8,46,00,06,88,00,18,01,04,
-1666864168131225,1BFE2215,true,Rx,0,8,60,97,9E,80,80,80,AA,9A,
-1666864168130883,1BFE2216,true,Rx,0,8,00,00,00,00,00,00,C0,FA,
-1666864168130585,1BFE2217,true,Rx,0,8,00,00,CD,B4,A5,00,00,00,
-1666864168130286,1BFE2218,true,Rx,0,8,00,00,00,00,00,00,00,00,
-1666864168129987,1BFE2219,true,Rx,0,8,00,00,00,00,00,00,00,00,
-1666864168129646,1BFE221B,true,Rx,0,8,00,00,00,00,00,00,00,00,
-1666864168129347,1BFE221C,true,Rx,0,8,00,00,3F,00,00,00,00,00,
-1666864168129006,1BFE221E,true,Rx,0,8,7D,01,00,00,00,00,00,00,
-1666864168128707,1BFE2222,true,Rx,0,8,00,00,58,00,7E,1C,00,00,
-1666864168128409,1BFE2223,true,Rx,0,8,11,01,00,00,00,00,00,00,
-1666864168128068,1BFE2225,true,Rx,0,8,00,00,00,00,00,00,00,00,
-1666864168127769,1BFE2227,true,Rx,0,8,00,00,00,00,00,04,00,00,
-1666864168127428,1BFE2232,true,Rx,0,8,00,00,00,00,00,00,00,00,
-1666864168127129,1BFE2235,true,Rx,0,8,81,04,00,00,00,00,00,00,
-1666864168126788,1BFE2238,true,Rx,0,8,00,00,32,00,01,01,00,00,
-1666864168126489,1BFE2239,true,Rx,0,8,00,01,01,00,00,00,00,00,
-1666864168126148,1BFE223A,true,Rx,0,8,04,01,00,00,63,00,00,00,
-1666864168125849,1BFE223B,true,Rx,0,8,12,00,00,00,00,00,00,00,
-1666864168125508,1BFE223C,true,Rx,0,8,22,00,00,00,00,00,00,00,
-1666864168125209,1BFE223D,true,Rx,0,8,00,00,00,00,00,00,00,5C,
-1666864168124868,1BFE2248,true,Rx,0,8,00,00,00,00,00,00,00,00,
-1666864168051742,0000038B,false,Rx,0,8,06,00,00,00,00,00,00,00,
-1666864168041758,00000564,false,Rx,0,8,D3,01,00,00,F8,17,3D,00,
-1666864168031818,1BFE221A,true,Rx,0,8,00,A5,00,00,7E,00,00,00,
-1666864168031519,1BFE2207,true,Rx,0,8,46,00,12,88,00,16,01,04,
-1666864168031220,1BFE2215,true,Rx,0,8,60,97,9E,80,80,80,AA,9A,
-1666864168030922,1BFE2216,true,Rx,0,8,00,00,00,00,00,00,C0,FA,
-1666864168030623,1BFE2217,true,Rx,0,8,00,00,CD,B4,A5,00,00,00,
-1666864168030282,1BFE2218,true,Rx,0,8,00,00,00,00,00,00,00,00,
-1666864168029983,1BFE2219,true,Rx,0,8,00,00,00,00,00,00,00,00,
-1666864168029684,1BFE221B,true,Rx,0,8,00,00,00,00,00,00,00,00,
-1666864168029343,1BFE221C,true,Rx,0,8,00,00,3F,00,00,00,00,00,
-1666864168029044,1BFE221E,true,Rx,0,8,7D,01,00,00,00,00,00,00,
-1666864168028746,1BFE2222,true,Rx,0,8,00,00,58,00,7E,1C,00,00,
-1666864168028404,1BFE2223,true,Rx,0,8,11,01,00,00,00,00,00,00,
-1666864168028106,1BFE2225,true,Rx,0,8,00,00,00,00,00,00,00,00,
-1666864168027764,1BFE2227,true,Rx,0,8,00,00,00,00,00,04,00,00,
-1666864168027466,1BFE2232,true,Rx,0,8,00,00,00,00,00,00,00,00,
-1666864168027124,1BFE2235,true,Rx,0,8,81,04,00,00,00,00,00,00,
-1666864168026826,1BFE2238,true,Rx,0,8,00,00,32,00,01,01,00,00,
-1666864168026485,1BFE2239,true,Rx,0,8,00,01,01,00,00,00,00,00,
-1666864168026186,1BFE223A,true,Rx,0,8,04,01,00,00,59,00,00,00,
-1666864168025845,1BFE223B,true,Rx,0,8,08,00,00,00,00,00,00,00,
-1666864168025546,1BFE223C,true,Rx,0,8,22,00,00,00,00,00,00,00,
-1666864168025205,1BFE223D,true,Rx,0,8,00,00,00,00,00,00,00,5C,
-1666864168024863,1BFE2248,true,Rx,0,8,00,00,00,00,00,00,00,00,
-1666864167951737,0000038B,false,Rx,0,8,12,00,00,00,00,00,00,00,
-1666864167931813,1BFE221A,true,Rx,0,8,00,A5,00,00,7E,00,00,00,
-1666864167931514,1BFE2207,true,Rx,0,8,46,00,17,88,00,16,01,04,
-1666864167931216,1BFE2209,true,Rx,0,8,00,00,01,00,10,61,11,00,
-1666864167930917,1BFE2215,true,Rx,0,8,60,97,9E,80,80,80,AA,9A,
-1666864167930619,1BFE2216,true,Rx,0,8,00,00,00,00,00,00,C0,FA,
-1666864167930320,1BFE2217,true,Rx,0,8,00,00,CD,B4,A5,00,00,00,
-1666864167929979,1BFE2218,true,Rx,0,8,00,00,00,00,00,00,00,00,
-1666864167929680,1BFE2219,true,Rx,0,8,00,00,00,00,00,00,00,00,
-1666864167929381,1BFE221B,true,Rx,0,8,00,00,00,00,00,00,00,00,
-1666864167929040,1BFE221C,true,Rx,0,8,00,00,3F,00,00,00,00,00,
-1666864167928741,1BFE221E,true,Rx,0,8,7D,01,00,00,00,00,00,00,
-1666864167928443,1BFE2222,true,Rx,0,8,00,00,58,00,7E,1C,00,00,
-1666864167928101,1BFE2223,true,Rx,0,8,11,01,00,00,00,00,00,00,
-1666864167927803,1BFE2225,true,Rx,0,8,00,00,00,00,00,00,00,00,
-1666864167927461,1BFE2227,true,Rx,0,8,00,00,00,00,00,04,00,00,
-1666864167927163,1BFE2232,true,Rx,0,8,00,00,00,00,00,00,00,00,
-1666864167926821,1BFE2235,true,Rx,0,8,81,04,00,00,00,00,00,00,
-1666864167926523,1BFE2238,true,Rx,0,8,00,00,32,00,01,01,00,00,
-1666864167926181,1BFE2239,true,Rx,0,8,00,01,01,00,00,00,00,00,
-1666864167925883,1BFE223A,true,Rx,0,8,04,01,00,00,63,00,00,00,
-1666864167925542,1BFE223B,true,Rx,0,8,12,00,00,00,00,00,00,00,
-1666864167925243,1BFE223C,true,Rx,0,8,22,00,00,00,00,00,00,00,
-1666864167924902,1BFE223D,true,Rx,0,8,00,00,00,00,00,00,00,5C,
-1666864167924560,1BFE2248,true,Rx,0,8,00,00,00,00,00,00,00,00,
-1666864167851733,0000038B,false,Rx,0,8,17,00,00,00,00,00,00,00,
-1666864167831851,1BFE221A,true,Rx,0,8,00,A6,00,00,7E,00,00,00,
-1666864167831553,1BFE2207,true,Rx,0,8,46,00,21,88,00,16,01,04,
-1666864167831254,1BFE2215,true,Rx,0,8,60,97,9E,80,80,80,AA,9A,
-1666864167830955,1BFE2216,true,Rx,0,8,00,00,00,00,00,00,C0,FA,
-1666864167830657,1BFE2217,true,Rx,0,8,00,00,CD,B4,A5,00,00,00,
-1666864167830315,1BFE2218,true,Rx,0,8,00,00,00,00,00,00,00,00,
-1666864167830017,1BFE2219,true,Rx,0,8,00,00,00,00,00,00,00,00,
-1666864167829675,1BFE221B,true,Rx,0,8,00,00,00,00,00,00,00,00,
-1666864167829377,1BFE221C,true,Rx,0,8,00,00,3F,00,00,00,00,00,
-1666864167829078,1BFE221E,true,Rx,0,8,7D,01,00,00,00,00,00,00,
-1666864167828737,1BFE2222,true,Rx,0,8,00,00,58,00,7E,1C,00,00,
-1666864167828438,1BFE2223,true,Rx,0,8,11,01,00,00,00,00,00,00,
-1666864167828140,1BFE2225,true,Rx,0,8,00,00,00,00,00,00,00,00,
-1666864167827798,1BFE2227,true,Rx,0,8,00,00,00,00,00,04,00,00,
-1666864167827500,1BFE2232,true,Rx,0,8,00,00,00,00,00,00,00,00,
-1666864167827158,1BFE2235,true,Rx,0,8,81,04,00,00,00,00,00,00,
-1666864167826860,1BFE2238,true,Rx,0,8,00,00,32,00,01,01,00,00,
-1666864167826518,1BFE2239,true,Rx,0,8,00,01,01,00,00,00,00,00,
-1666864167826220,1BFE223A,true,Rx,0,8,04,01,00,00,59,00,00,00,
-1666864167825878,1BFE223B,true,Rx,0,8,08,00,00,00,00,00,00,00,
-1666864167825537,1BFE223C,true,Rx,0,8,22,00,00,00,00,00,00,00,
-1666864167825238,1BFE223D,true,Rx,0,8,00,00,00,00,00,00,00,5C,
-1666864167824897,1BFE2248,true,Rx,0,8,00,00,00,00,00,00,00,00,
-1666864167751771,0000038B,false,Rx,0,8,21,00,00,00,00,00,00,00,
-1666864167731847,1BFE221A,true,Rx,0,8,00,A5,00,00,7E,00,00,00,
-1666864167731548,1BFE2207,true,Rx,0,8,46,00,28,86,00,16,01,04,
-1666864167731250,1BFE2215,true,Rx,0,8,60,97,9E,80,80,80,AA,9A,
-1666864167730951,1BFE2216,true,Rx,0,8,00,00,00,00,00,00,BF,FA,
-1666864167730652,1BFE2217,true,Rx,0,8,00,00,CD,B4,A5,00,00,00,
-1666864167730354,1BFE2218,true,Rx,0,8,00,00,00,00,00,00,00,00,
-1666864167730012,1BFE2219,true,Rx,0,8,00,00,00,00,00,00,00,00,
-1666864167729714,1BFE221B,true,Rx,0,8,00,00,00,00,00,00,00,00,
-1666864167729372,1BFE221C,true,Rx,0,8,00,00,3F,00,00,00,00,00,
-1666864167729074,1BFE221E,true,Rx,0,8,7D,01,00,00,00,00,00,00,
-1666864167728775,1BFE2222,true,Rx,0,8,00,00,58,00,7E,1C,00,00,
-1666864167728434,1BFE2223,true,Rx,0,8,11,01,00,00,00,00,00,00,
-1666864167728135,1BFE2225,true,Rx,0,8,00,00,00,00,00,00,00,00,
-1666864167727794,1BFE2227,true,Rx,0,8,00,00,00,00,00,04,00,00,
-1666864167727495,1BFE2232,true,Rx,0,8,00,00,00,00,00,00,00,00,
-1666864167727154,1BFE2235,true,Rx,0,8,81,04,00,00,00,00,00,00,
-1666864167726855,1BFE2238,true,Rx,0,8,00,00,32,00,01,01,00,00,
-1666864167726514,1BFE2239,true,Rx,0,8,00,01,01,00,00,00,00,00,
-1666864167726215,1BFE223A,true,Rx,0,8,04,01,00,00,63,00,00,00,
-1666864167725874,1BFE223B,true,Rx,0,8,12,00,00,00,00,00,00,00,
-1666864167725575,1BFE223C,true,Rx,0,8,22,00,00,00,00,00,00,00,
-1666864167725234,1BFE223D,true,Rx,0,8,00,00,00,00,00,00,00,5C,
-1666864167724935,1BFE2248,true,Rx,0,8,00,00,00,00,00,00,00,00,
-1666864167651767,0000038B,false,Rx,0,8,26,00,00,00,00,00,00,00,
-1666864167631885,1BFE221A,true,Rx,0,8,00,A6,00,00,7E,00,00,00,
-1666864167631587,1BFE2207,true,Rx,0,8,46,00,2C,88,00,14,01,04,
-1666864167631288,1BFE2215,true,Rx,0,8,60,97,9E,80,80,80,AA,9A,
-1666864167630947,1BFE2216,true,Rx,0,8,00,00,00,00,00,00,C0,FA,
-1666864167630648,1BFE2217,true,Rx,0,8,00,00,CD,B4,A5,00,00,00,
-1666864167630349,1BFE2218,true,Rx,0,8,00,00,00,00,00,00,00,00,
-1666864167630051,1BFE2219,true,Rx,0,8,00,00,00,00,00,00,00,00,
-1666864167629709,1BFE221B,true,Rx,0,8,00,00,00,00,00,00,00,00,
-1666864167629411,1BFE221C,true,Rx,0,8,00,00,3F,00,00,00,00,00,
-1666864167629069,1BFE221E,true,Rx,0,8,7D,01,00,00,00,00,00,00,
-1666864167628771,1BFE2222,true,Rx,0,8,00,00,58,00,7E,1C,00,00,
-1666864167628472,1BFE2223,true,Rx,0,8,11,01,00,00,00,00,00,00,
-1666864167628131,1BFE2225,true,Rx,0,8,00,00,00,00,00,00,00,00,
-1666864167627832,1BFE2227,true,Rx,0,8,00,00,00,00,00,04,00,00,
-1666864167627491,1BFE2232,true,Rx,0,8,00,00,00,00,00,00,00,00,
-1666864167627192,1BFE2235,true,Rx,0,8,81,04,00,00,00,00,00,00,
-1666864167626851,1BFE2238,true,Rx,0,8,00,00,32,00,01,01,00,00,
-1666864167626552,1BFE2239,true,Rx,0,8,00,01,01,00,00,00,00,00,
-1666864167626211,1BFE223A,true,Rx,0,8,04,01,00,00,59,00,00,00,
-1666864167625912,1BFE223B,true,Rx,0,8,08,00,00,00,00,00,00,00,
-1666864167625571,1BFE223C,true,Rx,0,8,22,00,00,00,00,00,00,00,
-1666864167625272,1BFE223D,true,Rx,0,8,00,00,00,00,00,00,00,5C,
-1666864167624931,1BFE2248,true,Rx,0,8,00,00,00,00,00,00,00,00,
-1666864167551762,0000038B,false,Rx,0,8,2C,00,00,00,00,00,00,00,
-1666864167531881,1BFE221A,true,Rx,0,8,00,A6,00,00,7E,00,00,00,
-1666864167531582,1BFE2207,true,Rx,0,8,46,00,2E,88,00,14,01,04,
-1666864167531283,1BFE2215,true,Rx,0,8,60,97,9E,80,80,80,AA,9A,
-1666864167530985,1BFE2216,true,Rx,0,8,00,00,00,00,00,00,C0,FA,
-1666864167530686,1BFE2217,true,Rx,0,8,00,00,CD,B4,A5,00,00,00,
-1666864167530345,1BFE2218,true,Rx,0,8,00,00,00,00,00,00,00,00,
-1666864167530046,1BFE2219,true,Rx,0,8,00,00,00,00,00,00,00,00,
-1666864167529705,1BFE221B,true,Rx,0,8,00,00,00,00,00,00,00,00,
-1666864167529406,1BFE221C,true,Rx,0,8,00,00,3F,00,00,00,00,00,
-1666864167529065,1BFE221E,true,Rx,0,8,7D,01,00,00,00,00,00,00,
-1666864167528766,1BFE2222,true,Rx,0,8,00,00,58,00,7E,1C,00,00,
-1666864167528468,1BFE2223,true,Rx,0,8,11,01,00,00,00,00,00,00,
-1666864167528126,1BFE2225,true,Rx,0,8,00,00,00,00,00,00,00,00,
-1666864167527828,1BFE2227,true,Rx,0,8,00,00,00,00,00,04,00,00,
-1666864167527486,1BFE2232,true,Rx,0,8,00,00,00,00,00,00,00,00,
-1666864167527188,1BFE2235,true,Rx,0,8,81,04,00,00,00,00,00,00,
-1666864167526846,1BFE2238,true,Rx,0,8,00,00,32,00,01,01,00,00,
-1666864167526548,1BFE2239,true,Rx,0,8,00,01,01,00,00,00,00,00,
-1666864167526206,1BFE223A,true,Rx,0,8,04,01,00,00,63,00,00,00,
-1666864167525908,1BFE223B,true,Rx,0,8,12,00,00,00,00,00,00,00,
-1666864167525567,1BFE223C,true,Rx,0,8,22,00,00,00,00,00,00,00,
-1666864167525268,1BFE223D,true,Rx,0,8,00,00,00,00,00,00,00,5C,
-1666864167524927,1BFE2242,true,Rx,0,8,E1,02,63,00,23,00,00,01,
-1666864167524628,1BFE2248,true,Rx,0,8,00,00,00,00,00,00,00,00,
-1666864167451800,0000038B,false,Rx,0,8,2E,00,00,00,00,00,00,00,
-1666864167441817,0000067E,false,Rx,0,8,15,0E,00,00,5B,00,00,40,
-1666864167431876,1BFE221A,true,Rx,0,8,00,A6,00,00,7E,00,00,00,
-1666864167431620,1BFE2207,true,Rx,0,8,46,00,33,88,00,14,01,04,
-1666864167431279,1BFE2209,true,Rx,0,8,00,00,01,00,10,41,11,00,
-1666864167430980,1BFE2215,true,Rx,0,8,60,97,9E,80,80,80,AA,9A,
-1666864167430682,1BFE2216,true,Rx,0,8,00,00,00,00,00,00,C0,FA,
-1666864167430383,1BFE2217,true,Rx,0,8,00,00,CD,B4,A5,00,00,00,
-1666864167430042,1BFE2218,true,Rx,0,8,00,00,00,00,00,00,00,00,
-1666864167429743,1BFE2219,true,Rx,0,8,00,00,00,00,00,00,00,00,
-1666864167429445,1BFE221B,true,Rx,0,8,00,00,00,00,00,00,00,00,
-1666864167429103,1BFE221C,true,Rx,0,8,00,00,3F,00,00,00,00,00,
-1666864167428805,1BFE221E,true,Rx,0,8,7D,01,00,00,00,00,00,00,
-1666864167428506,1BFE2222,true,Rx,0,8,00,00,58,00,7E,1C,00,00,
-1666864167428165,1BFE2223,true,Rx,0,8,11,01,00,00,00,00,00,00,
-1666864167427866,1BFE2225,true,Rx,0,8,00,00,00,00,00,00,00,00,
-1666864167427525,1BFE2227,true,Rx,0,8,00,00,00,00,00,04,00,00,
-1666864167427226,1BFE2232,true,Rx,0,8,00,00,00,00,00,00,00,00,
-1666864167426885,1BFE2235,true,Rx,0,8,81,04,00,00,00,00,00,00,
-1666864167426586,1BFE2238,true,Rx,0,8,00,00,32,00,01,01,00,00,
-1666864167426245,1BFE2239,true,Rx,0,8,00,01,01,00,00,00,00,00,
-1666864167425946,1BFE223A,true,Rx,0,8,04,01,00,00,59,00,00,00,
-1666864167425605,1BFE223B,true,Rx,0,8,08,00,00,00,00,00,00,00,
-1666864167425306,1BFE223C,true,Rx,0,8,22,00,00,00,00,00,00,00,
-1666864167424965,1BFE223D,true,Rx,0,8,00,00,00,00,00,00,00,5C,
-1666864167424666,1BFE2242,true,Rx,0,8,E1,02,63,23,2F,00,00,00,
-1666864167424325,1BFE2248,true,Rx,0,8,00,00,00,00,00,00,00,00,
-1666864167351766,0000038B,false,Rx,0,8,33,00,00,00,00,00,00,00,
-1666864167331885,1BFE221A,true,Rx,0,8,00,A5,00,00,7E,00,00,00,
-1666864167331586,1BFE2207,true,Rx,0,8,46,00,39,88,00,14,01,04,
-1666864167331287,1BFE2215,true,Rx,0,8,60,97,9E,80,80,80,AA,9A,
-1666864167330989,1BFE2216,true,Rx,0,8,00,00,00,00,00,00,C0,FA,
-1666864167330690,1BFE2217,true,Rx,0,8,00,00,CD,B4,A5,00,00,00,
-1666864167330349,1BFE2218,true,Rx,0,8,00,00,00,00,00,00,00,00,
-1666864167330050,1BFE2219,true,Rx,0,8,00,00,00,00,00,00,00,00,
-1666864167329709,1BFE221B,true,Rx,0,8,00,00,00,00,00,00,00,00,
-1666864167329410,1BFE221C,true,Rx,0,8,00,00,3F,00,00,00,00,00,
-1666864167329069,1BFE221E,true,Rx,0,8,7D,01,00,00,00,00,00,00,
-1666864167328770,1BFE2222,true,Rx,0,8,00,00,58,00,7E,1C,00,00,
-1666864167328471,1BFE2223,true,Rx,0,8,11,01,00,00,00,00,00,00,
-1666864167328130,1BFE2225,true,Rx,0,8,00,00,00,00,00,00,00,00,
-1666864167327832,1BFE2227,true,Rx,0,8,00,00,00,00,00,04,00,00,
-1666864167327490,1BFE2232,true,Rx,0,8,00,00,00,00,00,00,00,00,
-1666864167327192,1BFE2235,true,Rx,0,8,81,04,00,00,00,00,00,00,
-1666864167326850,1BFE2238,true,Rx,0,8,00,00,32,00,01,01,00,00,
-1666864167326552,1BFE2239,true,Rx,0,8,00,01,01,00,00,00,00,00,
-1666864167326210,1BFE223A,true,Rx,0,8,04,01,00,00,63,00,00,00,
-1666864167325912,1BFE223B,true,Rx,0,8,12,00,00,00,00,00,00,00,
-1666864167325570,1BFE223C,true,Rx,0,8,22,00,00,00,00,00,00,00,
-1666864167325229,1BFE223D,true,Rx,0,8,00,00,00,00,00,00,00,5C,
-1666864167324930,1BFE2248,true,Rx,0,8,00,00,00,00,00,00,00,00,
-1666864167251804,0000038B,false,Rx,0,8,39,00,00,00,00,00,00,00,
-1666864167231880,1BFE220C,true,Rx,0,8,00,00,00,00,00,00,00,00,
-1666864167231582,1BFE2207,true,Rx,0,8,46,00,3D,88,00,14,01,04,
-1666864167231283,1BFE220D,true,Rx,0,8,00,00,00,00,00,00,00,00,
-1666864167230984,1BFE2215,true,Rx,0,8,60,97,9E,80,80,80,AA,9A,
-1666864167230686,1BFE2216,true,Rx,0,8,00,00,00,00,00,00,BF,FA,
-1666864167230387,1BFE2217,true,Rx,0,8,00,00,CD,B4,A5,00,00,00,
-1666864167230046,1BFE2218,true,Rx,0,8,00,00,00,00,00,00,00,00,
-1666864167229747,1BFE2219,true,Rx,0,8,00,00,00,00,00,00,00,00,
-1666864167229448,1BFE221A,true,Rx,0,8,00,A5,00,00,7E,00,00,00,
-1666864167229107,1BFE221B,true,Rx,0,8,00,00,00,00,00,00,00,00,
-1666864167228808,1BFE221C,true,Rx,0,8,00,00,3F,00,00,00,00,00,
-1666864167228467,1BFE221E,true,Rx,0,8,7D,01,00,00,00,00,00,00,
-1666864167228168,1BFE2222,true,Rx,0,8,00,00,58,00,7E,1C,00,00,
-1666864167227870,1BFE2223,true,Rx,0,8,11,01,00,00,00,00,00,00,
-1666864167227528,1BFE2225,true,Rx,0,8,00,00,00,00,00,00,00,00,
-1666864167227230,1BFE2227,true,Rx,0,8,00,00,00,00,00,04,00,00,
-1666864167226889,1BFE2232,true,Rx,0,8,00,00,00,00,00,00,00,00,
-1666864167226590,1BFE2235,true,Rx,0,8,81,04,00,00,00,00,00,00,
-1666864167226249,1BFE2238,true,Rx,0,8,00,00,32,00,01,01,00,00,
-1666864167225950,1BFE2239,true,Rx,0,8,00,01,01,00,00,00,00,00,
-1666864167225609,1BFE223A,true,Rx,0,8,04,01,00,00,59,00,00,00,
-1666864167225310,1BFE223B,true,Rx,0,8,08,00,00,00,00,00,00,00,
-1666864167224969,1BFE223C,true,Rx,0,8,22,00,00,00,00,00,00,00,
-1666864167224670,1BFE223D,true,Rx,0,8,00,00,00,00,00,00,00,5C,
-1666864167224329,1BFE2248,true,Rx,0,8,00,00,00,00,00,00,00,00,
-1666864167151800,0000038B,false,Rx,0,8,3D,00,00,00,00,00,00,00,
-1666864167131918,1BFE220B,true,Rx,0,8,00,00,00,00,00,00,11,00,
-1666864167131620,1BFE2207,true,Rx,0,8,46,00,43,88,00,14,01,04,
-1666864167131321,1BFE2215,true,Rx,0,8,60,97,9E,80,80,80,AA,9A,
-1666864167131022,1BFE2216,true,Rx,0,8,00,00,00,00,00,00,C0,FA,
-1666864167130681,1BFE2217,true,Rx,0,8,00,00,CD,B4,A5,00,00,00,
-1666864167130383,1BFE2218,true,Rx,0,8,00,00,00,00,00,00,00,00,
-1666864167130084,1BFE2219,true,Rx,0,8,00,00,00,00,00,00,00,00,
-1666864167129743,1BFE221A,true,Rx,0,8,00,A6,00,00,7E,00,00,00,
-1666864167129444,1BFE221B,true,Rx,0,8,00,00,00,00,00,00,00,00,
-1666864167129103,1BFE221C,true,Rx,0,8,00,00,3F,00,00,00,00,00,
-1666864167128804,1BFE221E,true,Rx,0,8,7D,01,00,00,00,00,00,00,
-1666864167128505,1BFE2222,true,Rx,0,8,00,00,58,00,7E,1C,00,00,
-1666864167128164,1BFE2223,true,Rx,0,8,11,01,00,00,00,00,00,00,
-1666864167127865,1BFE2225,true,Rx,0,8,00,00,00,00,00,00,00,00,
-1666864167127524,1BFE2227,true,Rx,0,8,00,00,00,00,00,04,00,00,
-1666864167127225,1BFE2232,true,Rx,0,8,00,00,00,00,00,00,00,00,
-1666864167126884,1BFE2235,true,Rx,0,8,81,04,00,00,00,00,00,00,
-1666864167126585,1BFE2238,true,Rx,0,8,00,00,32,00,01,01,00,00,
-1666864167126244,1BFE2239,true,Rx,0,8,00,01,01,00,00,00,00,00,
-1666864167125945,1BFE223A,true,Rx,0,8,04,01,00,00,63,00,00,00,
-1666864167125604,1BFE223B,true,Rx,0,8,12,00,00,00,00,00,00,00,
-1666864167125306,1BFE223C,true,Rx,0,8,22,00,00,00,00,00,00,00,
-1666864167124964,1BFE223D,true,Rx,0,8,00,00,00,00,00,00,00,5C,
-1666864167124623,1BFE2248,true,Rx,0,8,00,00,00,00,00,00,00,00,
-1666864167051795,0000038B,false,Rx,0,8,3F,00,00,00,00,00,00,00,
-1666864167041812,00000564,false,Rx,0,8,E0,02,00,00,F8,27,3D,00,
-1666864167031914,1BFE221A,true,Rx,0,8,00,A6,00,00,7E,00,00,00,
-1666864167031615,1BFE2203,true,Rx,0,8,00,00,00,18,00,18,00,00,
-1666864167031317,1BFE2207,true,Rx,0,8,46,00,44,88,00,14,01,04,
-1666864167031018,1BFE2215,true,Rx,0,8,60,97,9E,80,80,80,AA,9A,
-1666864167030677,1BFE2216,true,Rx,0,8,00,00,00,00,00,00,C0,FA,
-1666864167030378,1BFE2217,true,Rx,0,8,00,00,CD,B4,A5,00,00,00,
-1666864167030079,1BFE2218,true,Rx,0,8,00,00,00,00,00,00,00,00,
-1666864167029781,1BFE2219,true,Rx,0,8,00,00,00,00,00,00,00,00,
-1666864167029440,1BFE221B,true,Rx,0,8,00,00,00,00,00,00,00,00,
-1666864167029141,1BFE221C,true,Rx,0,8,00,00,3F,00,00,00,00,00,
-1666864167028800,1BFE221E,true,Rx,0,8,7D,01,00,00,00,00,00,00,
-1666864167028501,1BFE2222,true,Rx,0,8,00,00,58,00,7E,1C,00,00,
-1666864167028202,1BFE2223,true,Rx,0,8,11,01,00,00,00,00,00,00,
-1666864167027861,1BFE2225,true,Rx,0,8,00,00,00,00,00,00,00,00,
-1666864167027562,1BFE2227,true,Rx,0,8,00,00,00,00,00,04,00,00,
-1666864167027221,1BFE2232,true,Rx,0,8,00,00,00,00,00,00,00,00,
-1666864167026922,1BFE2235,true,Rx,0,8,81,04,00,00,00,00,00,00,
-1666864167026581,1BFE2238,true,Rx,0,8,00,00,32,00,01,01,00,00,
-1666864167026282,1BFE2239,true,Rx,0,8,00,01,01,00,00,00,00,00,
-1666864167025941,1BFE223A,true,Rx,0,8,04,01,00,00,59,00,00,00,
-1666864167025642,1BFE223B,true,Rx,0,8,08,00,00,00,00,00,00,00,
-1666864167025301,1BFE223C,true,Rx,0,8,22,00,00,00,00,00,00,00,
-1666864167025002,1BFE223D,true,Rx,0,8,00,00,00,00,00,00,00,5C,
-1666864167024661,1BFE2248,true,Rx,0,8,00,00,00,00,00,00,00,00,
-1666864166951834,0000038B,false,Rx,0,8,44,00,00,00,00,00,00,00,
-1666864166931910,1BFE221A,true,Rx,0,8,00,A5,00,00,7E,00,00,00,
-1666864166931611,1BFE2205,true,Rx,0,8,45,45,00,00,00,41,09,30,
-1666864166931312,1BFE2207,true,Rx,0,8,46,00,48,88,00,14,01,04,
-1666864166931014,1BFE2215,true,Rx,0,8,60,97,9E,80,80,80,AA,9A,
-1666864166930715,1BFE2216,true,Rx,0,8,00,00,00,00,00,00,C0,FA,
-1666864166930416,1BFE2217,true,Rx,0,8,00,00,CD,B4,A5,00,00,00,
-1666864166930075,1BFE2218,true,Rx,0,8,00,00,00,00,00,00,00,00,
-1666864166929776,1BFE2219,true,Rx,0,8,00,00,00,00,00,00,00,00,
-1666864166929478,1BFE221B,true,Rx,0,8,00,00,00,00,00,00,00,00,
-1666864166929136,1BFE221C,true,Rx,0,8,00,00,3F,00,00,00,00,00,
-1666864166928838,1BFE221E,true,Rx,0,8,7D,01,00,00,00,00,00,00,
-1666864166928496,1BFE2222,true,Rx,0,8,00,00,58,00,7E,1C,00,00,
-1666864166928198,1BFE2223,true,Rx,0,8,11,01,00,00,00,00,00,00,
-1666864166927857,1BFE2225,true,Rx,0,8,00,00,00,00,00,00,00,00,
-1666864166927558,1BFE2227,true,Rx,0,8,00,00,00,00,00,04,00,00,
-1666864166927259,1BFE2232,true,Rx,0,8,00,00,00,00,00,00,00,00,
-1666864166926918,1BFE2235,true,Rx,0,8,81,04,00,00,00,00,00,00,
-1666864166926577,1BFE2238,true,Rx,0,8,00,00,32,00,01,01,00,00,
-1666864166926278,1BFE2239,true,Rx,0,8,00,01,01,00,00,00,00,00,
-1666864166925979,1BFE223A,true,Rx,0,8,04,01,00,00,63,00,00,00,
-1666864166925638,1BFE223B,true,Rx,0,8,12,00,00,00,00,00,00,00,
-1666864166925297,1BFE223C,true,Rx,0,8,22,00,00,00,00,00,00,00,
-1666864166924998,1BFE223D,true,Rx,0,8,00,00,00,00,00,00,00,5C,
-1666864166924657,1BFE2248,true,Rx,0,8,00,00,00,00,00,00,00,00,
-1666864166851829,0000038B,false,Rx,0,8,48,00,00,00,00,00,00,00,
-1666864166831948,1BFE221A,true,Rx,0,8,00,A5,00,00,7E,00,00,00,
-1666864166831649,1BFE2207,true,Rx,0,8,46,00,49,88,00,14,01,04,
-1666864166831351,1BFE2215,true,Rx,0,8,60,97,9E,80,80,80,AA,9A,
-1666864166831052,1BFE2216,true,Rx,0,8,00,00,00,00,00,00,C0,FA,
-1666864166830711,1BFE2217,true,Rx,0,8,00,00,CD,B4,A5,00,00,00,
-1666864166830412,1BFE2218,true,Rx,0,8,00,00,00,00,00,00,00,00,
-1666864166830113,1BFE2219,true,Rx,0,8,00,00,00,00,00,00,00,00,
-1666864166829772,1BFE221B,true,Rx,0,8,00,00,00,00,00,00,00,00,
-1666864166829473,1BFE221C,true,Rx,0,8,00,00,3F,00,00,00,00,00,
-1666864166829175,1BFE221E,true,Rx,0,8,7D,01,00,00,00,00,00,00,
-1666864166828833,1BFE2222,true,Rx,0,8,00,00,58,00,7E,1C,00,00,
-1666864166828535,1BFE2223,true,Rx,0,8,11,01,00,00,00,00,00,00,
-1666864166828193,1BFE2225,true,Rx,0,8,00,00,00,00,00,00,00,00,
-1666864166827895,1BFE2227,true,Rx,0,8,00,00,00,00,00,04,00,00,
-1666864166827553,1BFE2232,true,Rx,0,8,00,00,00,00,00,00,00,00,
-1666864166827255,1BFE2235,true,Rx,0,8,81,04,00,00,00,00,00,00,
-1666864166826914,1BFE2238,true,Rx,0,8,00,00,32,00,01,01,00,00,
-1666864166826615,1BFE2239,true,Rx,0,8,00,01,01,00,00,00,00,00,
-1666864166826274,1BFE223A,true,Rx,0,8,04,01,00,00,59,00,00,00,
-1666864166825975,1BFE223B,true,Rx,0,8,08,00,00,00,00,00,00,00,
-1666864166825634,1BFE223C,true,Rx,0,8,22,00,00,00,00,00,00,00,
-1666864166825335,1BFE223D,true,Rx,0,8,00,00,00,00,00,00,00,5C,
-1666864166824994,1BFE2248,true,Rx,0,8,00,00,00,00,00,00,00,00,
-1666864166751868,0000038B,false,Rx,0,8,49,00,00,00,00,00,00,00,
-1666864166731943,1BFE221A,true,Rx,0,8,00,A6,00,00,7E,00,00,00,
-1666864166731645,1BFE2207,true,Rx,0,8,46,00,4F,88,00,14,01,04,
-1666864166731346,1BFE2215,true,Rx,0,8,60,97,9E,80,80,80,AA,9A,
-1666864166731047,1BFE2216,true,Rx,0,8,00,00,00,00,00,00,C0,FA,
-1666864166730749,1BFE2217,true,Rx,0,8,00,00,CD,B4,A5,00,00,00,
-1666864166730408,1BFE2218,true,Rx,0,8,00,00,00,00,00,00,00,00,
-1666864166730109,1BFE2219,true,Rx,0,8,00,00,00,00,00,00,00,00,
-1666864166729810,1BFE221B,true,Rx,0,8,00,00,00,00,00,00,00,00,
-1666864166729469,1BFE221C,true,Rx,0,8,00,00,3F,00,00,00,00,00,
-1666864166729170,1BFE221E,true,Rx,0,8,7D,01,00,00,00,00,00,00,
-1666864166728872,1BFE2222,true,Rx,0,8,00,00,58,00,7E,1C,00,00,
-1666864166728530,1BFE2223,true,Rx,0,8,11,01,00,00,00,00,00,00,
-1666864166728232,1BFE2225,true,Rx,0,8,00,00,00,00,00,00,00,00,
-1666864166727890,1BFE2227,true,Rx,0,8,00,00,00,00,00,04,00,00,
-1666864166727592,1BFE2232,true,Rx,0,8,00,00,00,00,00,00,00,00,
-1666864166727250,1BFE2235,true,Rx,0,8,81,04,00,00,00,00,00,00,
-1666864166726952,1BFE2238,true,Rx,0,8,00,00,32,00,01,01,00,00,
-1666864166726610,1BFE2239,true,Rx,0,8,00,01,01,00,00,00,00,00,
-1666864166726312,1BFE223A,true,Rx,0,8,04,01,00,00,63,00,00,00,
-1666864166725970,1BFE223B,true,Rx,0,8,12,00,00,00,00,00,00,00,
-1666864166725629,1BFE223C,true,Rx,0,8,22,00,00,00,00,00,00,00,
-1666864166725331,1BFE223D,true,Rx,0,8,00,00,00,00,00,00,00,5C,
-1666864166724989,1BFE2248,true,Rx,0,8,00,00,00,00,00,00,00,00,
-1666864166651863,0000038B,false,Rx,0,8,4F,00,00,00,00,00,00,00,
-1666864166631982,1BFE221A,true,Rx,0,8,00,A6,00,00,7E,00,00,00,
-1666864166631683,1BFE2207,true,Rx,0,8,46,00,50,88,00,14,01,04,
-1666864166631384,1BFE2215,true,Rx,0,8,60,97,9E,80,80,80,AA,9A,
-1666864166631043,1BFE2216,true,Rx,0,8,00,00,00,00,00,00,C0,FA,
-1666864166630744,1BFE2217,true,Rx,0,8,00,00,CD,B4,A5,00,00,00,
-1666864166630446,1BFE2218,true,Rx,0,8,00,00,00,00,00,00,00,00,
-1666864166630147,1BFE2219,true,Rx,0,8,00,00,00,00,00,00,00,00,
-1666864166629806,1BFE221B,true,Rx,0,8,00,00,00,00,00,00,00,00,
-1666864166629507,1BFE221C,true,Rx,0,8,00,00,3F,00,00,00,00,00,
-1666864166629166,1BFE221E,true,Rx,0,8,7D,01,00,00,00,00,00,00,
-1666864166628867,1BFE2222,true,Rx,0,8,00,00,58,00,7E,1C,00,00,
-1666864166628569,1BFE2223,true,Rx,0,8,11,01,00,00,00,00,00,00,
-1666864166628227,1BFE2225,true,Rx,0,8,00,00,00,00,00,00,00,00,
-1666864166627929,1BFE2227,true,Rx,0,8,00,00,00,00,00,04,00,00,
-1666864166627587,1BFE2232,true,Rx,0,8,00,00,00,00,00,00,00,00,
-1666864166627289,1BFE2235,true,Rx,0,8,81,04,00,00,00,00,00,00,
-1666864166626947,1BFE2238,true,Rx,0,8,00,00,32,00,01,01,00,00,
-1666864166626649,1BFE2239,true,Rx,0,8,00,01,01,00,00,00,00,00,
-1666864166626307,1BFE223A,true,Rx,0,8,04,01,00,00,59,00,00,00,
-1666864166626009,1BFE223B,true,Rx,0,8,08,00,00,00,00,00,00,00,
-1666864166625667,1BFE223C,true,Rx,0,8,22,00,00,00,00,00,00,00,
-1666864166625326,1BFE223D,true,Rx,0,8,00,00,00,00,00,00,00,5C,
-1666864166625027,1BFE2248,true,Rx,0,8,00,00,00,00,00,00,00,00,
-1666864166551859,0000038B,false,Rx,0,8,50,00,00,00,00,00,00,00,
-1666864166531977,1BFE221A,true,Rx,0,8,00,A6,00,00,7E,00,00,00,
-1666864166531679,1BFE2207,true,Rx,0,8,46,00,54,88,00,14,01,04,
-1666864166531380,1BFE2215,true,Rx,0,8,60,97,9E,80,80,80,AA,9A,
-1666864166531081,1BFE2216,true,Rx,0,8,00,00,00,00,00,00,C0,FA,
-1666864166530783,1BFE2217,true,Rx,0,8,00,00,CD,B4,A5,00,00,00,
-1666864166530441,1BFE2218,true,Rx,0,8,00,00,00,00,00,00,00,00,
-1666864166530143,1BFE2219,true,Rx,0,8,00,00,00,00,00,00,00,00,
-1666864166529801,1BFE221B,true,Rx,0,8,00,00,00,00,00,00,00,00,
-1666864166529503,1BFE221C,true,Rx,0,8,00,00,3F,00,00,00,00,00,
-1666864166529204,1BFE221E,true,Rx,0,8,7D,01,00,00,00,00,00,00,
-1666864166528863,1BFE2222,true,Rx,0,8,00,00,58,00,7E,1C,00,00,
-1666864166528564,1BFE2223,true,Rx,0,8,11,01,00,00,00,00,00,00,
-1666864166528223,1BFE2225,true,Rx,0,8,00,00,00,00,00,00,00,00,
-1666864166527924,1BFE2227,true,Rx,0,8,00,00,00,00,00,04,00,00,
-1666864166527583,1BFE2232,true,Rx,0,8,00,00,00,00,00,00,00,00,
-1666864166527284,1BFE2235,true,Rx,0,8,81,04,00,00,00,00,00,00,
-1666864166526943,1BFE2238,true,Rx,0,8,00,00,32,00,01,01,00,00,
-1666864166526644,1BFE2239,true,Rx,0,8,00,01,01,00,00,00,00,00,
-1666864166526303,1BFE223A,true,Rx,0,8,04,01,00,00,63,00,00,00,
-1666864166526004,1BFE223B,true,Rx,0,8,12,00,00,00,00,00,00,00,
-1666864166525663,1BFE223C,true,Rx,0,8,22,00,00,00,00,00,00,00,
-1666864166525364,1BFE223D,true,Rx,0,8,00,00,00,00,00,00,00,5C,
-1666864166525023,1BFE2248,true,Rx,0,8,00,00,00,00,00,00,00,00,
-1666864166451897,0000038B,false,Rx,0,8,54,00,00,00,00,00,00,00,
-1666864166441914,0000067E,false,Rx,0,8,14,0F,00,00,5B,00,00,40,
-1666864166431973,1BFE221A,true,Rx,0,8,00,A5,00,00,7E,00,00,00,
-1666864166431674,1BFE2207,true,Rx,0,8,46,00,5B,88,00,14,01,04,
-1666864166431418,1BFE2215,true,Rx,0,8,60,97,9E,80,80,80,AA,9A,
-1666864166431077,1BFE2216,true,Rx,0,8,00,00,00,00,00,00,C0,FA,
-1666864166430778,1BFE2217,true,Rx,0,8,00,00,CD,B4,A5,00,00,00,
-1666864166430480,1BFE2218,true,Rx,0,8,00,00,00,00,00,00,00,00,
-1666864166430138,1BFE2219,true,Rx,0,8,00,00,00,00,00,00,00,00,
-1666864166429840,1BFE221B,true,Rx,0,8,00,00,00,00,00,00,00,00,
-1666864166429498,1BFE221C,true,Rx,0,8,00,00,3F,00,00,00,00,00,
-1666864166429200,1BFE221E,true,Rx,0,8,7D,01,00,00,00,00,00,00,
-1666864166428901,1BFE2222,true,Rx,0,8,00,00,58,01,7E,1C,00,00,
-1666864166428560,1BFE2223,true,Rx,0,8,11,01,00,00,00,00,00,00,
-1666864166428261,1BFE2225,true,Rx,0,8,00,00,00,00,00,00,00,00,
-1666864166427920,1BFE2227,true,Rx,0,8,00,00,00,00,00,04,00,00,
-1666864166427621,1BFE2232,true,Rx,0,8,00,00,00,00,00,00,00,00,
