Time Stamp,ID,Extended,Dir,Bus,LEN,D1,D2,D3,D4,D5,D6,D7,D8
-1666864172635251,0000038B,false,Rx,0,8,00,00,00,00,00,00,00,00,
-1666864172615369,1BFE221A,true,Rx,0,8,00,A6,00,00,7E,00,00,00,
-1666864172615071,1BFE2205,true,Rx,0,8,45,44,00,00,00,41,09,30,
-1666864172614772,1BFE2215,true,Rx,0,8,60,97,9E,80,80,80,AA,9A,
-1666864172614431,1BFE2216,true,Rx,0,8,00,00,00,00,00,00,C0,FA,
-1666864172614132,1BFE2217,true,Rx,0,8,00,00,CD,B5,A6,00,00,00,
-1666864172613833,1BFE2218,true,Rx,0,8,00,00,00,00,00,00,00,00,
-1666864172613492,1BFE2219,true,Rx,0,8,00,00,00,00,00,00,00,00,
-1666864172613193,1BFE221B,true,Rx,0,8,00,00,00,00,00,00,00,00,
-1666864172612895,1BFE221C,true,Rx,0,8,00,00,3F,00,00,00,00,00,
-1666864172612554,1BFE221E,true,Rx,0,8,7D,01,00,00,00,00,00,00,
-1666864172612255,1BFE2222,true,Rx,0,8,00,00,58,00,7E,1C,00,00,
-1666864172611956,1BFE2223,true,Rx,0,8,11,01,00,00,00,00,00,00,
-1666864172611615,1BFE2225,true,Rx,0,8,00,00,00,00,00,00,00,00,
-1666864172611316,1BFE2227,true,Rx,0,8,00,00,00,00,00,04,00,00,
-1666864172610975,1BFE2232,true,Rx,0,8,00,00,00,00,00,00,00,00,
-1666864172610676,1BFE2235,true,Rx,0,8,81,04,00,00,00,00,00,00,
-1666864172610335,1BFE2238,true,Rx,0,8,00,00,32,00,01,01,00,00,
-1666864172610036,1BFE2239,true,Rx,0,8,00,01,01,00,00,00,00,00,
-1666864172609695,1BFE223A,true,Rx,0,8,04,01,00,00,57,00,00,00,
-1666864172609396,1BFE223B,true,Rx,0,8,06,00,00,00,00,00,00,00,
-1666864172609055,1BFE223C,true,Rx,0,8,22,00,00,00,00,00,00,00,
-1666864172608714,1BFE223D,true,Rx,0,8,00,00,00,00,00,00,00,5C,
-1666864172608415,1BFE2248,true,Rx,0,8,00,00,00,00,00,00,00,00,
-1666864172535246,0000038B,false,Rx,0,8,00,00,00,00,00,00,00,00,
-1666864172515365,1BFE221A,true,Rx,0,8,00,A5,00,00,7E,00,00,00,
-1666864172515066,1BFE2205,true,Rx,0,8,45,44,00,00,00,41,09,0A,
-1666864172514768,1BFE2215,true,Rx,0,8,60,97,9E,80,80,80,AA,9A,
-1666864172514469,1BFE2216,true,Rx,0,8,00,00,00,00,00,00,C0,FA,
-1666864172514170,1BFE2217,true,Rx,0,8,00,00,CD,B5,A6,00,00,00,
-1666864172513829,1BFE2218,true,Rx,0,8,00,00,00,00,00,00,00,00,
-1666864172513530,1BFE2219,true,Rx,0,8,00,00,00,00,00,00,00,00,
-1666864172513189,1BFE221B,true,Rx,0,8,00,00,00,00,00,00,00,00,
-1666864172512890,1BFE221C,true,Rx,0,8,00,00,3F,00,00,00,00,00,
-1666864172512592,1BFE221E,true,Rx,0,8,7D,01,00,00,00,00,00,00,
-1666864172512250,1BFE2222,true,Rx,0,8,00,00,58,00,7E,1C,00,00,
-1666864172511952,1BFE2223,true,Rx,0,8,11,01,00,00,00,00,00,00,
-1666864172511653,1BFE2225,true,Rx,0,8,00,00,00,00,00,00,00,00,
-1666864172511312,1BFE2227,true,Rx,0,8,00,00,00,00,00,04,00,00,
-1666864172511013,1BFE2232,true,Rx,0,8,00,00,00,00,00,00,00,00,
-1666864172510672,1BFE2235,true,Rx,0,8,81,04,00,00,00,00,00,00,
-1666864172510373,1BFE2238,true,Rx,0,8,00,00,32,00,01,01,00,00,
-1666864172510032,1BFE2239,true,Rx,0,8,00,01,01,00,00,00,00,00,
-1666864172509733,1BFE223A,true,Rx,0,8,04,01,00,00,61,00,00,00,
-1666864172509392,1BFE223B,true,Rx,0,8,10,00,00,00,00,00,00,00,
-1666864172509051,1BFE223C,true,Rx,0,8,22,00,00,00,00,00,00,00,
-1666864172508752,1BFE223D,true,Rx,0,8,00,00,00,00,00,00,00,5C,
-1666864172508411,1BFE2248,true,Rx,0,8,00,00,00,00,00,00,00,00,
-1666864172435285,0000038B,false,Rx,0,8,00,00,00,00,00,00,00,00,
-1666864172415361,1BFE221A,true,Rx,0,8,00,A6,00,00,7E,00,00,00,
-1666864172415062,1BFE2205,true,Rx,0,8,45,44,00,00,00,41,09,0C,
-1666864172414763,1BFE2215,true,Rx,0,8,60,97,9E,80,80,80,AA,9A,
-1666864172414465,1BFE2216,true,Rx,0,8,00,00,00,00,00,00,C0,FA,
-1666864172414166,1BFE2217,true,Rx,0,8,00,00,CD,B5,A6,00,00,00,
-1666864172413867,1BFE2218,true,Rx,0,8,00,00,00,00,00,00,00,00,
-1666864172413526,1BFE2219,true,Rx,0,8,00,00,00,00,00,00,00,00,
-1666864172413227,1BFE221B,true,Rx,0,8,00,00,00,00,00,00,00,00,
-1666864172412886,1BFE221C,true,Rx,0,8,00,00,3F,00,00,00,00,00,
-1666864172412587,1BFE221E,true,Rx,0,8,7D,01,00,00,00,00,00,00,
-1666864172412289,1BFE2222,true,Rx,0,8,00,00,58,00,7E,1C,00,00,
-1666864172411947,1BFE2223,true,Rx,0,8,11,01,00,00,00,00,00,00,
-1666864172411649,1BFE2225,true,Rx,0,8,00,00,00,00,00,00,00,00,
-1666864172411307,1BFE2227,true,Rx,0,8,00,00,00,00,00,04,00,00,
-1666864172411009,1BFE2232,true,Rx,0,8,00,00,00,00,00,00,00,00,
-1666864172410667,1BFE2235,true,Rx,0,8,81,04,00,00,00,00,00,00,
-1666864172410369,1BFE2238,true,Rx,0,8,00,00,32,00,01,01,00,00,
-1666864172410028,1BFE2239,true,Rx,0,8,00,01,01,00,00,00,00,00,
-1666864172409729,1BFE223A,true,Rx,0,8,04,01,00,00,57,00,00,00,
-1666864172409388,1BFE223B,true,Rx,0,8,06,00,00,00,00,00,00,00,
-1666864172409089,1BFE223C,true,Rx,0,8,22,00,00,00,00,00,00,00,
-1666864172408748,1BFE223D,true,Rx,0,8,00,00,00,00,00,00,00,5C,
-1666864172408406,1BFE2248,true,Rx,0,8,00,00,00,00,00,00,00,00,
-1666864172335280,0000038B,false,Rx,0,8,00,00,00,00,00,00,00,00,
-1666864172315399,1BFE221A,true,Rx,0,8,00,A6,00,00,7E,00,00,00,
-1666864172315100,1BFE2215,true,Rx,0,8,60,97,9E,80,80,80,AA,9A,
-1666864172314801,1BFE2216,true,Rx,0,8,00,00,00,00,00,00,C0,FA,
-1666864172314460,1BFE2217,true,Rx,0,8,00,00,CD,B5,A6,00,00,00,
-1666864172314161,1BFE2218,true,Rx,0,8,00,00,00,00,00,00,00,00,
-1666864172313863,1BFE2219,true,Rx,0,8,00,00,00,00,00,00,00,00,
-1666864172313522,1BFE221B,true,Rx,0,8,00,00,00,00,00,00,00,00,
-1666864172313223,1BFE221C,true,Rx,0,8,00,00,3F,00,00,00,00,00,
-1666864172312924,1BFE221E,true,Rx,0,8,7D,01,00,00,00,00,00,00,
-1666864172312583,1BFE2222,true,Rx,0,8,00,00,58,00,7E,1C,00,00,
-1666864172312284,1BFE2223,true,Rx,0,8,11,01,00,00,00,00,00,00,
-1666864172311943,1BFE2225,true,Rx,0,8,00,00,00,00,00,00,00,00,
-1666864172311644,1BFE2227,true,Rx,0,8,00,00,00,00,00,04,00,00,
-1666864172311303,1BFE2232,true,Rx,0,8,00,00,00,00,00,00,00,00,
-1666864172311004,1BFE2235,true,Rx,0,8,81,04,00,00,00,00,00,00,
-1666864172310663,1BFE2238,true,Rx,0,8,00,00,32,00,01,01,00,00,
-1666864172310364,1BFE2239,true,Rx,0,8,00,01,01,00,00,00,00,00,
-1666864172310023,1BFE223A,true,Rx,0,8,04,01,00,00,61,00,00,00,
-1666864172309724,1BFE223B,true,Rx,0,8,10,00,00,00,00,00,00,00,
-1666864172309383,1BFE223C,true,Rx,0,8,22,00,00,00,00,00,00,00,
-1666864172309042,1BFE223D,true,Rx,0,8,00,00,00,00,00,00,00,5C,
-1666864172308743,1BFE2248,true,Rx,0,8,00,00,00,00,00,00,00,00,
-1666864172235318,0000038B,false,Rx,0,8,00,00,00,00,00,00,00,00,
-1666864172215394,1BFE221A,true,Rx,0,8,00,A6,00,00,7E,00,00,00,
-1666864172215096,1BFE2205,true,Rx,0,8,45,44,00,00,00,41,09,30,
-1666864172214797,1BFE2206,true,Rx,0,8,46,00,00,86,00,3A,00,04,
-1666864172214498,1BFE2215,true,Rx,0,8,60,97,9E,80,80,80,AA,9A,
-1666864172214200,1BFE2216,true,Rx,0,8,00,00,00,00,00,00,C0,FA,
-1666864172213858,1BFE2217,true,Rx,0,8,00,00,CD,B5,A6,00,00,00,
-1666864172213560,1BFE2218,true,Rx,0,8,00,00,00,00,00,00,00,00,
-1666864172213261,1BFE2219,true,Rx,0,8,00,00,00,00,00,00,00,00,
-1666864172212920,1BFE221B,true,Rx,0,8,00,00,00,00,00,00,00,00,
-1666864172212621,1BFE221C,true,Rx,0,8,00,00,3F,00,00,00,00,00,
-1666864172212323,1BFE221E,true,Rx,0,8,7D,01,00,00,00,00,00,00,
-1666864172211981,1BFE2222,true,Rx,0,8,00,00,58,00,7E,1C,00,00,
-1666864172211683,1BFE2223,true,Rx,0,8,11,01,00,00,00,00,00,00,
-1666864172211341,1BFE2225,true,Rx,0,8,00,00,00,00,00,00,00,00,
-1666864172211043,1BFE2227,true,Rx,0,8,00,00,00,00,00,04,00,00,
-1666864172210701,1BFE2232,true,Rx,0,8,00,00,00,00,00,00,00,00,
-1666864172210403,1BFE2235,true,Rx,0,8,81,04,00,00,00,00,00,00,
-1666864172210061,1BFE2238,true,Rx,0,8,00,00,32,00,01,01,00,00,
-1666864172209763,1BFE2239,true,Rx,0,8,00,01,01,00,00,00,00,00,
-1666864172209421,1BFE223A,true,Rx,0,8,04,01,00,00,57,00,00,00,
-1666864172209123,1BFE223B,true,Rx,0,8,06,00,00,00,00,00,00,00,
-1666864172208781,1BFE223C,true,Rx,0,8,22,00,00,00,00,00,00,00,
-1666864172208483,1BFE223D,true,Rx,0,8,00,00,00,00,00,00,00,5C,
-1666864172208141,1BFE2248,true,Rx,0,8,00,00,00,00,00,00,00,00,
-1666864172145297,1BFE2234,true,Rx,0,8,00,00,00,00,00,00,00,00,
-1666864172135314,0000038B,false,Rx,0,8,00,00,00,00,00,00,00,00,
-1666864172125301,0000067E,false,Rx,0,8,1D,06,00,00,5B,00,00,40,
-1666864172115403,1BFE221A,true,Rx,0,8,00,A6,00,00,7E,00,00,00,
-1666864172115061,1BFE2202,true,Rx,0,8,90,21,43,06,00,00,00,07,
-1666864172114763,1BFE2208,true,Rx,0,8,32,00,00,00,00,00,00,00,
-1666864172114464,1BFE2215,true,Rx,0,8,60,97,9E,80,80,80,AA,9A,
-1666864172114165,1BFE2216,true,Rx,0,8,00,00,00,00,00,00,C0,FA,
-1666864172113867,1BFE2217,true,Rx,0,8,00,00,CD,B5,A6,00,00,00,
-1666864172113525,1BFE2218,true,Rx,0,8,00,00,00,00,00,00,00,00,
-1666864172113227,1BFE2219,true,Rx,0,8,00,00,00,00,00,00,00,00,
-1666864172112928,1BFE221B,true,Rx,0,8,00,00,00,00,00,00,00,00,
-1666864172112587,1BFE221C,true,Rx,0,8,00,00,3F,00,00,00,00,00,
-1666864172112288,1BFE221E,true,Rx,0,8,7D,01,00,00,00,00,00,00,
-1666864172111989,1BFE2222,true,Rx,0,8,00,00,58,00,7E,1C,00,00,
-1666864172111648,1BFE2223,true,Rx,0,8,11,01,00,00,00,00,00,00,
-1666864172111350,1BFE2225,true,Rx,0,8,00,00,00,00,00,00,00,00,
-1666864172111008,1BFE2227,true,Rx,0,8,00,00,00,00,00,04,00,00,
-1666864172110710,1BFE2232,true,Rx,0,8,00,00,00,00,00,00,00,00,
-1666864172110368,1BFE2235,true,Rx,0,8,81,04,00,00,00,00,00,00,
-1666864172110070,1BFE2238,true,Rx,0,8,00,00,32,00,01,01,00,00,
-1666864172109728,1BFE2239,true,Rx,0,8,00,01,01,00,00,00,00,00,
-1666864172109430,1BFE223A,true,Rx,0,8,04,01,00,00,61,00,00,00,
-1666864172109088,1BFE223B,true,Rx,0,8,10,00,00,00,00,00,00,00,
-1666864172108747,1BFE223C,true,Rx,0,8,22,00,00,00,00,00,00,00,
-1666864172108448,1BFE223D,true,Rx,0,8,00,00,00,00,00,00,00,5C,
-1666864172108107,1BFE2248,true,Rx,0,8,00,00,00,00,00,00,00,00,
-1666864172035280,0000038B,false,Rx,0,8,00,00,00,00,00,00,00,00,
-1666864172015398,1BFE221A,true,Rx,0,8,00,A5,00,00,7E,00,00,00,
-1666864172015100,1BFE2205,true,Rx,0,8,45,44,00,00,00,41,09,0C,
-1666864172014801,1BFE2215,true,Rx,0,8,60,97,9E,80,80,80,AA,9A,
-1666864172014502,1BFE2216,true,Rx,0,8,00,00,00,00,00,00,C0,FA,
-1666864172014204,1BFE2217,true,Rx,0,8,00,00,CD,B5,A6,00,00,00,
-1666864172013862,1BFE2218,true,Rx,0,8,00,00,00,00,00,00,00,00,
-1666864172013564,1BFE2219,true,Rx,0,8,00,00,00,00,00,00,00,00,
-1666864172013222,1BFE221B,true,Rx,0,8,00,00,00,00,00,00,00,00,
-1666864172012924,1BFE221C,true,Rx,0,8,00,00,3F,00,00,00,00,00,
-1666864172012625,1BFE221E,true,Rx,0,8,7D,01,00,00,00,00,00,00,
-1666864172012284,1BFE2222,true,Rx,0,8,00,00,58,00,7E,1C,00,00,
-1666864172011985,1BFE2223,true,Rx,0,8,11,01,00,00,00,00,00,00,
-1666864172011686,1BFE2225,true,Rx,0,8,00,00,00,00,00,00,00,00,
-1666864172011345,1BFE2227,true,Rx,0,8,00,00,00,00,00,04,00,00,
-1666864172011046,1BFE2232,true,Rx,0,8,00,00,00,00,00,00,00,00,
-1666864172010705,1BFE2235,true,Rx,0,8,81,04,00,00,00,00,00,00,
-1666864172010406,1BFE2238,true,Rx,0,8,00,00,32,00,01,01,00,00,
-1666864172010065,1BFE2239,true,Rx,0,8,00,01,01,00,00,00,00,00,
-1666864172009767,1BFE223A,true,Rx,0,8,04,01,00,00,57,00,00,00,
-1666864172009425,1BFE223B,true,Rx,0,8,06,00,00,00,00,00,00,00,
-1666864172009084,1BFE223C,true,Rx,0,8,22,00,00,00,00,00,00,00,
-1666864172008785,1BFE223D,true,Rx,0,8,00,00,00,00,00,00,00,5C,
-1666864172008444,1BFE2248,true,Rx,0,8,00,00,00,00,00,00,00,00,
-1666864171935318,0000038B,false,Rx,0,8,00,00,00,00,00,00,00,00,
-1666864171915436,1BFE220A,true,Rx,0,8,02,02,02,02,00,00,01,02,
-1666864171915138,1BFE2205,true,Rx,0,8,45,44,00,00,00,41,09,30,
-1666864171914796,1BFE220E,true,Rx,0,8,00,00,00,00,00,00,00,00,
-1666864171914498,1BFE220F,true,Rx,0,8,00,00,00,10,10,00,00,00,
-1666864171914199,1BFE2210,true,Rx,0,8,00,00,00,10,10,00,00,00,
-1666864171913858,1BFE2211,true,Rx,0,8,00,00,00,00,00,00,00,00,
-1666864171913559,1BFE2215,true,Rx,0,8,60,97,9E,80,80,80,AA,9A,
-1666864171913261,1BFE2216,true,Rx,0,8,00,00,00,00,00,00,C0,FA,
-1666864171912962,1BFE2217,true,Rx,0,8,00,00,CD,B5,A6,00,00,00,
-1666864171912621,1BFE2218,true,Rx,0,8,00,00,00,00,00,00,00,00,
-1666864171912322,1BFE2219,true,Rx,0,8,00,00,00,00,00,00,00,00,
-1666864171912023,1BFE221A,true,Rx,0,8,00,A6,00,00,7E,00,00,00,
-1666864171911682,1BFE221B,true,Rx,0,8,00,00,00,00,00,00,00,00,
-1666864171911383,1BFE221C,true,Rx,0,8,00,00,3F,00,00,00,00,00,
-1666864171911085,1BFE221E,true,Rx,0,8,7D,01,00,00,00,00,00,00,
-1666864171910743,1BFE2222,true,Rx,0,8,00,00,58,00,7E,1C,00,00,
-1666864171910445,1BFE2223,true,Rx,0,8,11,01,00,00,00,00,00,00,
-1666864171910103,1BFE2225,true,Rx,0,8,00,00,00,00,00,00,00,00,
-1666864171909805,1BFE2227,true,Rx,0,8,00,00,00,00,00,04,00,00,
-1666864171909463,1BFE2232,true,Rx,0,8,00,00,00,00,00,00,00,00,
-1666864171909165,1BFE2235,true,Rx,0,8,81,04,00,00,00,00,00,00,
-1666864171908823,1BFE2238,true,Rx,0,8,00,00,32,00,01,01,00,00,
-1666864171908525,1BFE2239,true,Rx,0,8,00,01,01,00,00,00,00,00,
-1666864171908184,1BFE223A,true,Rx,0,8,04,01,00,00,61,00,00,00,
-1666864171907885,1BFE223B,true,Rx,0,8,10,00,00,00,00,00,00,00,
-1666864171907544,1BFE223C,true,Rx,0,8,22,00,00,00,00,00,00,00,
-1666864171907245,1BFE223D,true,Rx,0,8,00,00,00,00,00,00,00,5C,
-1666864171906904,1BFE2248,true,Rx,0,8,00,00,00,00,00,00,00,00,
-1666864171835313,0000038B,false,Rx,0,8,00,00,00,00,00,00,00,00,
-1666864171815432,1BFE221A,true,Rx,0,8,00,A5,00,00,7E,00,00,00,
-1666864171815133,1BFE2205,true,Rx,0,8,45,44,00,00,00,41,09,06,
-1666864171814835,1BFE2215,true,Rx,0,8,60,97,9E,80,80,80,AA,9A,
-1666864171814536,1BFE2216,true,Rx,0,8,00,00,00,00,00,00,BF,FA,
-1666864171814195,1BFE2217,true,Rx,0,8,00,00,CD,B5,A6,00,00,00,
-1666864171813896,1BFE2218,true,Rx,0,8,00,00,00,00,00,00,00,00,
-1666864171813597,1BFE2219,true,Rx,0,8,00,00,00,00,00,00,00,00,
-1666864171813256,1BFE221B,true,Rx,0,8,00,00,00,00,00,00,00,00,
-1666864171812957,1BFE221C,true,Rx,0,8,00,00,3F,00,00,00,00,00,
-1666864171812616,1BFE221E,true,Rx,0,8,7D,01,00,00,00,00,00,00,
-1666864171812318,1BFE2222,true,Rx,0,8,00,00,58,00,7E,1C,00,00,
-1666864171812019,1BFE2223,true,Rx,0,8,11,01,00,00,00,00,00,00,
-1666864171811678,1BFE2225,true,Rx,0,8,00,00,00,00,00,00,00,00,
-1666864171811379,1BFE2227,true,Rx,0,8,00,00,00,00,00,04,00,00,
-1666864171811038,1BFE2232,true,Rx,0,8,00,00,00,00,00,00,00,00,
-1666864171810739,1BFE2235,true,Rx,0,8,81,04,00,00,00,00,00,00,
-1666864171810398,1BFE2238,true,Rx,0,8,00,00,32,00,01,01,00,00,
-1666864171810099,1BFE2239,true,Rx,0,8,00,01,01,00,00,00,00,00,
-1666864171809758,1BFE223A,true,Rx,0,8,04,01,00,00,57,00,00,00,
-1666864171809459,1BFE223B,true,Rx,0,8,06,00,00,00,00,00,00,00,
-1666864171809118,1BFE223C,true,Rx,0,8,22,00,00,00,00,00,00,00,
-1666864171808819,1BFE223D,true,Rx,0,8,00,00,00,00,00,00,00,5C,
-1666864171808478,1BFE2248,true,Rx,0,8,00,00,00,00,00,00,00,00,
-1666864171735352,0000038B,false,Rx,0,8,00,00,00,00,00,00,00,00,
-1666864171725368,00000564,false,Rx,0,8,D8,0A,00,00,F8,17,3D,00,
-1666864171715428,1BFE221A,true,Rx,0,8,00,A6,00,00,7E,00,00,00,
-1666864171715129,1BFE2205,true,Rx,0,8,45,44,00,00,00,41,09,0C,
-1666864171714830,1BFE2215,true,Rx,0,8,60,97,9E,80,80,80,AA,9A,
-1666864171714532,1BFE2216,true,Rx,0,8,00,00,00,00,00,00,C0,FA,
-1666864171714233,1BFE2217,true,Rx,0,8,00,00,CD,B5,A6,00,00,00,
-1666864171713892,1BFE2218,true,Rx,0,8,00,00,00,00,00,00,00,00,
-1666864171713593,1BFE2219,true,Rx,0,8,00,00,00,00,00,00,00,00,
-1666864171713294,1BFE221B,true,Rx,0,8,00,00,00,00,00,00,00,00,
-1666864171712953,1BFE221C,true,Rx,0,8,00,00,3F,00,00,00,00,00,
-1666864171712654,1BFE221E,true,Rx,0,8,7D,01,00,00,00,00,00,00,
-1666864171712356,1BFE2222,true,Rx,0,8,00,00,58,00,7E,1C,00,00,
-1666864171712014,1BFE2223,true,Rx,0,8,11,01,00,00,00,00,00,00,
-1666864171711716,1BFE2225,true,Rx,0,8,00,00,00,00,00,00,00,00,
-1666864171711375,1BFE2227,true,Rx,0,8,00,00,00,00,00,04,00,00,
-1666864171711076,1BFE2232,true,Rx,0,8,00,00,00,00,00,00,00,00,
-1666864171710735,1BFE2235,true,Rx,0,8,81,04,00,00,00,00,00,00,
-1666864171710436,1BFE2238,true,Rx,0,8,00,00,32,00,01,01,00,00,
-1666864171710095,1BFE2239,true,Rx,0,8,00,01,01,00,00,00,00,00,
-1666864171709796,1BFE223A,true,Rx,0,8,04,01,00,00,61,00,00,00,
-1666864171709455,1BFE223B,true,Rx,0,8,10,00,00,00,00,00,00,00,
-1666864171709156,1BFE223C,true,Rx,0,8,22,00,00,00,00,00,00,00,
-1666864171708815,1BFE223D,true,Rx,0,8,00,00,00,00,00,00,00,5C,
-1666864171708473,1BFE2248,true,Rx,0,8,00,00,00,00,00,00,00,00,
-1666864171635347,0000038B,false,Rx,0,8,00,00,00,00,00,00,00,00,
-1666864171615466,1BFE221A,true,Rx,0,8,00,A5,00,00,7E,00,00,00,
-1666864171615167,1BFE2205,true,Rx,0,8,45,44,00,00,00,41,09,08,
-1666864171614869,1BFE2215,true,Rx,0,8,60,97,9E,80,80,80,AA,9A,
-1666864171614527,1BFE2216,true,Rx,0,8,00,00,00,00,00,00,BF,FA,
-1666864171614229,1BFE2217,true,Rx,0,8,00,00,CD,B5,A6,00,00,00,
-1666864171613930,1BFE2218,true,Rx,0,8,00,00,00,00,00,00,00,00,
-1666864171613589,1BFE2219,true,Rx,0,8,00,00,00,00,00,00,00,00,
-1666864171613290,1BFE221B,true,Rx,0,8,00,00,00,00,00,00,00,00,
-1666864171612991,1BFE221C,true,Rx,0,8,00,00,3F,00,00,00,00,00,
-1666864171612650,1BFE221E,true,Rx,0,8,7D,01,00,00,00,00,00,00,
-1666864171612351,1BFE2222,true,Rx,0,8,00,00,58,00,7E,1C,00,00,
-1666864171612053,1BFE2223,true,Rx,0,8,11,01,00,00,00,00,00,00,
-1666864171611711,1BFE2225,true,Rx,0,8,00,00,00,00,00,00,00,00,
-1666864171611413,1BFE2227,true,Rx,0,8,00,00,00,00,00,04,00,00,
-1666864171611071,1BFE2232,true,Rx,0,8,00,00,00,00,00,00,00,00,
-1666864171610773,1BFE2235,true,Rx,0,8,81,04,00,00,00,00,00,00,
-1666864171610431,1BFE2238,true,Rx,0,8,00,00,32,00,01,01,00,00,
-1666864171610090,1BFE2239,true,Rx,0,8,00,01,01,00,00,00,00,00,
-1666864171609792,1BFE223A,true,Rx,0,8,04,01,00,00,57,00,00,00,
-1666864171609493,1BFE223B,true,Rx,0,8,06,00,00,00,00,00,00,00,
-1666864171609152,1BFE223C,true,Rx,0,8,22,00,00,00,00,00,00,00,
-1666864171608810,1BFE223D,true,Rx,0,8,00,00,00,00,00,00,00,5C,
-1666864171608512,1BFE2248,true,Rx,0,8,00,00,00,00,00,00,00,00,
-1666864171535343,0000038B,false,Rx,0,8,00,00,00,00,00,00,00,00,
-1666864171515461,1BFE221A,true,Rx,0,8,00,A6,00,00,7E,00,00,00,
-1666864171515163,1BFE2205,true,Rx,0,8,45,44,00,00,00,41,09,30,
-1666864171514864,1BFE2215,true,Rx,0,8,60,97,9E,80,80,80,AA,9A,
-1666864171514565,1BFE2216,true,Rx,0,8,00,00,00,00,00,00,C0,FA,
-1666864171514267,1BFE2217,true,Rx,0,8,00,00,CD,B5,A6,00,00,00,
-1666864171513926,1BFE2218,true,Rx,0,8,00,00,00,00,00,00,00,00,
-1666864171513627,1BFE2219,true,Rx,0,8,00,00,00,00,00,00,00,00,
-1666864171513286,1BFE221B,true,Rx,0,8,00,00,00,00,00,00,00,00,
-1666864171512987,1BFE221C,true,Rx,0,8,00,00,3F,00,00,00,00,00,
-1666864171512688,1BFE221E,true,Rx,0,8,7D,01,00,00,00,00,00,00,
-1666864171512347,1BFE2222,true,Rx,0,8,00,00,58,00,7E,1C,00,00,
-1666864171512048,1BFE2223,true,Rx,0,8,11,01,00,00,00,00,00,00,
-1666864171511707,1BFE2225,true,Rx,0,8,00,00,00,00,00,00,00,00,
-1666864171511408,1BFE2227,true,Rx,0,8,00,00,00,00,00,04,00,00,
-1666864171511067,1BFE2232,true,Rx,0,8,00,00,00,00,00,00,00,00,
-1666864171510768,1BFE2235,true,Rx,0,8,81,04,00,00,00,00,00,00,
-1666864171510427,1BFE2238,true,Rx,0,8,00,00,32,00,01,01,00,00,
-1666864171510128,1BFE2239,true,Rx,0,8,00,01,01,00,00,00,00,00,
-1666864171509787,1BFE223A,true,Rx,0,8,04,01,00,00,61,00,00,00,
-1666864171509488,1BFE223B,true,Rx,0,8,10,00,00,00,00,00,00,00,
-1666864171509147,1BFE223C,true,Rx,0,8,22,00,00,00,00,00,00,00,
-1666864171508848,1BFE223D,true,Rx,0,8,00,00,00,00,00,00,00,5C,
-1666864171508507,1BFE2248,true,Rx,0,8,00,00,00,00,00,00,00,00,
-1666864171435381,0000038B,false,Rx,0,8,00,00,00,00,00,00,00,00,
-1666864171415457,1BFE221A,true,Rx,0,8,00,A5,00,00,7E,00,00,00,
-1666864171415158,1BFE2215,true,Rx,0,8,60,97,9E,80,80,80,AA,9A,
-1666864171414860,1BFE2216,true,Rx,0,8,00,00,00,00,00,00,BF,FA,
-1666864171414561,1BFE2217,true,Rx,0,8,00,00,CD,B5,A6,00,00,00,
-1666864171414262,1BFE2218,true,Rx,0,8,00,00,00,00,00,00,00,00,
-1666864171413921,1BFE2219,true,Rx,0,8,00,00,00,00,00,00,00,00,
-1666864171413622,1BFE221B,true,Rx,0,8,00,00,00,00,00,00,00,00,
-1666864171413281,1BFE221C,true,Rx,0,8,00,00,3F,00,00,00,00,00,
-1666864171412982,1BFE221E,true,Rx,0,8,7D,01,00,00,00,00,00,00,
-1666864171412684,1BFE2222,true,Rx,0,8,00,00,58,00,7E,1C,00,00,
-1666864171412343,1BFE2223,true,Rx,0,8,11,01,00,00,00,00,00,00,
-1666864171412044,1BFE2225,true,Rx,0,8,00,00,00,00,00,00,00,00,
-1666864171411703,1BFE2227,true,Rx,0,8,00,00,00,00,00,04,00,00,
-1666864171411404,1BFE2232,true,Rx,0,8,00,00,00,00,00,00,00,00,
-1666864171411063,1BFE2235,true,Rx,0,8,81,04,00,00,00,00,00,00,
-1666864171410764,1BFE2238,true,Rx,0,8,00,00,32,00,01,01,00,00,
-1666864171410423,1BFE2239,true,Rx,0,8,00,01,01,00,00,00,00,00,
-1666864171410124,1BFE223A,true,Rx,0,8,04,01,00,00,57,00,00,00,
-1666864171409783,1BFE223B,true,Rx,0,8,06,00,00,00,00,00,00,00,
-1666864171409484,1BFE223C,true,Rx,0,8,22,00,00,00,00,00,00,00,
-1666864171409143,1BFE223D,true,Rx,0,8,00,00,00,00,00,00,00,5C,
-1666864171408844,1BFE2248,true,Rx,0,8,00,00,00,00,00,00,00,00,
-1666864171335377,0000038B,false,Rx,0,8,00,00,00,00,00,00,00,00,
-1666864171315495,1BFE221A,true,Rx,0,8,00,A6,00,00,7E,00,00,00,
-1666864171315197,1BFE2215,true,Rx,0,8,60,97,9E,80,80,80,AA,9A,
-1666864171314855,1BFE2216,true,Rx,0,8,00,00,00,00,00,00,C0,FA,
-1666864171314557,1BFE2217,true,Rx,0,8,00,00,CD,B5,A6,00,00,00,
-1666864171314258,1BFE2218,true,Rx,0,8,00,00,00,00,00,00,00,00,
-1666864171313959,1BFE2219,true,Rx,0,8,00,00,00,00,00,00,00,00,
-1666864171313618,1BFE221B,true,Rx,0,8,00,00,00,00,00,00,00,00,
-1666864171313319,1BFE221C,true,Rx,0,8,00,00,3F,00,00,00,00,00,
-1666864171312978,1BFE221E,true,Rx,0,8,7D,01,00,00,00,00,00,00,
-1666864171312679,1BFE2222,true,Rx,0,8,00,00,58,00,7E,1C,00,00,
-1666864171312381,1BFE2223,true,Rx,0,8,11,01,00,00,00,00,00,00,
-1666864171312039,1BFE2225,true,Rx,0,8,00,00,00,00,00,00,00,00,
-1666864171311741,1BFE2227,true,Rx,0,8,00,00,00,00,00,04,00,00,
-1666864171311400,1BFE2232,true,Rx,0,8,00,00,00,00,00,00,00,00,
-1666864171311101,1BFE2235,true,Rx,0,8,81,04,00,00,00,00,00,00,
-1666864171310760,1BFE2238,true,Rx,0,8,00,00,32,00,01,01,00,00,
-1666864171310461,1BFE2239,true,Rx,0,8,00,01,01,00,00,00,00,00,
-1666864171310120,1BFE223A,true,Rx,0,8,04,01,00,00,61,00,00,00,
-1666864171309821,1BFE223B,true,Rx,0,8,10,00,00,00,00,00,00,00,
-1666864171309480,1BFE223C,true,Rx,0,8,22,00,00,00,00,00,00,00,
-1666864171309138,1BFE223D,true,Rx,0,8,00,00,00,00,00,00,00,5C,
-1666864171308840,1BFE2248,true,Rx,0,8,00,00,00,00,00,00,00,00,
-1666864171235372,0000038B,false,Rx,0,8,00,00,00,00,00,00,00,00,
-1666864171215491,1BFE221A,true,Rx,0,8,00,A5,00,00,7E,00,00,00,
-1666864171215192,1BFE2215,true,Rx,0,8,60,97,9E,80,80,80,AA,9A,
-1666864171214894,1BFE2216,true,Rx,0,8,00,00,00,00,00,00,C0,FA,
-1666864171214595,1BFE2217,true,Rx,0,8,00,00,CD,B5,A6,00,00,00,
-1666864171214254,1BFE2218,true,Rx,0,8,00,00,00,00,00,00,00,00,
-1666864171213955,1BFE2219,true,Rx,0,8,00,00,00,00,00,00,00,00,
-1666864171213614,1BFE221B,true,Rx,0,8,00,00,00,00,00,00,00,00,
-1666864171213315,1BFE221C,true,Rx,0,8,00,00,3F,00,00,00,00,00,
-1666864171213016,1BFE221E,true,Rx,0,8,7D,01,00,00,00,00,00,00,
-1666864171212675,1BFE2222,true,Rx,0,8,00,00,58,00,7E,1C,00,00,
-1666864171212376,1BFE2223,true,Rx,0,8,11,01,00,00,00,00,00,00,
-1666864171212035,1BFE2225,true,Rx,0,8,00,00,00,00,00,00,00,00,
-1666864171211736,1BFE2227,true,Rx,0,8,00,00,00,00,00,04,00,00,
-1666864171211395,1BFE2232,true,Rx,0,8,00,00,00,00,00,00,00,00,
-1666864171211096,1BFE2235,true,Rx,0,8,81,04,00,00,00,00,00,00,
-1666864171210755,1BFE2238,true,Rx,0,8,00,00,32,00,01,01,00,00,
-1666864171210456,1BFE2239,true,Rx,0,8,00,01,01,00,00,00,00,00,
-1666864171210115,1BFE223A,true,Rx,0,8,04,01,00,00,57,00,00,00,
-1666864171209817,1BFE223B,true,Rx,0,8,06,00,00,00,00,00,00,00,
-1666864171209475,1BFE223C,true,Rx,0,8,22,00,00,00,00,00,00,00,
-1666864171209177,1BFE223D,true,Rx,0,8,00,00,00,00,00,00,00,5C,
-1666864171208835,1BFE2248,true,Rx,0,8,00,00,00,00,00,00,00,00,
-1666864171135411,0000038B,false,Rx,0,8,00,00,00,00,00,00,00,00,
-1666864171125397,0000067E,false,Rx,0,8,1C,07,00,00,5B,00,00,40,
-1666864171115499,1BFE221A,true,Rx,0,8,00,A6,00,00,7E,00,00,00,
-1666864171115200,1BFE2215,true,Rx,0,8,60,97,9E,80,80,80,AA,9A,
-1666864171114859,1BFE2216,true,Rx,0,8,00,00,00,00,00,00,C0,FA,
-1666864171114560,1BFE2217,true,Rx,0,8,00,00,CD,B5,A6,00,00,00,
-1666864171114262,1BFE2218,true,Rx,0,8,00,00,00,00,00,00,00,00,
-1666864171113921,1BFE2219,true,Rx,0,8,00,00,00,00,00,00,00,00,
-1666864171113622,1BFE221B,true,Rx,0,8,00,00,00,00,00,00,00,00,
-1666864171113323,1BFE221C,true,Rx,0,8,00,00,3F,00,00,00,00,00,
-1666864171112982,1BFE221E,true,Rx,0,8,7D,01,00,00,00,00,00,00,
-1666864171112683,1BFE2222,true,Rx,0,8,00,00,58,00,7E,1C,00,00,
-1666864171112342,1BFE2223,true,Rx,0,8,11,01,00,00,00,00,00,00,
-1666864171112043,1BFE2225,true,Rx,0,8,00,00,00,00,00,00,00,00,
-1666864171111702,1BFE2227,true,Rx,0,8,00,00,00,00,00,04,00,00,
-1666864171111403,1BFE2232,true,Rx,0,8,00,00,00,00,00,00,00,00,
-1666864171111062,1BFE2235,true,Rx,0,8,81,04,00,00,00,00,00,00,
-1666864171110763,1BFE2238,true,Rx,0,8,00,00,32,00,01,01,00,00,
-1666864171110422,1BFE2239,true,Rx,0,8,00,01,01,00,00,00,00,00,
-1666864171110123,1BFE223A,true,Rx,0,8,04,01,00,00,61,00,00,00,
-1666864171109782,1BFE223B,true,Rx,0,8,10,00,00,00,00,00,00,00,
-1666864171109483,1BFE223C,true,Rx,0,8,22,00,00,00,00,00,00,00,
-1666864171109142,1BFE223D,true,Rx,0,8,00,00,00,00,00,00,00,5C,
-1666864171108801,1BFE2248,true,Rx,0,8,00,00,00,00,00,00,00,00,
-1666864171035376,0000038B,false,Rx,0,8,00,00,00,00,00,00,00,00,
-1666864171015495,1BFE221A,true,Rx,0,8,00,A5,00,00,7E,00,00,00,
-1666864171015196,1BFE2205,true,Rx,0,8,45,44,00,00,00,41,09,0C,
-1666864171014897,1BFE2215,true,Rx,0,8,60,97,9E,80,80,80,AA,9A,
-1666864171014599,1BFE2216,true,Rx,0,8,00,00,00,00,00,00,BF,FA,
-1666864171014300,1BFE2217,true,Rx,0,8,00,00,CD,B5,A6,00,00,00,
-1666864171013959,1BFE2218,true,Rx,0,8,00,00,00,00,00,00,00,00,
-1666864171013660,1BFE2219,true,Rx,0,8,00,00,00,00,00,00,00,00,
-1666864171013319,1BFE221B,true,Rx,0,8,00,00,00,00,00,00,00,00,
-1666864171013020,1BFE221C,true,Rx,0,8,00,00,3F,00,00,00,00,00,
-1666864171012722,1BFE221E,true,Rx,0,8,7D,01,00,00,00,00,00,00,
-1666864171012380,1BFE2222,true,Rx,0,8,00,00,58,00,7E,1C,00,00,
-1666864171012082,1BFE2223,true,Rx,0,8,11,01,00,00,00,00,00,00,
-1666864171011740,1BFE2225,true,Rx,0,8,00,00,00,00,00,00,00,00,
-1666864171011442,1BFE2227,true,Rx,0,8,00,00,00,00,00,04,00,00,
-1666864171011100,1BFE2232,true,Rx,0,8,00,00,00,00,00,00,00,00,
-1666864171010802,1BFE2235,true,Rx,0,8,81,04,00,00,00,00,00,00,
-1666864171010460,1BFE2238,true,Rx,0,8,00,00,32,00,01,01,00,00,
-1666864171010162,1BFE2239,true,Rx,0,8,00,01,01,00,00,00,00,00,
-1666864171009820,1BFE223A,true,Rx,0,8,04,01,00,00,57,00,00,00,
-1666864171009522,1BFE223B,true,Rx,0,8,06,00,00,00,00,00,00,00,
-1666864171009180,1BFE223C,true,Rx,0,8,22,00,00,00,00,00,00,00,
-1666864171008882,1BFE223D,true,Rx,0,8,00,00,00,00,00,00,00,5C,
-1666864171008540,1BFE2248,true,Rx,0,8,00,00,00,00,00,00,00,00,
-1666864170935414,0000038B,false,Rx,0,8,00,00,00,00,00,00,00,00,
-1666864170915490,1BFE220C,true,Rx,0,8,00,00,00,00,00,00,00,00,
-1666864170915192,1BFE2204,true,Rx,0,8,00,00,00,00,0F,00,00,00,
-1666864170914893,1BFE220D,true,Rx,0,8,00,00,00,00,00,00,00,00,
-1666864170914594,1BFE2215,true,Rx,0,8,60,97,9E,80,80,80,AA,9A,
-1666864170914296,1BFE2216,true,Rx,0,8,00,00,00,00,00,00,BF,FA,
-1666864170913997,1BFE2217,true,Rx,0,8,00,00,CD,B5,A6,00,00,00,
-1666864170913656,1BFE2218,true,Rx,0,8,00,00,00,00,00,00,00,00,
-1666864170913357,1BFE2219,true,Rx,0,8,00,00,00,00,00,00,00,00,
-1666864170913016,1BFE221A,true,Rx,0,8,00,A5,00,00,7E,00,00,00,
-1666864170912717,1BFE221B,true,Rx,0,8,00,00,00,00,00,00,00,00,
-1666864170912418,1BFE221C,true,Rx,0,8,00,00,3F,00,00,00,00,00,
-1666864170912077,1BFE221E,true,Rx,0,8,7D,01,00,00,00,00,00,00,
-1666864170911778,1BFE2222,true,Rx,0,8,00,00,58,00,7E,1C,00,00,
-1666864170911480,1BFE2223,true,Rx,0,8,11,01,00,00,00,00,00,00,
-1666864170911139,1BFE2225,true,Rx,0,8,00,00,00,00,00,00,00,00,
-1666864170910840,1BFE2227,true,Rx,0,8,00,00,00,00,00,04,00,00,
-1666864170910499,1BFE2232,true,Rx,0,8,00,00,00,00,00,00,00,00,
-1666864170910200,1BFE2235,true,Rx,0,8,81,04,00,00,00,00,00,00,
-1666864170909859,1BFE2238,true,Rx,0,8,00,00,32,00,01,01,00,00,
-1666864170909560,1BFE2239,true,Rx,0,8,00,01,01,00,00,00,00,00,
-1666864170909219,1BFE223A,true,Rx,0,8,04,01,00,00,61,00,00,00,
-1666864170908920,1BFE223B,true,Rx,0,8,10,00,00,00,00,00,00,00,
-1666864170908579,1BFE223C,true,Rx,0,8,22,00,00,00,00,00,00,00,
-1666864170908237,1BFE223D,true,Rx,0,8,00,00,00,00,00,00,00,5C,
-1666864170907939,1BFE2248,true,Rx,0,8,00,00,00,00,00,00,00,00,
-1666864170835410,0000038B,false,Rx,0,8,00,00,00,00,00,00,00,00,
-1666864170815528,1BFE220B,true,Rx,0,8,00,00,00,00,00,00,11,00,
-1666864170815230,1BFE2215,true,Rx,0,8,60,97,9E,80,80,80,AA,9A,
-1666864170814889,1BFE2216,true,Rx,0,8,00,00,00,00,00,00,C0,FA,
-1666864170814590,1BFE2217,true,Rx,0,8,00,00,CD,B5,A6,00,00,00,
-1666864170814291,1BFE2218,true,Rx,0,8,00,00,00,00,00,00,00,00,
-1666864170813993,1BFE2219,true,Rx,0,8,00,00,00,00,00,00,00,00,
-1666864170813651,1BFE221A,true,Rx,0,8,00,A5,00,00,7E,00,00,00,
-1666864170813353,1BFE221B,true,Rx,0,8,00,00,00,00,00,00,00,00,
-1666864170813011,1BFE221C,true,Rx,0,8,00,00,3F,00,00,00,00,00,
-1666864170812713,1BFE221E,true,Rx,0,8,7D,01,00,00,00,00,00,00,
-1666864170812414,1BFE2222,true,Rx,0,8,00,00,58,00,7E,1C,00,00,
-1666864170812073,1BFE2223,true,Rx,0,8,11,01,00,00,00,00,00,00,
-1666864170811774,1BFE2225,true,Rx,0,8,00,00,00,00,00,00,00,00,
-1666864170811433,1BFE2227,true,Rx,0,8,00,00,00,00,00,04,00,00,
-1666864170811134,1BFE2232,true,Rx,0,8,00,00,00,00,00,00,00,00,
-1666864170810793,1BFE2235,true,Rx,0,8,81,04,00,00,00,00,00,00,
-1666864170810494,1BFE2238,true,Rx,0,8,00,00,32,00,01,01,00,00,
-1666864170810153,1BFE2239,true,Rx,0,8,00,01,01,00,00,00,00,00,
-1666864170809854,1BFE223A,true,Rx,0,8,04,01,00,00,57,00,00,00,
-1666864170809513,1BFE223B,true,Rx,0,8,06,00,00,00,00,00,00,00,
-1666864170809214,1BFE223C,true,Rx,0,8,22,00,00,00,00,00,00,00,
-1666864170808873,1BFE223D,true,Rx,0,8,00,00,00,00,00,00,00,5C,
-1666864170808532,1BFE2248,true,Rx,0,8,00,00,00,00,00,00,00,00,
-1666864170735448,0000038B,false,Rx,0,8,00,00,00,00,00,00,00,00,
-1666864170725465,00000564,false,Rx,0,8,D8,0B,00,00,F8,17,3C,00,
-1666864170715524,1BFE221A,true,Rx,0,8,00,A5,00,00,7E,00,00,00,
-1666864170715225,1BFE2203,true,Rx,0,8,00,00,00,18,00,18,00,00,
-1666864170714927,1BFE2215,true,Rx,0,8,60,97,9E,80,80,80,AA,9A,
-1666864170714628,1BFE2216,true,Rx,0,8,00,00,00,00,00,00,C0,FA,
-1666864170714287,1BFE2217,true,Rx,0,8,00,00,CD,B5,A6,00,00,00,
-1666864170713988,1BFE2218,true,Rx,0,8,00,00,00,00,00,00,00,00,
-1666864170713690,1BFE2219,true,Rx,0,8,00,00,00,00,00,00,00,00,
-1666864170713348,1BFE221B,true,Rx,0,8,00,00,00,00,00,00,00,00,
-1666864170713050,1BFE221C,true,Rx,0,8,00,00,3F,00,00,00,00,00,
-1666864170712708,1BFE221E,true,Rx,0,8,7D,01,00,00,00,00,00,00,
-1666864170712410,1BFE2222,true,Rx,0,8,00,00,58,00,7E,1C,00,00,
-1666864170712111,1BFE2223,true,Rx,0,8,11,01,00,00,00,00,00,00,
-1666864170711770,1BFE2225,true,Rx,0,8,00,00,00,00,00,00,00,00,
-1666864170711471,1BFE2227,true,Rx,0,8,00,00,00,00,00,04,00,00,
-1666864170711130,1BFE2232,true,Rx,0,8,00,00,00,00,00,00,00,00,
-1666864170710831,1BFE2235,true,Rx,0,8,81,04,00,00,00,00,00,00,
-1666864170710490,1BFE2238,true,Rx,0,8,00,00,32,00,01,01,00,00,
-1666864170710191,1BFE2239,true,Rx,0,8,00,01,01,00,00,00,00,00,
-1666864170709850,1BFE223A,true,Rx,0,8,04,01,00,00,61,00,00,00,
-1666864170709551,1BFE223B,true,Rx,0,8,10,00,00,00,00,00,00,00,
-1666864170709210,1BFE223C,true,Rx,0,8,22,00,00,00,00,00,00,00,
-1666864170708868,1BFE223D,true,Rx,0,8,00,00,00,00,00,00,00,5C,
-1666864170708570,1BFE2248,true,Rx,0,8,00,00,00,00,00,00,00,00,
-1666864170635444,0000038B,false,Rx,0,8,00,00,00,00,00,00,00,00,
-1666864170615520,1BFE221A,true,Rx,0,8,00,A5,00,00,7E,00,00,00,
-1666864170615221,1BFE2215,true,Rx,0,8,60,97,9E,80,80,80,AA,9A,
-1666864170614922,1BFE2216,true,Rx,0,8,00,00,00,00,00,00,C0,FA,
-1666864170614624,1BFE2217,true,Rx,0,8,00,00,CD,B5,A6,00,00,00,
-1666864170614325,1BFE2218,true,Rx,0,8,00,00,00,00,00,00,00,00,
-1666864170613984,1BFE2219,true,Rx,0,8,00,00,00,00,00,00,00,00,
-1666864170613685,1BFE221B,true,Rx,0,8,00,00,00,00,00,00,00,00,
-1666864170613344,1BFE221C,true,Rx,0,8,00,00,3F,00,00,00,00,00,
-1666864170613045,1BFE221E,true,Rx,0,8,7D,01,00,00,00,00,00,00,
-1666864170612747,1BFE2222,true,Rx,0,8,00,00,58,00,7E,1C,00,00,
-1666864170612405,1BFE2223,true,Rx,0,8,11,01,00,00,00,00,00,00,
-1666864170612107,1BFE2225,true,Rx,0,8,00,00,00,00,00,00,00,00,
-1666864170611765,1BFE2227,true,Rx,0,8,00,00,00,00,00,04,00,00,
-1666864170611467,1BFE2232,true,Rx,0,8,00,00,00,00,00,00,00,00,
-1666864170611125,1BFE2235,true,Rx,0,8,81,04,00,00,00,00,00,00,
-1666864170610827,1BFE2238,true,Rx,0,8,00,00,32,00,01,01,00,00,
-1666864170610485,1BFE2239,true,Rx,0,8,00,01,01,00,00,00,00,00,
-1666864170610187,1BFE223A,true,Rx,0,8,04,01,00,00,57,00,00,00,
-1666864170609845,1BFE223B,true,Rx,0,8,06,00,00,00,00,00,00,00,
-1666864170609547,1BFE223C,true,Rx,0,8,22,00,00,00,00,00,00,00,
-1666864170609205,1BFE223D,true,Rx,0,8,00,00,00,00,00,00,00,5C,
-1666864170608864,1BFE2248,true,Rx,0,8,00,00,00,00,00,00,00,00,
-1666864170535439,0000038B,false,Rx,0,8,00,00,00,00,00,00,00,00,
-1666864170515558,1BFE221A,true,Rx,0,8,00,A6,00,00,7E,00,00,00,
-1666864170515259,1BFE2215,true,Rx,0,8,60,97,9E,80,80,80,AA,9A,
-1666864170514961,1BFE2216,true,Rx,0,8,00,00,00,00,00,00,C0,FA,
-1666864170514619,1BFE2217,true,Rx,0,8,00,00,CD,B5,A6,00,00,00,
-1666864170514321,1BFE2218,true,Rx,0,8,00,00,00,00,00,00,00,00,
-1666864170514022,1BFE2219,true,Rx,0,8,00,00,00,00,00,00,00,00,
-1666864170513681,1BFE221B,true,Rx,0,8,00,00,00,00,00,00,00,00,
-1666864170513382,1BFE221C,true,Rx,0,8,00,00,3F,00,00,00,00,00,
-1666864170513083,1BFE221E,true,Rx,0,8,7D,01,00,00,00,00,00,00,
-1666864170512742,1BFE2222,true,Rx,0,8,00,00,58,00,7E,1C,00,00,
-1666864170512443,1BFE2223,true,Rx,0,8,11,01,00,00,00,00,00,00,
-1666864170512102,1BFE2225,true,Rx,0,8,00,00,00,00,00,00,00,00,
-1666864170511803,1BFE2227,true,Rx,0,8,00,00,00,00,00,04,00,00,
-1666864170511462,1BFE2232,true,Rx,0,8,00,00,00,00,00,00,00,00,
-1666864170511164,1BFE2235,true,Rx,0,8,81,04,00,00,00,00,00,00,
-1666864170510822,1BFE2238,true,Rx,0,8,00,00,32,00,01,01,00,00,
-1666864170510524,1BFE2239,true,Rx,0,8,00,01,01,00,00,00,00,00,
-1666864170510182,1BFE223A,true,Rx,0,8,04,01,00,00,61,00,00,00,
-1666864170509884,1BFE223B,true,Rx,0,8,10,00,00,00,00,00,00,00,
-1666864170509542,1BFE223C,true,Rx,0,8,22,00,00,00,00,00,00,00,
-1666864170509244,1BFE223D,true,Rx,0,8,00,00,00,00,00,00,00,5C,
-1666864170508902,1BFE2248,true,Rx,0,8,00,00,00,00,00,00,00,00,
-1666864170435478,0000038B,false,Rx,0,8,00,00,00,00,00,00,00,00,
-1666864170415553,1BFE221A,true,Rx,0,8,00,A5,00,00,7E,00,00,00,
-1666864170415255,1BFE2215,true,Rx,0,8,60,97,9E,80,80,80,AA,9A,
-1666864170414956,1BFE2216,true,Rx,0,8,00,00,00,00,00,00,BF,FA,
-1666864170414658,1BFE2217,true,Rx,0,8,00,00,CD,B5,A6,00,00,00,
-1666864170414316,1BFE2218,true,Rx,0,8,00,00,00,00,00,00,00,00,
-1666864170414018,1BFE2219,true,Rx,0,8,00,00,00,00,00,00,00,00,
-1666864170413719,1BFE221B,true,Rx,0,8,00,00,00,00,00,00,00,00,
-1666864170413378,1BFE221C,true,Rx,0,8,00,00,3F,00,00,00,00,00,
-1666864170413079,1BFE221E,true,Rx,0,8,7D,01,00,00,00,00,00,00,
-1666864170412738,1BFE2222,true,Rx,0,8,00,00,58,00,7E,1C,00,00,
-1666864170412439,1BFE2223,true,Rx,0,8,11,01,00,00,00,00,00,00,
-1666864170412098,1BFE2225,true,Rx,0,8,00,00,00,00,00,00,00,00,
-1666864170411799,1BFE2227,true,Rx,0,8,00,00,00,00,00,04,00,00,
-1666864170411458,1BFE2232,true,Rx,0,8,00,00,00,00,00,00,00,00,
-1666864170411159,1BFE2235,true,Rx,0,8,81,04,00,00,00,00,00,00,
-1666864170410818,1BFE2238,true,Rx,0,8,00,00,32,00,01,01,00,00,
-1666864170410519,1BFE2239,true,Rx,0,8,00,01,01,00,00,00,00,00,
-1666864170410178,1BFE223A,true,Rx,0,8,04,01,00,00,57,00,00,00,
-1666864170409879,1BFE223B,true,Rx,0,8,06,00,00,00,00,00,00,00,
-1666864170409538,1BFE223C,true,Rx,0,8,22,00,00,00,00,00,00,00,
-1666864170409239,1BFE223D,true,Rx,0,8,00,00,00,00,00,00,00,5C,
-1666864170408898,1BFE2248,true,Rx,0,8,00,00,00,00,00,00,00,00,
-1666864170335473,0000038B,false,Rx,0,8,00,00,00,00,00,00,00,00,
-1666864170315592,1BFE221A,true,Rx,0,8,00,A6,00,00,7E,00,00,00,
-1666864170315293,1BFE2205,true,Rx,0,8,45,44,00,00,00,41,09,18,
-1666864170314994,1BFE2215,true,Rx,0,8,60,97,9E,80,80,80,AA,9A,
-1666864170314696,1BFE2216,true,Rx,0,8,00,00,00,00,00,00,C0,FA,
-1666864170314354,1BFE2217,true,Rx,0,8,00,00,CD,B5,A6,00,00,00,
-1666864170314056,1BFE2218,true,Rx,0,8,00,00,00,00,00,00,00,00,
-1666864170313757,1BFE2219,true,Rx,0,8,00,00,00,00,00,00,00,00,
-1666864170313416,1BFE221B,true,Rx,0,8,00,00,00,00,00,00,00,00,
-1666864170313117,1BFE221C,true,Rx,0,8,00,00,3F,00,00,00,00,00,
-1666864170312776,1BFE221E,true,Rx,0,8,7D,01,00,00,00,00,00,00,
-1666864170312477,1BFE2222,true,Rx,0,8,00,00,58,00,7E,1C,00,00,
-1666864170312179,1BFE2223,true,Rx,0,8,11,01,00,00,00,00,00,00,
-1666864170311837,1BFE2225,true,Rx,0,8,00,00,00,00,00,00,00,00,
-1666864170311539,1BFE2227,true,Rx,0,8,00,00,00,00,00,04,00,00,
-1666864170311197,1BFE2232,true,Rx,0,8,00,00,00,00,00,00,00,00,
-1666864170310899,1BFE2235,true,Rx,0,8,81,04,00,00,00,00,00,00,
-1666864170310557,1BFE2238,true,Rx,0,8,00,00,32,00,01,01,00,00,
-1666864170310259,1BFE2239,true,Rx,0,8,00,01,01,00,00,00,00,00,
-1666864170309917,1BFE223A,true,Rx,0,8,04,01,00,00,61,00,00,00,
-1666864170309619,1BFE223B,true,Rx,0,8,10,00,00,00,00,00,00,00,
-1666864170309277,1BFE223C,true,Rx,0,8,22,00,00,00,00,00,00,00,
-1666864170308936,1BFE223D,true,Rx,0,8,00,00,00,00,00,00,00,5C,
-1666864170308638,1BFE2248,true,Rx,0,8,00,00,00,00,00,00,00,00,
-1666864170235469,0000038B,false,Rx,0,8,00,00,00,00,00,00,00,00,
-1666864170215587,1BFE221A,true,Rx,0,8,00,A5,00,00,7E,00,00,00,
-1666864170215289,1BFE2205,true,Rx,0,8,45,44,00,00,00,41,09,0C,
-1666864170214990,1BFE2215,true,Rx,0,8,60,97,9E,80,80,80,AA,9A,
-1666864170214691,1BFE2216,true,Rx,0,8,00,00,00,00,00,00,C0,FA,
-1666864170214393,1BFE2217,true,Rx,0,8,00,00,CD,B5,A6,00,00,00,
-1666864170214051,1BFE2218,true,Rx,0,8,00,00,00,00,00,00,00,00,
-1666864170213753,1BFE2219,true,Rx,0,8,00,00,00,00,00,00,00,00,
-1666864170213411,1BFE221B,true,Rx,0,8,00,00,00,00,00,00,00,00,
-1666864170213113,1BFE221C,true,Rx,0,8,00,00,3F,00,00,00,00,00,
-1666864170212814,1BFE221E,true,Rx,0,8,7D,01,00,00,00,00,00,00,
-1666864170212473,1BFE2222,true,Rx,0,8,00,00,58,00,7E,1C,00,00,
-1666864170212174,1BFE2223,true,Rx,0,8,11,01,00,00,00,00,00,00,
-1666864170211876,1BFE2225,true,Rx,0,8,00,00,00,00,00,00,00,00,
-1666864170211534,1BFE2227,true,Rx,0,8,00,00,00,00,00,04,00,00,
-1666864170211236,1BFE2232,true,Rx,0,8,00,00,00,00,00,00,00,00,
-1666864170210894,1BFE2235,true,Rx,0,8,81,04,00,00,00,00,00,00,
-1666864170210596,1BFE2238,true,Rx,0,8,00,00,32,00,01,01,00,00,
-1666864170210254,1BFE2239,true,Rx,0,8,00,01,01,00,00,00,00,00,
-1666864170209956,1BFE223A,true,Rx,0,8,04,01,00,00,57,00,00,00,
-1666864170209614,1BFE223B,true,Rx,0,8,06,00,00,00,00,00,00,00,
-1666864170209273,1BFE223C,true,Rx,0,8,22,00,00,00,00,00,00,00,
-1666864170208974,1BFE223D,true,Rx,0,8,00,00,00,00,00,00,00,5C,
-1666864170208633,1BFE2248,true,Rx,0,8,00,00,00,00,00,00,00,00,
-1666864170135507,0000038B,false,Rx,0,8,00,00,00,00,00,00,00,00,
-1666864170125513,0000067E,false,Rx,0,8,13,08,00,00,5B,00,00,40,
-1666864170115572,1BFE221A,true,Rx,0,8,00,A5,00,00,7E,00,00,00,
-1666864170115316,1BFE2205,true,Rx,0,8,45,44,00,00,00,41,09,30,
-1666864170115017,1BFE2215,true,Rx,0,8,60,97,9E,80,80,80,AA,9A,
-1666864170114676,1BFE2216,true,Rx,0,8,00,00,00,00,00,00,C0,FA,
-1666864170114377,1BFE2217,true,Rx,0,8,00,00,CD,B5,A6,00,00,00,
-1666864170114079,1BFE2218,true,Rx,0,8,00,00,00,00,00,00,00,00,
-1666864170113737,1BFE2219,true,Rx,0,8,00,00,00,00,00,00,00,00,
-1666864170113439,1BFE221B,true,Rx,0,8,00,00,00,00,00,00,00,00,
-1666864170113097,1BFE221C,true,Rx,0,8,00,00,3F,00,00,00,00,00,
-1666864170112799,1BFE221E,true,Rx,0,8,7D,01,00,00,00,00,00,00,
-1666864170112500,1BFE2222,true,Rx,0,8,00,00,58,00,7E,1C,00,00,
-1666864170112159,1BFE2223,true,Rx,0,8,11,01,00,00,00,00,00,00,
-1666864170111860,1BFE2225,true,Rx,0,8,00,00,00,00,00,00,00,00,
-1666864170111561,1BFE2227,true,Rx,0,8,00,00,00,00,00,04,00,00,
-1666864170111220,1BFE2232,true,Rx,0,8,00,00,00,00,00,00,00,00,
-1666864170110879,1BFE2235,true,Rx,0,8,81,04,00,00,00,00,00,00,
-1666864170110580,1BFE2238,true,Rx,0,8,00,00,32,00,01,01,00,00,
-1666864170110239,1BFE2239,true,Rx,0,8,00,01,01,00,00,00,00,00,
-1666864170109940,1BFE223A,true,Rx,0,8,04,01,00,00,61,00,00,00,
-1666864170109599,1BFE223B,true,Rx,0,8,10,00,00,00,00,00,00,00,
-1666864170109300,1BFE223C,true,Rx,0,8,22,00,00,00,00,00,00,00,
-1666864170108959,1BFE223D,true,Rx,0,8,00,00,00,00,00,00,00,5C,
-1666864170108618,1BFE2248,true,Rx,0,8,00,00,00,00,00,00,00,00,
-1666864170035492,0000038B,false,Rx,0,8,00,00,00,00,00,00,00,00,
-1666864170015610,1BFE221A,true,Rx,0,8,00,A5,00,00,7E,00,00,00,
-1666864170015312,1BFE2205,true,Rx,0,8,45,44,00,00,00,41,09,0C,
-1666864170015013,1BFE2215,true,Rx,0,8,60,97,9E,80,80,80,AA,9A,
-1666864170014714,1BFE2216,true,Rx,0,8,00,00,00,00,00,00,BF,FA,
-1666864170014373,1BFE2217,true,Rx,0,8,00,00,CD,B5,A6,00,00,00,
-1666864170014074,1BFE2218,true,Rx,0,8,00,00,00,00,00,00,00,00,
-1666864170013776,1BFE2219,true,Rx,0,8,00,00,00,00,00,00,00,00,
-1666864170013434,1BFE221B,true,Rx,0,8,00,00,00,00,00,00,00,00,
-1666864170013136,1BFE221C,true,Rx,0,8,00,00,3F,00,00,00,00,00,
-1666864170012794,1BFE221E,true,Rx,0,8,7D,01,00,00,00,00,00,00,
-1666864170012496,1BFE2222,true,Rx,0,8,00,00,58,00,7E,1C,00,00,
-1666864170012197,1BFE2223,true,Rx,0,8,11,01,00,00,00,00,00,00,
-1666864170011856,1BFE2225,true,Rx,0,8,00,00,00,00,00,00,00,00,
-1666864170011557,1BFE2227,true,Rx,0,8,00,00,00,00,00,04,00,00,
-1666864170011216,1BFE2232,true,Rx,0,8,00,00,00,00,00,00,00,00,
-1666864170010917,1BFE2235,true,Rx,0,8,81,04,00,00,00,00,00,00,
-1666864170010576,1BFE2238,true,Rx,0,8,00,00,32,00,01,01,00,00,
-1666864170010277,1BFE2239,true,Rx,0,8,00,01,01,00,00,00,00,00,
-1666864170009936,1BFE223A,true,Rx,0,8,04,01,00,00,57,00,00,00,
-1666864170009637,1BFE223B,true,Rx,0,8,06,00,00,00,00,00,00,00,
-1666864170009296,1BFE223C,true,Rx,0,8,22,00,00,00,00,00,00,00,
-1666864170008997,1BFE223D,true,Rx,0,8,00,00,00,00,00,00,00,5C,
-1666864170008656,1BFE2248,true,Rx,0,8,00,00,00,00,00,00,00,00,
-1666864169935530,0000038B,false,Rx,0,8,00,00,00,00,00,00,00,00,
-1666864169915606,1BFE221A,true,Rx,0,8,00,A5,00,00,7E,00,00,00,
-1666864169915307,1BFE2209,true,Rx,0,8,00,00,01,00,D0,21,00,00,
-1666864169915008,1BFE2215,true,Rx,0,8,60,97,9E,80,80,80,AA,9A,
-1666864169914710,1BFE2216,true,Rx,0,8,00,00,00,00,00,00,BF,FA,
-1666864169914411,1BFE2217,true,Rx,0,8,00,00,CD,B5,A6,00,00,00,
-1666864169914070,1BFE2218,true,Rx,0,8,00,00,00,00,00,00,00,00,
-1666864169913771,1BFE2219,true,Rx,0,8,00,00,00,00,00,00,00,00,
-1666864169913473,1BFE221B,true,Rx,0,8,00,00,00,00,00,00,00,00,
-1666864169913131,1BFE221C,true,Rx,0,8,00,00,3F,00,00,00,00,00,
-1666864169912833,1BFE221E,true,Rx,0,8,7D,01,00,00,00,00,00,00,
-1666864169912534,1BFE2222,true,Rx,0,8,00,00,58,00,7E,1C,00,00,
-1666864169912193,1BFE2223,true,Rx,0,8,11,01,00,00,00,00,00,00,
-1666864169911894,1BFE2225,true,Rx,0,8,00,00,00,00,00,00,00,00,
-1666864169911553,1BFE2227,true,Rx,0,8,00,00,00,00,00,04,00,00,
-1666864169911254,1BFE2232,true,Rx,0,8,00,00,00,00,00,00,00,00,
-1666864169910913,1BFE2235,true,Rx,0,8,81,04,00,00,00,00,00,00,
-1666864169910614,1BFE2238,true,Rx,0,8,00,00,32,00,01,01,00,00,
-1666864169910273,1BFE2239,true,Rx,0,8,00,01,01,00,00,00,00,00,
-1666864169909974,1BFE223A,true,Rx,0,8,04,01,00,00,61,00,00,00,
-1666864169909633,1BFE223B,true,Rx,0,8,10,00,00,00,00,00,00,00,
-1666864169909334,1BFE223C,true,Rx,0,8,22,00,00,00,00,00,00,00,
-1666864169908993,1BFE223D,true,Rx,0,8,00,00,00,00,00,00,00,5C,
-1666864169908652,1BFE2248,true,Rx,0,8,00,00,00,00,00,00,00,00,
-1666864169835525,0000038B,false,Rx,0,8,00,00,00,00,00,00,00,00,
-1666864169815644,1BFE221A,true,Rx,0,8,00,A6,00,00,7E,00,00,00,
-1666864169815345,1BFE2205,true,Rx,0,8,45,44,00,00,00,41,09,30,
-1666864169815047,1BFE2215,true,Rx,0,8,60,97,9E,80,80,80,AA,9A,
-1666864169814705,1BFE2216,true,Rx,0,8,00,00,00,00,00,00,C0,FA,
-1666864169814407,1BFE2217,true,Rx,0,8,00,00,CD,B5,A6,00,00,00,
-1666864169814108,1BFE2218,true,Rx,0,8,00,00,00,00,00,00,00,00,
-1666864169813767,1BFE2219,true,Rx,0,8,00,00,00,00,00,00,00,00,
-1666864169813468,1BFE221B,true,Rx,0,8,00,00,00,00,00,00,00,00,
-1666864169813169,1BFE221C,true,Rx,0,8,00,00,3F,00,00,00,00,00,
-1666864169812828,1BFE221E,true,Rx,0,8,7D,01,00,00,00,00,00,00,
-1666864169812530,1BFE2222,true,Rx,0,8,00,00,58,00,7E,1C,00,00,
-1666864169812231,1BFE2223,true,Rx,0,8,11,01,00,00,00,00,00,00,
-1666864169811890,1BFE2225,true,Rx,0,8,00,00,00,00,00,00,00,00,
-1666864169811591,1BFE2227,true,Rx,0,8,00,00,00,00,00,04,00,00,
-1666864169811250,1BFE2232,true,Rx,0,8,00,00,00,00,00,00,00,00,
-1666864169810951,1BFE2235,true,Rx,0,8,81,04,00,00,00,00,00,00,
-1666864169810610,1BFE2238,true,Rx,0,8,00,00,32,00,01,01,00,00,
-1666864169810311,1BFE2239,true,Rx,0,8,00,01,01,00,00,00,00,00,
-1666864169809970,1BFE223A,true,Rx,0,8,04,01,00,00,57,00,00,00,
-1666864169809671,1BFE223B,true,Rx,0,8,06,00,00,00,00,00,00,00,
-1666864169809330,1BFE223C,true,Rx,0,8,22,00,00,00,00,00,00,00,
-1666864169808988,1BFE223D,true,Rx,0,8,00,00,00,00,00,00,00,5C,
-1666864169808690,1BFE2248,true,Rx,0,8,00,00,00,00,00,00,00,00,
-1666864169735564,0000038B,false,Rx,0,8,00,00,00,00,00,00,00,00,
-1666864169725580,00000564,false,Rx,0,8,DE,0C,00,00,F8,17,3D,00,
-1666864169715640,1BFE221A,true,Rx,0,8,00,A5,00,00,7E,00,00,00,
-1666864169715341,1BFE2207,true,Rx,0,8,46,00,00,88,00,02,00,04,
-1666864169715042,1BFE2215,true,Rx,0,8,60,97,9E,80,80,80,AA,9A,
-1666864169714744,1BFE2216,true,Rx,0,8,00,00,00,00,00,00,BF,FA,
-1666864169714445,1BFE2217,true,Rx,0,8,00,00,CD,B5,A6,00,00,00,
-1666864169714104,1BFE2218,true,Rx,0,8,00,00,00,00,00,00,00,00,
-1666864169713805,1BFE2219,true,Rx,0,8,00,00,00,00,00,00,00,00,
-1666864169713464,1BFE221B,true,Rx,0,8,00,00,00,00,00,00,00,00,
-1666864169713165,1BFE221C,true,Rx,0,8,00,00,3F,00,00,00,00,00,
-1666864169712824,1BFE221E,true,Rx,0,8,7D,01,00,00,00,00,00,00,
-1666864169712525,1BFE2222,true,Rx,0,8,00,00,58,00,7E,1C,00,00,
-1666864169712226,1BFE2223,true,Rx,0,8,11,01,00,00,00,00,00,00,
-1666864169711885,1BFE2225,true,Rx,0,8,00,00,00,00,00,00,00,00,
-1666864169711586,1BFE2227,true,Rx,0,8,00,00,00,00,00,04,00,00,
-1666864169711245,1BFE2232,true,Rx,0,8,00,00,00,00,00,00,00,00,
-1666864169710947,1BFE2235,true,Rx,0,8,81,04,00,00,00,00,00,00,
-1666864169710605,1BFE2238,true,Rx,0,8,00,00,32,00,01,01,00,00,
-1666864169710307,1BFE2239,true,Rx,0,8,00,01,01,00,00,00,00,00,
-1666864169709965,1BFE223A,true,Rx,0,8,04,01,00,00,61,00,00,00,
-1666864169709667,1BFE223B,true,Rx,0,8,10,00,00,00,00,00,00,00,
-1666864169709325,1BFE223C,true,Rx,0,8,22,00,00,00,00,00,00,00,
-1666864169708984,1BFE223D,true,Rx,0,8,00,00,00,00,00,00,00,5C,
-1666864169708685,1BFE2248,true,Rx,0,8,00,00,00,00,00,00,00,00,
-1666864169635559,0000038B,false,Rx,0,8,00,00,00,00,00,00,00,00,
-1666864169615678,1BFE221A,true,Rx,0,8,00,A6,00,00,7E,00,00,00,
-1666864169615379,1BFE2205,true,Rx,0,8,45,44,00,00,00,41,09,0C,
-1666864169615081,1BFE2215,true,Rx,0,8,60,97,9E,80,80,80,AA,9A,
-1666864169614739,1BFE2216,true,Rx,0,8,00,00,00,00,00,00,C0,FA,
-1666864169614441,1BFE2217,true,Rx,0,8,00,00,CD,B5,A6,00,00,00,
-1666864169614142,1BFE2218,true,Rx,0,8,00,00,00,00,00,00,00,00,
-1666864169613801,1BFE2219,true,Rx,0,8,00,00,00,00,00,00,00,00,
-1666864169613502,1BFE221B,true,Rx,0,8,00,00,00,00,00,00,00,00,
-1666864169613161,1BFE221C,true,Rx,0,8,00,00,3F,00,00,00,00,00,
-1666864169612862,1BFE221E,true,Rx,0,8,7D,01,00,00,00,00,00,00,
-1666864169612563,1BFE2222,true,Rx,0,8,00,00,58,00,7E,1C,00,00,
-1666864169612222,1BFE2223,true,Rx,0,8,11,01,00,00,00,00,00,00,
-1666864169611923,1BFE2225,true,Rx,0,8,00,00,00,00,00,00,00,00,
-1666864169611582,1BFE2227,true,Rx,0,8,00,00,00,00,00,04,00,00,
-1666864169611283,1BFE2232,true,Rx,0,8,00,00,00,00,00,00,00,00,
-1666864169610942,1BFE2235,true,Rx,0,8,81,04,00,00,00,00,00,00,
-1666864169610643,1BFE2238,true,Rx,0,8,00,00,32,00,01,01,00,00,
-1666864169610302,1BFE2239,true,Rx,0,8,00,01,01,00,00,00,00,00,
-1666864169610004,1BFE223A,true,Rx,0,8,04,01,00,00,57,00,00,00,
-1666864169609662,1BFE223B,true,Rx,0,8,06,00,00,00,00,00,00,00,
-1666864169609364,1BFE223C,true,Rx,0,8,22,00,00,00,00,00,00,00,
-1666864169609022,1BFE223D,true,Rx,0,8,00,00,00,00,00,00,00,5C,
-1666864169608681,1BFE2248,true,Rx,0,8,00,00,00,00,00,00,00,00,
-1666864169535555,0000038B,false,Rx,0,8,00,00,00,00,00,00,00,00,
-1666864169515673,1BFE221A,true,Rx,0,8,00,A5,00,00,7E,00,00,00,
-1666864169515375,1BFE2205,true,Rx,0,8,45,44,00,00,00,41,09,30,
-1666864169515076,1BFE2215,true,Rx,0,8,60,97,9E,80,80,80,AA,9A,
-1666864169514777,1BFE2216,true,Rx,0,8,00,00,00,00,00,00,C0,FA,
-1666864169514436,1BFE2217,true,Rx,0,8,00,00,CD,B5,A6,00,00,00,
-1666864169514138,1BFE2218,true,Rx,0,8,00,00,00,00,00,00,00,00,
-1666864169513839,1BFE2219,true,Rx,0,8,00,00,00,00,00,00,00,00,
-1666864169513498,1BFE221B,true,Rx,0,8,00,00,00,00,00,00,00,00,
-1666864169513199,1BFE221C,true,Rx,0,8,00,00,3F,00,00,00,00,00,
-1666864169512858,1BFE221E,true,Rx,0,8,7D,01,00,00,00,00,00,00,
-1666864169512559,1BFE2222,true,Rx,0,8,00,00,58,00,7E,1C,00,00,
-1666864169512260,1BFE2223,true,Rx,0,8,11,01,00,00,00,00,00,00,
-1666864169511919,1BFE2225,true,Rx,0,8,00,00,00,00,00,00,00,00,
-1666864169511620,1BFE2227,true,Rx,0,8,00,00,00,00,00,04,00,00,
