Time Stamp,ID,Extended,Dir,Bus,LEN,D1,D2,D3,D4,D5,D6,D7,D8
16117062,0000038B,false,Rx,1,8,00,00,00,00,00,00,00,00,
16117110,17F00044,true,Rx,0,8,20,44,00,00,00,00,00,80,
127425,00000570,false,Tx,0,1,FF,00,00,00,00,00,00,00,
16217064,0000038B,false,Rx,1,8,00,00,00,00,00,00,00,00,
16222267,1B000044,true,Rx,0,8,44,00,01,01,04,00,00,00,
241062,0000038B,false,Rx,1,8,00,00,00,00,00,00,00,00,
341066,0000038B,false,Rx,1,8,00,00,00,00,00,00,00,00,
346278,1B000044,true,Rx,0,8,44,00,01,01,04,00,00,00,
441071,0000038B,false,Rx,1,8,00,00,00,00,00,00,00,00,
541079,0000038B,false,Rx,1,8,00,00,00,00,00,00,00,00,
541147,17F00044,true,Rx,0,8,20,44,00,00,00,00,00,80,
541305,00000564,false,Rx,1,8,07,06,00,00,F9,27,37,00,
541844,0000067E,false,Rx,1,8,F6,03,00,00,3B,00,00,F0,
546284,1B000044,true,Rx,0,8,44,00,01,01,04,00,00,00,
641075,0000038B,false,Rx,1,8,00,00,00,00,00,00,00,00,
660546,00000570,false,Tx,0,1,FF,00,00,00,00,00,00,00,
741082,0000038B,false,Rx,1,8,00,00,00,00,00,00,00,00,
746285,1B000044,true,Rx,0,8,44,00,01,01,04,00,00,00,
841091,0000038B,false,Rx,1,8,00,00,00,00,00,00,00,00,
941084,0000038B,false,Rx,1,8,00,00,00,00,00,00,00,00,
946298,1B000044,true,Rx,0,8,44,00,01,01,04,00,00,00,
1041087,0000038B,false,Rx,1,8,00,00,00,00,00,00,00,00,
1041135,17F00044,true,Rx,0,8,20,44,00,00,00,00,00,80,
1141090,0000038B,false,Rx,1,8,00,00,00,00,00,00,00,00,
1146303,1B000044,true,Rx,0,8,44,00,01,01,04,00,00,00,
1186761,00000570,false,Tx,0,1,FF,00,00,00,00,00,00,00,
1241094,0000038B,false,Rx,1,8,00,00,00,00,00,00,00,00,
1341097,0000038B,false,Rx,1,8,00,00,00,00,00,00,00,00,
1346309,1B000044,true,Rx,0,8,44,00,01,01,04,00,00,00,
1441100,0000038B,false,Rx,1,8,00,00,00,00,00,00,00,00,
1541113,0000038B,false,Rx,1,8,00,00,00,00,00,00,00,00,
1541181,17F00044,true,Rx,0,8,20,44,00,00,00,00,00,80,
1541339,00000564,false,Rx,1,8,63,07,00,00,F9,27,37,00,
1541878,0000067E,false,Rx,1,8,E5,04,00,00,3B,00,00,F0,
1546318,1B000044,true,Rx,0,8,44,00,01,01,04,00,00,00,
1641110,0000038B,false,Rx,1,8,00,00,00,00,00,00,00,00,
1737658,00000570,false,Tx,0,1,FF,00,00,00,00,00,00,00,
1741110,0000038B,false,Rx,1,8,00,00,00,00,00,00,00,00,
1746322,1B000044,true,Rx,0,8,44,00,01,01,04,00,00,00,
1841115,0000038B,false,Rx,1,8,00,00,00,00,00,00,00,00,
1941119,0000038B,false,Rx,1,8,00,00,00,00,00,00,00,00,
1946332,1B000044,true,Rx,0,8,44,00,01,01,04,00,00,00,
2041125,0000038B,false,Rx,1,8,00,00,00,00,00,00,00,00,
2041173,17F00044,true,Rx,0,8,20,44,00,00,00,00,00,80,
2141133,0000038B,false,Rx,1,8,00,00,00,00,00,00,00,00,
2146336,1B000044,true,Rx,0,8,44,00,01,01,04,00,00,00,
2241130,0000038B,false,Rx,1,8,00,00,00,00,00,00,00,00,
2265462,00000570,false,Tx,0,1,FF,00,00,00,00,00,00,00,
2341134,0000038B,false,Rx,1,8,00,00,00,00,00,00,00,00,
2346347,1B000044,true,Rx,0,8,44,00,01,01,04,00,00,00,
2441143,0000038B,false,Rx,1,8,00,00,00,00,00,00,00,00,
2541138,0000038B,false,Rx,1,8,00,00,00,00,00,00,00,00,
2541216,17F00044,true,Rx,0,8,20,44,00,00,00,00,00,80,
2541365,00000564,false,Rx,1,8,21,08,00,00,F9,27,37,00,
2541914,0000067E,false,Rx,1,8,81,05,00,00,3B,00,00,F0,
2641145,0000038B,false,Rx,1,8,00,00,00,00,00,00,00,00,
2741153,0000038B,false,Rx,1,8,00,00,00,00,00,00,00,00,
2795423,00000570,false,Tx,0,1,FF,00,00,00,00,00,00,00,
2841148,0000038B,false,Rx,1,8,00,00,00,00,00,00,00,00,
2941151,0000038B,false,Rx,1,8,00,00,00,00,00,00,00,00,
3041159,0000038B,false,Rx,1,8,00,00,00,00,00,00,00,00,
3041206,17F00044,true,Rx,0,8,20,44,00,00,00,00,00,80,
3141164,0000038B,false,Rx,1,8,00,00,00,00,00,00,00,00,
3241162,0000038B,false,Rx,1,8,00,00,00,00,00,00,00,00,
3329769,00000570,false,Tx,0,1,FF,00,00,00,00,00,00,00,
3341168,0000038B,false,Rx,1,8,00,00,00,00,00,00,00,00,
3856095,00000570,false,Tx,0,1,FF,00,00,00,00,00,00,00,
4386290,00000570,false,Tx,0,1,FF,00,00,00,00,00,00,00,
4394707,17F00044,true,Rx,0,8,20,44,00,00,00,00,00,80,
4399850,1B000044,true,Rx,0,8,44,00,01,01,04,00,00,00,
4404643,0000038B,false,Rx,1,8,00,00,FE,00,00,00,00,00,
4404868,00000564,false,Rx,1,8,D3,73,FF,FE,FB,0F,FE,FE,
4405111,0000067E,false,Rx,1,8,D5,03,FE,01,3B,00,00,38,
4494646,0000038B,false,Rx,1,8,00,00,FE,00,00,00,00,00,
4509809,00000564,false,Rx,1,8,C0,74,FF,FE,FB,0F,FE,FE,
4594651,0000038B,false,Rx,1,8,00,00,FE,00,00,00,00,00,
4599845,1B000044,true,Rx,0,8,44,00,01,01,04,00,00,00,
4614654,00000564,false,Rx,1,8,A4,75,FF,FE,FB,0F,FE,FE,
4694653,0000038B,false,Rx,1,8,00,00,FE,00,00,00,00,00,
4719815,00000564,false,Rx,1,8,E4,76,FF,FE,FB,2F,FE,FE,
4794650,0000038B,false,Rx,1,8,00,00,FE,00,00,00,00,00,
4799862,1B000044,true,Rx,0,8,44,00,01,01,04,00,00,00,
4824668,00000564,false,Rx,1,8,80,77,FF,FE,FB,2F,FE,FE,
4894660,0000038B,false,Rx,1,8,00,00,00,00,00,00,00,00,
4894708,17F00044,true,Rx,0,8,20,44,00,00,00,00,00,80,
4913691,00000570,false,Tx,0,1,FF,00,00,00,00,00,00,00,
4929833,00000564,false,Rx,1,8,21,08,00,00,F9,27,37,00,
4994663,0000038B,false,Rx,1,8,00,00,00,00,00,00,00,00,
4999866,1B000044,true,Rx,0,8,44,00,01,01,04,00,00,00,
5034671,00000564,false,Rx,1,8,45,09,00,00,F9,27,37,00,
5094671,0000038B,false,Rx,1,8,00,00,00,00,00,00,00,00,
5139840,00000564,false,Rx,1,8,E9,0A,00,00,F9,27,37,00,
5194669,0000038B,false,Rx,1,8,00,00,00,00,00,00,00,00,
5199872,1B000044,true,Rx,0,8,44,00,01,01,04,00,00,00,
5244678,00000564,false,Rx,1,8,8D,0B,00,00,F9,27,37,00,
5294670,0000038B,false,Rx,1,8,00,00,00,00,00,00,00,00,
5349838,00000564,false,Rx,1,8,9E,0C,00,00,F9,27,37,00,
5394679,0000038B,false,Rx,1,8,00,00,00,00,00,00,00,00,
5394727,17F00044,true,Rx,0,8,20,44,00,00,00,00,00,80,
5394916,0000067E,false,Rx,1,8,19,04,00,00,3B,00,00,00,
5399874,1B000044,true,Rx,0,8,44,00,01,01,04,00,00,00,
5438669,00000570,false,Tx,0,1,FF,00,00,00,00,00,00,00,
5454691,00000564,false,Rx,1,8,FA,0D,00,00,F9,27,37,00,
5494678,0000038B,false,Rx,1,8,00,00,00,00,00,00,00,00,
5594684,0000038B,false,Rx,1,8,00,00,00,00,00,00,00,00,
5599887,1B000044,true,Rx,0,8,44,00,01,01,04,00,00,00,
5694690,0000038B,false,Rx,1,8,00,00,00,00,00,00,00,00,
5794686,0000038B,false,Rx,1,8,00,00,00,00,00,00,00,00,
5799888,1B000044,true,Rx,0,8,44,00,01,01,04,00,00,00,
5894689,0000038B,false,Rx,1,8,00,00,00,00,00,00,00,00,
5894737,17F00044,true,Rx,0,8,20,44,00,00,00,00,00,80,
5985140,00000570,false,Tx,0,1,FF,00,00,00,00,00,00,00,
5994696,0000038B,false,Rx,1,8,00,00,00,00,00,00,00,00,
5999900,1B000044,true,Rx,0,8,44,00,01,01,04,00,00,00,
6094695,0000038B,false,Rx,1,8,00,00,00,00,00,00,00,00,
6194709,0000038B,false,Rx,1,8,00,00,00,00,00,00,00,00,
6199900,1B000044,true,Rx,0,8,44,00,01,01,04,00,00,00,
6294704,0000038B,false,Rx,1,8,00,00,00,00,00,00,00,00,
6394714,0000038B,false,Rx,1,8,00,00,00,00,00,00,00,00,
6394782,17F00044,true,Rx,0,8,20,44,00,00,00,00,00,80,
6394940,00000564,false,Rx,1,8,56,0E,00,00,F9,27,37,00,
6395481,0000067E,false,Rx,1,8,81,05,00,00,3B,00,00,F0,
6399909,1B000044,true,Rx,0,8,44,00,01,01,04,00,00,00,
6494714,0000038B,false,Rx,1,8,00,00,00,00,00,00,00,00,
6514253,00000570,false,Tx,0,1,FF,00,00,00,00,00,00,00,
6594713,0000038B,false,Rx,1,8,00,00,00,00,00,00,00,00,
6599915,1B000044,true,Rx,0,8,44,00,01,01,04,00,00,00,
6694723,0000038B,false,Rx,1,8,00,00,00,00,00,00,00,00,
6794718,0000038B,false,Rx,1,8,00,00,00,00,00,00,00,00,
6799921,1B000044,true,Rx,0,8,44,00,01,01,04,00,00,00,
6894729,0000038B,false,Rx,1,8,00,00,00,00,00,00,00,00,
6894777,17F00044,true,Rx,0,8,20,44,00,00,00,00,00,80,
6994732,0000038B,false,Rx,1,8,00,00,00,00,00,00,00,00,
6999925,1B000044,true,Rx,0,8,44,00,01,01,04,00,00,00,
7043977,00000570,false,Tx,0,1,FF,00,00,00,00,00,00,00,
7094735,0000038B,false,Rx,1,8,00,00,00,00,00,00,00,00,
7194739,0000038B,false,Rx,1,8,00,00,00,00,00,00,00,00,
7199930,1B000044,true,Rx,0,8,44,00,01,01,04,00,00,00,
7294737,0000038B,false,Rx,1,8,00,00,00,00,00,00,00,00,
7394745,0000038B,false,Rx,1,8,00,00,00,00,00,00,00,00,
7394813,17F00044,true,Rx,0,8,20,44,00,00,00,00,00,80,
7394971,00000564,false,Rx,1,8,32,0F,00,00,F9,27,37,00,
7395511,0000067E,false,Rx,1,8,2D,06,00,00,3B,00,00,F0,
7399939,1B000044,true,Rx,0,8,44,00,01,01,04,00,00,00,
7494745,0000038B,false,Rx,1,8,00,00,00,00,00,00,00,00,
7576118,00000570,false,Tx,0,1,FF,00,00,00,00,00,00,00,
7594754,0000038B,false,Rx,1,8,00,00,00,00,00,00,00,00,
7599946,1B000044,true,Rx,0,8,44,00,01,01,04,00,00,00,
7694755,0000038B,false,Rx,1,8,00,00,00,00,00,00,00,00,
7794759,0000038B,false,Rx,1,8,00,00,00,00,00,00,00,00,
7799951,1B000044,true,Rx,0,8,44,00,01,01,04,00,00,00,
7894755,0000038B,false,Rx,1,8,00,00,00,00,00,00,00,00,
7894803,17F00044,true,Rx,0,8,20,44,00,00,00,00,00,80,
7994763,0000038B,false,Rx,1,8,00,00,00,00,00,00,00,00,
7999966,1B000044,true,Rx,0,8,44,00,01,01,04,00,00,00,
8094769,0000038B,false,Rx,1,8,00,00,00,00,00,00,00,00,
8101689,00000570,false,Tx,0,1,FF,00,00,00,00,00,00,00,
8194766,0000038B,false,Rx,1,8,00,00,00,00,00,00,00,00,
8199970,1B000044,true,Rx,0,8,44,00,01,01,04,00,00,00,
8294775,0000038B,false,Rx,1,8,00,00,00,00,00,00,00,00,
8394778,0000038B,false,Rx,1,8,00,00,00,00,00,00,00,00,
8394846,17F00044,true,Rx,0,8,20,44,00,00,00,00,00,80,
8395005,00000564,false,Rx,1,8,70,00,00,00,F9,27,37,00,
8395544,0000067E,false,Rx,1,8,49,07,00,00,3B,00,00,F0,
8494775,0000038B,false,Rx,1,8,00,00,00,00,00,00,00,00,
8594779,0000038B,false,Rx,1,8,00,00,00,00,00,00,00,00,
8632760,00000570,false,Tx,0,1,FF,00,00,00,00,00,00,00,
8694788,0000038B,false,Rx,1,8,00,00,00,00,00,00,00,00,
8794791,0000038B,false,Rx,1,8,00,00,00,00,00,00,00,00,
8894784,0000038B,false,Rx,1,8,00,00,00,00,00,00,00,00,
8894832,17F00044,true,Rx,0,8,20,44,00,00,00,00,00,80,
8994799,0000038B,false,Rx,1,8,00,00,00,00,00,00,00,00,
9094794,0000038B,false,Rx,1,8,00,00,00,00,00,00,00,00,
9166606,00000570,false,Tx,0,1,FF,00,00,00,00,00,00,00,
9194800,0000038B,false,Rx,1,8,00,00,00,00,00,00,00,00,
9693555,00000570,false,Tx,0,1,FF,00,00,00,00,00,00,00,
10223094,00000570,false,Tx,0,1,FF,00,00,00,00,00,00,00,
10248299,17F00044,true,Rx,0,8,20,44,00,00,00,00,00,80,
10253432,1B000044,true,Rx,0,8,44,00,01,01,04,00,00,00,
10308236,00000564,false,Rx,1,8,91,7C,FF,FE,FB,0F,FE,FE,
10348229,0000038B,false,Rx,1,8,00,00,FE,00,00,00,00,00,
10413410,00000564,false,Rx,1,8,F5,7D,FF,FE,FB,0F,FE,FE,
10448232,0000038B,false,Rx,1,8,00,00,FE,00,00,00,00,00,
10453434,1B000044,true,Rx,0,8,44,00,01,01,04,00,00,00,
10518244,00000564,false,Rx,1,8,B5,7E,FF,FE,FB,2F,FE,FE,
10548229,0000038B,false,Rx,1,8,00,00,FE,00,00,00,00,00,
10623401,00000564,false,Rx,1,8,D1,7F,FF,FE,FB,2F,FE,FE,
10648234,0000038B,false,Rx,1,8,00,00,FE,00,00,00,00,00,
10653437,1B000044,true,Rx,0,8,44,00,01,01,04,00,00,00,
10728246,00000564,false,Rx,1,8,93,70,FF,FE,FB,2F,FE,FE,
10748243,0000038B,false,Rx,1,8,00,00,00,00,00,00,00,00,
10748291,17F00044,true,Rx,0,8,20,44,00,00,00,00,00,80,
10752517,00000570,false,Tx,0,1,FF,00,00,00,00,00,00,00,
10833427,00000564,false,Rx,1,8,40,01,00,01,F9,27,37,00,
10848244,0000038B,false,Rx,1,8,00,00,00,00,00,00,00,00,
10853447,1B000044,true,Rx,0,8,44,00,01,01,04,00,00,00,
10938261,00000564,false,Rx,1,8,EC,02,00,01,F9,27,37,00,
10948251,0000038B,false,Rx,1,8,00,00,00,00,00,00,00,00,
11043418,00000564,false,Rx,1,8,88,03,00,01,F9,27,37,00,
11048257,0000038B,false,Rx,1,8,00,00,00,00,00,00,00,00,
11053449,1B000044,true,Rx,0,8,44,00,01,01,04,00,00,00,
11148255,0000038B,false,Rx,1,8,00,00,00,00,00,00,00,00,
11148481,00000564,false,Rx,1,8,9B,04,00,01,F9,27,37,00,
11248264,0000038B,false,Rx,1,8,00,00,00,00,00,00,00,00,
11248312,17F00044,true,Rx,0,8,20,44,00,00,00,00,00,80,
11248490,0000067E,false,Rx,1,8,6E,02,00,00,3B,00,00,00,
11253445,00000564,false,Rx,1,8,FF,05,00,01,F9,27,37,00,
11253488,1B000044,true,Rx,0,8,44,00,01,01,04,00,00,00,
11287399,00000570,false,Tx,0,1,FF,00,00,00,00,00,00,00,
11348264,0000038B,false,Rx,1,8,00,00,00,00,00,00,00,00,
11448267,0000038B,false,Rx,1,8,00,00,00,00,00,00,00,00,
11453469,1B000044,true,Rx,0,8,44,00,01,01,04,00,00,00,
11548273,0000038B,false,Rx,1,8,00,00,00,00,00,00,00,00,
11648269,0000038B,false,Rx,1,8,00,00,00,00,00,00,00,00,
11653472,1B000044,true,Rx,0,8,44,00,01,01,04,00,00,00,
11748276,0000038B,false,Rx,1,8,00,00,00,00,00,00,00,00,
11748324,17F00044,true,Rx,0,8,20,44,00,00,00,00,00,80,
11821439,00000570,false,Tx,0,1,FF,00,00,00,00,00,00,00,
11848277,0000038B,false,Rx,1,8,00,00,00,00,00,00,00,00,
11853479,1B000044,true,Rx,0,8,44,00,01,01,04,00,00,00,
11948287,0000038B,false,Rx,1,8,00,00,00,00,00,00,00,00,
12048285,0000038B,false,Rx,1,8,00,00,00,00,00,00,00,00,
12053487,1B000044,true,Rx,0,8,44,00,01,01,04,00,00,00,
12148289,0000038B,false,Rx,1,8,00,00,00,00,00,00,00,00,
12248292,0000038B,false,Rx,1,8,00,00,00,00,00,00,00,00,
12248360,17F00044,true,Rx,0,8,20,44,00,00,00,00,00,80,
12248518,00000564,false,Rx,1,8,53,06,00,01,F9,27,37,00,
12249059,0000067E,false,Rx,1,8,F6,03,00,00,3B,00,00,F0,
12253497,1B000044,true,Rx,0,8,44,00,01,01,04,00,00,00,
12348298,0000038B,false,Rx,1,8,00,00,00,00,00,00,00,00,
12358325,00000570,false,Tx,0,1,FF,00,00,00,00,00,00,00,
12448292,0000038B,false,Rx,1,8,00,00,00,00,00,00,00,00,
12453495,1B000044,true,Rx,0,8,44,00,01,01,04,00,00,00,
12548300,0000038B,false,Rx,1,8,00,00,00,00,00,00,00,00,
12648304,0000038B,false,Rx,1,8,00,00,00,00,00,00,00,00,
12653506,1B000044,true,Rx,0,8,44,00,01,01,04,00,00,00,
12748312,0000038B,false,Rx,1,8,00,00,00,00,00,00,00,00,
12748360,17F00044,true,Rx,0,8,20,44,00,00,00,00,00,80,
12848307,0000038B,false,Rx,1,8,00,00,00,00,00,00,00,00,
12853510,1B000044,true,Rx,0,8,44,00,01,01,04,00,00,00,
12897161,00000570,false,Tx,0,1,FF,00,00,00,00,00,00,00,
12948316,0000038B,false,Rx,1,8,00,00,00,00,00,00,00,00,
13048321,0000038B,false,Rx,1,8,00,00,00,00,00,00,00,00,
13053523,1B000044,true,Rx,0,8,44,00,01,01,04,00,00,00,
13148324,0000038B,false,Rx,1,8,00,00,00,00,00,00,00,00,
13248320,0000038B,false,Rx,1,8,00,00,00,00,00,00,00,00,
13248398,17F00044,true,Rx,0,8,20,44,00,00,00,00,00,80,
13248556,00000564,false,Rx,1,8,37,07,00,01,F9,27,37,00,
13249097,0000067E,false,Rx,1,8,E5,04,00,00,3B,00,00,F0,
13253524,1B000044,true,Rx,0,8,44,00,01,01,04,00,00,00,
13348330,0000038B,false,Rx,1,8,00,00,00,00,00,00,00,00,
13434490,00000570,false,Tx,0,1,FF,00,00,00,00,00,00,00,
13448326,0000038B,false,Rx,1,8,00,00,00,00,00,00,00,00,
13453528,1B000044,true,Rx,0,8,44,00,01,01,04,00,00,00,
13548337,0000038B,false,Rx,1,8,00,00,00,00,00,00,00,00,
13648331,0000038B,false,Rx,1,8,00,00,00,00,00,00,00,00,
13653534,1B000044,true,Rx,0,8,44,00,01,01,04,00,00,00,
13748338,0000038B,false,Rx,1,8,00,00,00,00,00,00,00,00,
13748386,17F00044,true,Rx,0,8,20,44,00,00,00,00,00,80,
13848341,0000038B,false,Rx,1,8,00,00,00,00,00,00,00,00,
13853544,1B000044,true,Rx,0,8,44,00,01,01,04,00,00,00,
13948340,0000038B,false,Rx,1,8,00,00,00,00,00,00,00,00,
13989991,00000570,false,Tx,0,1,FF,00,00,00,00,00,00,00,
14048349,0000038B,false,Rx,1,8,00,00,00,00,00,00,00,00,
14053551,1B000044,true,Rx,0,8,44,00,01,01,04,00,00,00,
14148347,0000038B,false,Rx,1,8,00,00,00,00,00,00,00,00,
14248360,0000038B,false,Rx,1,8,00,00,00,00,00,00,00,00,
14248428,17F00044,true,Rx,0,8,20,44,00,00,00,00,00,80,
14248586,00000564,false,Rx,1,8,75,08,00,01,F9,27,37,00,
14249127,0000067E,false,Rx,1,8,81,05,00,00,3B,00,00,F0,
14348353,0000038B,false,Rx,1,8,00,00,00,00,00,00,00,00,
14448367,0000038B,false,Rx,1,8,00,00,00,00,00,00,00,00,
14520971,00000570,false,Tx,0,1,FF,00,00,00,00,00,00,00,
14548365,0000038B,false,Rx,1,8,00,00,00,00,00,00,00,00,
14648368,0000038B,false,Rx,1,8,00,00,00,00,00,00,00,00,
14748367,0000038B,false,Rx,1,8,00,00,00,00,00,00,00,00,
14748415,17F00044,true,Rx,0,8,20,44,00,00,00,00,00,80,
14848372,0000038B,false,Rx,1,8,00,00,00,00,00,00,00,00,
14948377,0000038B,false,Rx,1,8,00,00,00,00,00,00,00,00,
15048382,0000038B,false,Rx,1,8,00,00,00,00,00,00,00,00,
15064579,00000570,false,Tx,0,1,FF,00,00,00,00,00,00,00,
15603487,00000570,false,Tx,0,1,FF,00,00,00,00,00,00,00,
16138826,00000570,false,Tx,0,1,FF,00,00,00,00,00,00,00,
16161870,17F00044,true,Rx,0,8,20,44,00,00,00,00,00,80,
16167014,1B000044,true,Rx,0,8,44,00,01,01,04,00,00,00,
16221807,00000564,false,Rx,1,8,91,7C,FF,FE,FB,0F,FE,FE,
16261799,0000038B,false,Rx,1,8,00,00,FE,00,00,00,00,00,
16326961,00000564,false,Rx,1,8,F5,7D,FF,FE,FB,0F,FE,FE,
16361792,0000038B,false,Rx,1,8,00,00,FE,00,00,00,00,00,
16367006,1B000044,true,Rx,0,8,44,00,01,01,04,00,00,00,
16431814,00000564,false,Rx,1,8,B5,7E,FF,FE,FB,2F,FE,FE,
16461800,0000038B,false,Rx,1,8,00,00,FE,00,00,00,00,00,
16536977,00000564,false,Rx,1,8,D1,7F,FF,FE,FB,2F,FE,FE,
16561801,0000038B,false,Rx,1,8,00,00,FE,00,00,00,00,00,
16567015,1B000044,true,Rx,0,8,44,00,01,01,04,00,00,00,
16641811,00000564,false,Rx,1,8,93,70,FF,FE,FB,2F,FE,FE,
16661810,0000038B,false,Rx,1,8,00,00,00,00,00,00,00,00,
16661857,17F00044,true,Rx,0,8,20,44,00,00,00,00,00,80,
16671193,00000570,false,Tx,0,1,FF,00,00,00,00,00,00,00,
16746984,00000564,false,Rx,1,8,40,01,00,01,F9,27,37,00,
16761810,0000038B,false,Rx,1,8,00,00,00,00,00,00,00,00,
16767024,1B000044,true,Rx,0,8,44,00,01,01,04,00,00,00,
16851825,00000564,false,Rx,1,8,EC,02,00,01,F9,27,37,00,
16861815,0000038B,false,Rx,1,8,00,00,00,00,00,00,00,00,
16956982,00000564,false,Rx,1,8,88,03,00,01,F9,27,37,00,
16961821,0000038B,false,Rx,1,8,00,00,00,00,00,00,00,00,
16967026,1B000044,true,Rx,0,8,44,00,01,01,04,00,00,00,
17061828,0000038B,false,Rx,1,8,00,00,00,00,00,00,00,00,
17062055,00000564,false,Rx,1,8,9B,04,00,01,F9,27,37,00,
17161832,0000038B,false,Rx,1,8,00,00,00,00,00,00,00,00,
17161880,17F00044,true,Rx,0,8,20,44,00,00,00,00,00,80,
17162059,0000067E,false,Rx,1,8,6E,02,00,00,3B,00,00,00,
17167023,00000564,false,Rx,1,8,FF,05,00,01,F9,27,37,00,
17167065,1B000044,true,Rx,0,8,44,00,01,01,04,00,00,00,
17207366,00000570,false,Tx,0,1,FF,00,00,00,00,00,00,00,
17261835,0000038B,false,Rx,1,8,00,00,00,00,00,00,00,00,
17361838,0000038B,false,Rx,1,8,00,00,00,00,00,00,00,00,
17367042,1B000044,true,Rx,0,8,44,00,01,01,04,00,00,00,
17461833,0000038B,false,Rx,1,8,00,00,00,00,00,00,00,00,
17561840,0000038B,false,Rx,1,8,00,00,00,00,00,00,00,00,
17567043,1B000044,true,Rx,0,8,44,00,01,01,04,00,00,00,
17661848,0000038B,false,Rx,1,8,00,00,00,00,00,00,00,00,
17661896,17F00044,true,Rx,0,8,20,44,00,00,00,00,00,80,
17746612,00000570,false,Tx,0,1,FF,00,00,00,00,00,00,00,
17761843,0000038B,false,Rx,1,8,00,00,00,00,00,00,00,00,
17767057,1B000044,true,Rx,0,8,44,00,01,01,04,00,00,00,
17861848,0000038B,false,Rx,1,8,00,00,00,00,00,00,00,00,
17961851,0000038B,false,Rx,1,8,00,00,00,00,00,00,00,00,
17967057,1B000044,true,Rx,0,8,44,00,01,01,04,00,00,00,
18061861,0000038B,false,Rx,1,8,00,00,00,00,00,00,00,00,
18161855,0000038B,false,Rx,1,8,00,00,00,00,00,00,00,00,
18161933,17F00044,true,Rx,0,8,20,44,00,00,00,00,00,80,
18162082,00000564,false,Rx,1,8,53,06,00,01,F9,27,37,00,
18162622,0000067E,false,Rx,1,8,F6,03,00,00,3B,00,00,F0,
18167072,1B000044,true,Rx,0,8,44,00,01,01,04,00,00,00,
18261860,0000038B,false,Rx,1,8,00,00,00,00,00,00,00,00,
18277705,00000570,false,Tx,0,1,FF,00,00,00,00,00,00,00,
18361861,0000038B,false,Rx,1,8,00,00,00,00,00,00,00,00,
18367075,1B000044,true,Rx,0,8,44,00,01,01,04,00,00,00,
18461868,0000038B,false,Rx,1,8,00,00,00,00,00,00,00,00,
18561868,0000038B,false,Rx,1,8,00,00,00,00,00,00,00,00,
18567081,1B000044,true,Rx,0,8,44,00,01,01,04,00,00,00,
18661873,0000038B,false,Rx,1,8,00,00,00,00,00,00,00,00,
18661921,17F00044,true,Rx,0,8,20,44,00,00,00,00,00,80,
18761881,0000038B,false,Rx,1,8,00,00,00,00,00,00,00,00,
18767085,1B000044,true,Rx,0,8,44,00,01,01,04,00,00,00,
18817022,00000570,false,Tx,0,1,FF,00,00,00,00,00,00,00,
18861876,0000038B,false,Rx,1,8,00,00,00,00,00,00,00,00,
18961879,0000038B,false,Rx,1,8,00,00,00,00,00,00,00,00,
18967095,1B000044,true,Rx,0,8,44,00,01,01,04,00,00,00,
19061888,0000038B,false,Rx,1,8,00,00,00,00,00,00,00,00,
19161893,0000038B,false,Rx,1,8,00,00,00,00,00,00,00,00,
19161962,17F00044,true,Rx,0,8,20,44,00,00,00,00,00,80,
19162121,00000564,false,Rx,1,8,37,07,00,01,F9,27,37,00,
19162660,0000067E,false,Rx,1,8,E5,04,00,00,3B,00,00,F0,
19167099,1B000044,true,Rx,0,8,44,00,01,01,04,00,00,00,
19261891,0000038B,false,Rx,1,8,00,00,00,00,00,00,00,00,
19354985,00000570,false,Tx,0,1,FF,00,00,00,00,00,00,00,
19361896,0000038B,false,Rx,1,8,00,00,00,00,00,00,00,00,
19367100,1B000044,true,Rx,0,8,44,00,01,01,04,00,00,00,
19461895,0000038B,false,Rx,1,8,00,00,00,00,00,00,00,00,
19561903,0000038B,false,Rx,1,8,00,00,00,00,00,00,00,00,
19567107,1B000044,true,Rx,0,8,44,00,01,01,04,00,00,00,
19661901,0000038B,false,Rx,1,8,00,00,00,00,00,00,00,00,
19661949,17F00044,true,Rx,0,8,20,44,00,00,00,00,00,80,
19761907,0000038B,false,Rx,1,8,00,00,00,00,00,00,00,00,
19767121,1B000044,true,Rx,0,8,44,00,01,01,04,00,00,00,
19861911,0000038B,false,Rx,1,8,00,00,00,00,00,00,00,00,
19892955,00000570,false,Tx,0,1,FF,00,00,00,00,00,00,00,
19961911,0000038B,false,Rx,1,8,00,00,00,00,00,00,00,00,
19967126,1B000044,true,Rx,0,8,44,00,01,01,04,00,00,00,
20061918,0000038B,false,Rx,1,8,00,00,00,00,00,00,00,00,
20161921,0000038B,false,Rx,1,8,00,00,00,00,00,00,00,00,
20161989,17F00044,true,Rx,0,8,20,44,00,00,00,00,00,80,
20162149,00000564,false,Rx,1,8,75,08,00,01,F9,27,37,00,
20162688,0000067E,false,Rx,1,8,81,05,00,00,3B,00,00,F0,
20261924,0000038B,false,Rx,1,8,00,00,00,00,00,00,00,00,
20361927,0000038B,false,Rx,1,8,00,00,00,00,00,00,00,00,
20426554,00000570,false,Tx,0,1,FF,00,00,00,00,00,00,00,
20461934,0000038B,false,Rx,1,8,00,00,00,00,00,00,00,00,
20561937,0000038B,false,Rx,1,8,00,00,00,00,00,00,00,00,
20661932,0000038B,false,Rx,1,8,00,00,00,00,00,00,00,00,
20661980,17F00044,true,Rx,0,8,20,44,00,00,00,00,00,80,
20761942,0000038B,false,Rx,1,8,00,00,00,00,00,00,00,00,
20861946,0000038B,false,Rx,1,8,00,00,00,00,00,00,00,00,
20961949,0000038B,false,Rx,1,8,00,00,00,00,00,00,00,00,
20968733,00000570,false,Tx,0,1,FF,00,00,00,00,00,00,00,
21504742,00000570,false,Tx,0,1,FF,00,00,00,00,00,00,00,
22046609,00000570,false,Tx,0,1,FF,00,00,00,00,00,00,00,
22055416,17F00044,true,Rx,0,8,20,44,00,00,00,00,00,80,
22060547,1B000044,true,Rx,0,8,44,00,01,01,04,00,00,00,
22065340,0000038B,false,Rx,1,8,00,00,FE,00,00,00,00,00,
22065576,00000564,false,Rx,1,8,D3,73,FF,FE,FB,0F,FE,FE,
22065807,0000067E,false,Rx,1,8,D5,03,FE,01,3B,00,00,38,
22155346,0000038B,false,Rx,1,8,00,00,FE,00,00,00,00,00,
22170507,00000564,false,Rx,1,8,C0,74,FF,FE,FB,0F,FE,FE,
22255352,0000038B,false,Rx,1,8,00,00,FE,00,00,00,00,00,
22260555,1B000044,true,Rx,0,8,44,00,01,01,04,00,00,00,
22275362,00000564,false,Rx,1,8,A4,75,FF,FE,FB,0F,FE,FE,
22355352,0000038B,false,Rx,1,8,00,00,FE,00,00,00,00,00,
22380522,00000564,false,Rx,1,8,E4,76,FF,FE,FB,2F,FE,FE,
22455358,0000038B,false,Rx,1,8,00,00,FE,00,00,00,00,00,
22460561,1B000044,true,Rx,0,8,44,00,01,01,04,00,00,00,
22485368,00000564,false,Rx,1,8,80,77,FF,FE,FB,2F,FE,FE,
22555358,0000038B,false,Rx,1,8,00,00,00,00,00,00,00,00,
22555407,17F00044,true,Rx,0,8,20,44,00,00,00,00,00,80,
22579870,00000570,false,Tx,0,1,FF,00,00,00,00,00,00,00,
22590540,00000564,false,Rx,1,8,21,08,00,00,F9,27,37,00,
22655362,0000038B,false,Rx,1,8,00,00,00,00,00,00,00,00,
22660564,1B000044,true,Rx,0,8,44,00,01,01,04,00,00,00,
22695370,00000564,false,Rx,1,8,11,09,00,01,F9,27,37,00,
22755371,0000038B,false,Rx,1,8,00,00,00,00,00,00,00,00,
22800537,00000564,false,Rx,1,8,BD,0A,00,01,F9,27,37,00,
22855368,0000038B,false,Rx,1,8,00,00,00,00,00,00,00,00,
22860571,1B000044,true,Rx,0,8,44,00,01,01,04,00,00,00,
22905373,00000564,false,Rx,1,8,D9,0B,00,01,F9,27,37,00,
22955377,0000038B,false,Rx,1,8,00,00,00,00,00,00,00,00,
23010545,00000564,false,Rx,1,8,CA,0C,00,01,F9,27,37,00,
23055378,0000038B,false,Rx,1,8,00,00,00,00,00,00,00,00,
23055426,17F00044,true,Rx,0,8,20,44,00,00,00,00,00,80,
23055614,0000067E,false,Rx,1,8,19,04,00,00,3B,00,00,00,
23060580,1B000044,true,Rx,0,8,44,00,01,01,04,00,00,00,
23113864,00000570,false,Tx,0,1,FF,00,00,00,00,00,00,00,
23115379,00000564,false,Rx,1,8,AE,0D,00,01,F9,27,37,00,
23155375,0000038B,false,Rx,1,8,00,00,00,00,00,00,00,00,
23255383,0000038B,false,Rx,1,8,00,00,00,00,00,00,00,00,
23260586,1B000044,true,Rx,0,8,44,00,01,01,04,00,00,00,
23355389,0000038B,false,Rx,1,8,00,00,00,00,00,00,00,00,
23455392,0000038B,false,Rx,1,8,00,00,00,00,00,00,00,00,
23460595,1B000044,true,Rx,0,8,44,00,01,01,04,00,00,00,
23555392,0000038B,false,Rx,1,8,00,00,00,00,00,00,00,00,
23555440,17F00044,true,Rx,0,8,20,44,00,00,00,00,00,80,
23653557,00000570,false,Tx,0,1,FF,00,00,00,00,00,00,00,
23655393,0000038B,false,Rx,1,8,00,00,00,00,00,00,00,00,
23660596,1B000044,true,Rx,0,8,44,00,01,01,04,00,00,00,
23755398,0000038B,false,Rx,1,8,00,00,00,00,00,00,00,00,
23855401,0000038B,false,Rx,1,8,00,00,00,00,00,00,00,00,
23860604,1B000044,true,Rx,0,8,44,00,01,01,04,00,00,00,
23955407,0000038B,false,Rx,1,8,00,00,00,00,00,00,00,00,
24055405,0000038B,false,Rx,1,8,00,00,00,00,00,00,00,00,
24055483,17F00044,true,Rx,0,8,20,44,00,00,00,00,00,80,
24055641,00000564,false,Rx,1,8,02,0E,00,01,F9,27,37,00,
24056182,0000067E,false,Rx,1,8,81,05,00,00,3B,00,00,F0,
24060608,1B000044,true,Rx,0,8,44,00,01,01,04,00,00,00,
24155412,0000038B,false,Rx,1,8,00,00,00,00,00,00,00,00,
24192323,00000570,false,Tx,0,1,FF,00,00,00,00,00,00,00,
24255419,0000038B,false,Rx,1,8,00,00,00,00,00,00,00,00,
24260612,1B000044,true,Rx,0,8,44,00,01,01,04,00,00,00,
24355414,0000038B,false,Rx,1,8,00,00,00,00,00,00,00,00,
24455420,0000038B,false,Rx,1,8,00,00,00,00,00,00,00,00,
24460622,1B000044,true,Rx,0,8,44,00,01,01,04,00,00,00,
24555428,0000038B,false,Rx,1,8,00,00,00,00,00,00,00,00,
24555476,17F00044,true,Rx,0,8,20,44,00,00,00,00,00,80,
24655425,0000038B,false,Rx,1,8,00,00,00,00,00,00,00,00,
24660629,1B000044,true,Rx,0,8,44,00,01,01,04,00,00,00,
24735463,00000570,false,Tx,0,1,FF,00,00,00,00,00,00,00,
24755426,0000038B,false,Rx,1,8,00,00,00,00,00,00,00,00,
24855429,0000038B,false,Rx,1,8,00,00,00,00,00,00,00,00,
24860632,1B000044,true,Rx,0,8,44,00,01,01,04,00,00,00,
24955440,0000038B,false,Rx,1,8,00,00,00,00,00,00,00,00,
25055443,0000038B,false,Rx,1,8,00,00,00,00,00,00,00,00,
25055511,17F00044,true,Rx,0,8,20,44,00,00,00,00,00,80,
25055669,00000564,false,Rx,1,8,66,0F,00,01,F9,27,37,00,
25056210,0000067E,false,Rx,1,8,2D,06,00,00,3B,00,00,F0,
25060637,1B000044,true,Rx,0,8,44,00,01,01,04,00,00,00,
25155441,0000038B,false,Rx,1,8,00,00,00,00,00,00,00,00,
25255444,0000038B,false,Rx,1,8,00,00,00,00,00,00,00,00,
25260647,1B000044,true,Rx,0,8,44,00,01,01,04,00,00,00,
25355452,0000038B,false,Rx,1,8,00,00,00,00,00,00,00,00,
25455446,0000038B,false,Rx,1,8,00,00,00,00,00,00,00,00,
25460658,1B000044,true,Rx,0,8,44,00,01,01,04,00,00,00,
25467567,00000570,false,Tx,0,1,FF,00,00,00,00,00,00,00,
25555456,0000038B,false,Rx,1,8,00,00,00,00,00,00,00,00,
25555504,17F00044,true,Rx,0,8,20,44,00,00,00,00,00,80,
25655454,0000038B,false,Rx,1,8,00,00,00,00,00,00,00,00,
25660656,1B000044,true,Rx,0,8,44,00,01,01,04,00,00,00,
25755460,0000038B,false,Rx,1,8,00,00,00,00,00,00,00,00,
25855461,0000038B,false,Rx,1,8,00,00,00,00,00,00,00,00,
25860662,1B000044,true,Rx,0,8,44,00,01,01,04,00,00,00,
25955468,0000038B,false,Rx,1,8,00,00,00,00,00,00,00,00,
25994866,00000570,false,Tx,0,1,FF,00,00,00,00,00,00,00,
26055466,0000038B,false,Rx,1,8,00,00,00,00,00,00,00,00,
26055544,17F00044,true,Rx,0,8,20,44,00,00,00,00,00,80,
26055702,00000564,false,Rx,1,8,24,00,00,01,F9,27,37,00,
26056243,0000067E,false,Rx,1,8,49,07,00,00,3B,00,00,F0,
26155472,0000038B,false,Rx,1,8,00,00,00,00,00,00,00,00,
26255472,0000038B,false,Rx,1,8,00,00,00,00,00,00,00,00,
26355476,0000038B,false,Rx,1,8,00,00,00,00,00,00,00,00,
26455479,0000038B,false,Rx,1,8,00,00,00,00,00,00,00,00,
26528237,00000570,false,Tx,0,1,FF,00,00,00,00,00,00,00,
26555487,0000038B,false,Rx,1,8,00,00,00,00,00,00,00,00,
26555534,17F00044,true,Rx,0,8,20,44,00,00,00,00,00,80,
26655490,0000038B,false,Rx,1,8,00,00,00,00,00,00,00,00,
26755490,0000038B,false,Rx,1,8,00,00,00,00,00,00,00,00,
26855495,0000038B,false,Rx,1,8,00,00,00,00,00,00,00,00,
27060575,00000570,false,Tx,0,1,FF,00,00,00,00,00,00,00,
27593023,00000570,false,Tx,0,1,FF,00,00,00,00,00,00,00,
28124752,00000570,false,Tx,0,1,FF,00,00,00,00,00,00,00,
28149057,17F00044,true,Rx,0,8,20,44,00,00,00,00,00,80,
28154191,1B000044,true,Rx,0,8,44,00,01,01,04,00,00,00,
28208993,00000564,false,Rx,1,8,91,7C,FF,FE,FB,0F,FE,FE,
28248980,0000038B,false,Rx,1,8,00,00,FE,00,00,00,00,00,
28314155,00000564,false,Rx,1,8,F5,7D,FF,FE,FB,0F,FE,FE,
28348985,0000038B,false,Rx,1,8,00,00,FE,00,00,00,00,00,
28354189,1B000044,true,Rx,0,8,44,00,01,01,04,00,00,00,
28418998,00000564,false,Rx,1,8,B5,7E,FF,FE,FB,2F,FE,FE,
28448985,0000038B,false,Rx,1,8,00,00,FE,00,00,00,00,00,
28524158,00000564,false,Rx,1,8,D1,7F,FF,FE,FB,2F,FE,FE,
28548992,0000038B,false,Rx,1,8,00,00,FE,00,00,00,00,00,
28554195,1B000044,true,Rx,0,8,44,00,01,01,04,00,00,00,
28629005,00000564,false,Rx,1,8,93,70,FF,FE,FB,2F,FE,FE,
28648520,00000570,false,Tx,0,1,FF,00,00,00,00,00,00,00,
28648995,0000038B,false,Rx,1,8,00,00,00,00,00,00,00,00,
28649044,17F00044,true,Rx,0,8,20,44,00,00,00,00,00,80,
28734180,00000564,false,Rx,1,8,40,01,00,01,F9,27,37,00,
28749005,0000038B,false,Rx,1,8,00,00,00,00,00,00,00,00,
28754199,1B000044,true,Rx,0,8,44,00,01,01,04,00,00,00,
28839014,00000564,false,Rx,1,8,EC,02,00,01,F9,27,37,00,
28849003,0000038B,false,Rx,1,8,00,00,00,00,00,00,00,00,
28944179,00000564,false,Rx,1,8,88,03,00,01,F9,27,37,00,
28949008,0000038B,false,Rx,1,8,00,00,00,00,00,00,00,00,
28954210,1B000044,true,Rx,0,8,44,00,01,01,04,00,00,00,
29049014,0000038B,false,Rx,1,8,00,00,00,00,00,00,00,00,
29049238,00000564,false,Rx,1,8,9B,04,00,01,F9,27,37,00,
29149019,0000038B,false,Rx,1,8,00,00,00,00,00,00,00,00,
29149067,17F00044,true,Rx,0,8,20,44,00,00,00,00,00,80,
29149245,0000067E,false,Rx,1,8,6E,02,00,00,3B,00,00,00,
29154201,00000564,false,Rx,1,8,FF,05,00,01,F9,27,37,00,
29154242,1B000044,true,Rx,0,8,44,00,01,01,04,00,00,00,
29183032,00000570,false,Tx,0,1,FF,00,00,00,00,00,00,00,
29249022,0000038B,false,Rx,1,8,00,00,00,00,00,00,00,00,
29349026,0000038B,false,Rx,1,8,00,00,00,00,00,00,00,00,
29354219,1B000044,true,Rx,0,8,44,00,01,01,04,00,00,00,
29449025,0000038B,false,Rx,1,8,00,00,00,00,00,00,00,00,
29549033,0000038B,false,Rx,1,8,00,00,00,00,00,00,00,00,
29554226,1B000044,true,Rx,0,8,44,00,01,01,04,00,00,00,
29649031,0000038B,false,Rx,1,8,00,00,00,00,00,00,00,00,
29649079,17F00044,true,Rx,0,8,20,44,00,00,00,00,00,80,
29729954,00000570,false,Tx,0,1,FF,00,00,00,00,00,00,00,
29749034,0000038B,false,Rx,1,8,00,00,00,00,00,00,00,00,
29754237,1B000044,true,Rx,0,8,44,00,01,01,04,00,00,00,
29849041,0000038B,false,Rx,1,8,00,00,00,00,00,00,00,00,
29949036,0000038B,false,Rx,1,8,00,00,00,00,00,00,00,00,
29954237,1B000044,true,Rx,0,8,44,00,01,01,04,00,00,00,
30049044,0000038B,false,Rx,1,8,00,00,00,00,00,00,00,00,
30149047,0000038B,false,Rx,1,8,00,00,00,00,00,00,00,00,
30149115,17F00044,true,Rx,0,8,20,44,00,00,00,00,00,80,
30149273,00000564,false,Rx,1,8,53,06,00,01,F9,27,37,00,
30149812,0000067E,false,Rx,1,8,F6,03,00,00,3B,00,00,F0,
30154250,1B000044,true,Rx,0,8,44,00,01,01,04,00,00,00,
30249047,0000038B,false,Rx,1,8,00,00,00,00,00,00,00,00,
30251034,00000570,false,Tx,0,1,FF,00,00,00,00,00,00,00,
30349049,0000038B,false,Rx,1,8,00,00,00,00,00,00,00,00,
30354250,1B000044,true,Rx,0,8,44,00,01,01,04,00,00,00,
30449055,0000038B,false,Rx,1,8,00,00,00,00,00,00,00,00,
30549058,0000038B,false,Rx,1,8,00,00,00,00,00,00,00,00,
30554261,1B000044,true,Rx,0,8,44,00,01,01,04,00,00,00,
30649060,0000038B,false,Rx,1,8,00,00,00,00,00,00,00,00,
30649108,17F00044,true,Rx,0,8,20,44,00,00,00,00,00,80,
30749067,0000038B,false,Rx,1,8,00,00,00,00,00,00,00,00,
30754260,1B000044,true,Rx,0,8,44,00,01,01,04,00,00,00,
