Time Stamp,ID,Extended,Dir,Bus,LEN,D1,D2,D3,D4,D5,D6,D7,D8
3151388,00000566,false,Rx,0,8,A4,09,FE,01,FB,07,00,00,
3236234,0000038B,false,Rx,0,8,FE,01,00,BC,F2,CA,AB,7F,
3241465,1B000044,true,Rx,0,8,44,00,44,01,00,00,00,00,
3251420,00000566,false,Rx,0,8,EB,0A,FE,01,FB,07,00,00,
3336270,0000038B,false,Rx,0,8,FE,01,00,BC,F2,CA,AB,7F,
3351449,00000566,false,Rx,0,8,66,0B,FE,01,FB,07,00,00,
3436306,0000038B,false,Rx,0,8,FE,01,00,BC,F2,CA,AB,7F,
3441556,1B000044,true,Rx,0,8,44,00,44,01,00,00,00,00,
3451490,00000566,false,Rx,0,8,A7,0C,FE,01,FB,07,00,00,
3536337,0000038B,false,Rx,0,8,FE,01,00,BC,F2,CA,AB,7F,
3551526,00000566,false,Rx,0,8,00,0D,FE,01,FB,07,00,00,
3636374,0000038B,false,Rx,0,8,FE,01,00,BC,F2,CA,AB,7F,
3636669,12DD5472,true,Rx,0,8,00,00,00,00,00,00,00,00,
3636909,00000565,false,Rx,0,8,00,50,00,15,0C,08,80,FF,
3637149,00000594,false,Rx,0,8,00,00,00,00,00,10,30,09,
3637449,17F00044,true,Rx,0,8,20,44,00,00,00,00,00,80,
3637687,0000067E,false,Rx,0,8,A5,04,16,00,3B,00,00,00,
3637958,1A555457,true,Rx,0,8,83,4B,59,46,41,2B,00,00,
3638238,1A555490,true,Rx,0,8,0A,00,00,14,02,00,20,00,
3638527,1A555491,true,Rx,0,8,00,59,A8,00,00,00,00,80,
3641595,1B000044,true,Rx,0,8,44,00,44,01,00,00,00,00,
3651556,00000566,false,Rx,0,8,9E,0E,FE,01,FB,07,00,00,
3736404,0000038B,false,Rx,0,8,FE,01,00,BC,F2,CA,AB,7F,
3751605,00000566,false,Rx,0,8,63,0F,FE,01,FB,07,00,00,
3836440,0000038B,false,Rx,0,8,FE,01,00,BC,F2,CA,AB,7F,
3841690,1B000044,true,Rx,0,8,44,00,44,01,00,00,00,00,
3851645,00000566,false,Rx,0,8,E9,00,FE,01,FB,07,00,00,
3936483,0000038B,false,Rx,0,8,FE,01,00,BC,F2,CA,AB,7F,
3951661,00000566,false,Rx,0,8,B7,01,FE,01,FB,07,00,00,
3952876,17332510,true,Rx,0,3,39,5C,22,00,00,00,00,00,
4036513,0000038B,false,Rx,0,8,FE,01,00,BC,F2,CA,AB,7F,
4041743,1B000044,true,Rx,0,8,44,00,44,01,00,00,00,00,
4051698,00000566,false,Rx,0,8,33,02,FE,01,FB,07,00,00,
4086534,00000564,false,Rx,0,8,0C,04,71,6E,F9,27,24,00,
4136554,0000038B,false,Rx,0,8,FE,01,00,BC,F2,CA,AB,7F,
4136841,12DD5472,true,Rx,0,8,00,00,00,00,00,00,00,00,
4137091,00000565,false,Rx,0,8,00,50,00,15,0C,08,80,FF,
4137339,00000594,false,Rx,0,8,00,00,00,00,00,10,30,09,
4137629,17F00044,true,Rx,0,8,20,44,00,00,00,00,00,80,
4137910,1A555490,true,Rx,0,8,0A,00,00,14,02,00,20,00,
4138200,1A555491,true,Rx,0,8,00,59,A8,00,00,00,00,80,
4151751,00000566,false,Rx,0,8,F5,03,FE,01,FB,07,00,00,
4236585,0000038B,false,Rx,0,8,FE,01,00,BC,F2,CA,AB,7F,
4241837,1B000044,true,Rx,0,8,44,00,44,01,00,00,00,00,
4251793,00000566,false,Rx,0,8,78,04,FE,01,FB,07,00,00,
4336622,0000038B,false,Rx,0,8,FE,01,00,BC,F2,CA,AB,7F,
4351802,00000566,false,Rx,0,8,86,05,FE,01,FB,07,00,00,
4436658,0000038B,false,Rx,0,8,FE,01,00,BC,F2,CA,AB,7F,
4441880,1B000044,true,Rx,0,8,44,00,44,01,00,00,00,00,
4451847,00000566,false,Rx,0,8,7D,06,FE,01,FB,07,00,00,
4536694,0000038B,false,Rx,0,8,FE,01,00,BC,F2,CA,AB,7F,
4551885,00000566,false,Rx,0,8,89,07,FE,01,FB,07,00,00,
4636719,0000038B,false,Rx,0,8,FE,01,00,BC,F2,CA,AB,7F,
4637018,12DD5472,true,Rx,0,8,00,00,00,00,00,00,00,00,
4637256,00000565,false,Rx,0,8,00,50,00,15,0C,08,80,FF,
4637505,00000594,false,Rx,0,8,00,00,00,00,00,10,30,09,
4637797,17F00044,true,Rx,0,8,20,44,00,00,00,00,00,80,
4638035,0000067E,false,Rx,0,8,C1,05,16,00,3B,00,00,00,
4638314,1A555457,true,Rx,0,8,80,35,51,45,36,CD,00,00,
4638594,1A555490,true,Rx,0,8,0A,00,00,14,02,00,20,00,
4638885,1A555491,true,Rx,0,8,00,59,A8,00,00,00,00,80,
4641974,1B000044,true,Rx,0,8,44,00,44,01,00,00,00,00,
4651915,00000566,false,Rx,0,8,5C,08,FE,01,FB,07,00,00,
4736763,0000038B,false,Rx,0,8,FE,01,00,BC,F2,CA,AB,7F,
4751942,00000566,false,Rx,0,8,A4,09,FE,01,FB,07,00,00,
4836789,0000038B,false,Rx,0,8,FE,01,00,BC,F2,CA,AB,7F,
4842019,1B000044,true,Rx,0,8,44,00,44,01,00,00,00,00,
4851976,00000566,false,Rx,0,8,EB,0A,FE,01,FB,07,00,00,
4936825,0000038B,false,Rx,0,8,FE,01,00,BC,F2,CA,AB,7F,
4952015,00000566,false,Rx,0,8,66,0B,FE,01,FB,07,00,00,
4953342,17332510,true,Rx,0,8,80,07,39,5D,FF,FF,FF,00,
5003296,17332510,true,Rx,0,4,C0,00,00,00,00,00,00,00,
5036866,0000038B,false,Rx,0,8,FE,01,00,BC,F2,CA,AB,7F,
5042117,1B000044,true,Rx,0,8,44,00,44,01,00,00,00,00,
5052066,00000566,false,Rx,0,8,A7,0C,FE,01,FB,07,00,00,
5086881,00000564,false,Rx,0,8,68,05,71,6E,F9,27,24,00,
5136901,0000038B,false,Rx,0,8,FE,01,00,BC,F2,CA,AB,7F,
5137187,12DD5472,true,Rx,0,8,00,00,00,00,00,00,00,00,
5137435,00000565,false,Rx,0,8,00,50,00,15,0C,08,80,FF,
5137674,00000594,false,Rx,0,8,00,00,00,00,00,10,30,09,
5137976,17F00044,true,Rx,0,8,20,44,00,00,00,00,00,80,
5138255,1A555490,true,Rx,0,8,0A,00,00,14,02,00,20,00,
5138546,1A555491,true,Rx,0,8,00,59,A8,00,00,00,00,80,
5152086,00000566,false,Rx,0,8,00,0D,FE,01,FB,07,00,00,
5236937,0000038B,false,Rx,0,8,FE,01,00,BC,F2,CA,AB,7F,
5242159,1B000044,true,Rx,0,8,44,00,44,01,00,00,00,00,
5252115,00000566,false,Rx,0,8,9E,0E,FE,01,FB,07,00,00,
5336974,0000038B,false,Rx,0,8,FE,01,00,BC,F2,CA,AB,7F,
5352165,00000566,false,Rx,0,8,63,0F,FE,01,FB,07,00,00,
5437000,0000038B,false,Rx,0,8,FE,01,00,BC,F2,CA,AB,7F,
5442250,1B000044,true,Rx,0,8,44,00,44,01,00,00,00,00,
5452206,00000566,false,Rx,0,8,E9,00,FE,01,FB,07,00,00,
5537042,0000038B,false,Rx,0,8,FE,01,00,BC,F2,CA,AB,7F,
5552220,00000566,false,Rx,0,8,B7,01,FE,01,FB,07,00,00,
5637078,0000038B,false,Rx,0,8,FE,01,00,BC,F2,CA,AB,7F,
5637364,12DD5472,true,Rx,0,8,00,00,00,00,00,00,00,00,
5637603,00000565,false,Rx,0,8,00,50,00,15,0C,08,80,FF,
5637853,00000594,false,Rx,0,8,00,00,00,00,00,10,30,09,
5638143,17F00044,true,Rx,0,8,20,44,00,00,00,00,00,80,
5638392,0000067E,false,Rx,0,8,90,06,16,00,3B,00,00,02,
5638661,1A555457,true,Rx,0,8,81,38,32,41,4B,D9,00,00,
5638942,1A555490,true,Rx,0,8,0A,00,00,14,02,00,20,00,
5639233,1A555491,true,Rx,0,8,00,59,A8,00,00,00,00,80,
5642302,1B000044,true,Rx,0,8,44,00,44,01,00,00,00,00,
5652264,00000566,false,Rx,0,8,33,02,FE,01,FB,07,00,00,
5737109,0000038B,false,Rx,0,8,FE,01,00,BC,F2,CA,AB,7F,
5752299,00000566,false,Rx,0,8,F5,03,FE,01,FB,07,00,00,
5837145,0000038B,false,Rx,0,8,FE,01,00,BC,F2,CA,AB,7F,
5842385,1B000044,true,Rx,0,8,44,00,44,01,00,00,00,00,
5852342,00000566,false,Rx,0,8,78,04,FE,01,FB,07,00,00,
5937182,0000038B,false,Rx,0,8,FE,01,00,BC,F2,CA,AB,7F,
5952361,00000566,false,Rx,0,8,86,05,FE,01,FB,07,00,00,
5953575,17332510,true,Rx,0,3,39,5E,03,00,00,00,00,00,
6037213,0000038B,false,Rx,0,8,FE,01,00,BC,F2,CA,AB,7F,
6042433,1B000044,true,Rx,0,8,44,00,44,01,00,00,00,00,
6052399,00000566,false,Rx,0,8,7D,06,FE,01,FB,07,00,00,
6087238,00000564,false,Rx,0,8,47,86,71,6E,F9,27,24,00,
6137254,0000038B,false,Rx,0,8,FE,01,00,BC,F2,CA,AB,7F,
6137541,12DD5472,true,Rx,0,8,00,00,00,00,00,00,00,00,
6137781,00000565,false,Rx,0,8,00,50,00,15,0C,08,80,FF,
6138029,00000594,false,Rx,0,8,00,00,00,00,00,10,30,09,
6138320,17F00044,true,Rx,0,8,20,44,00,00,00,00,00,80,
6138609,1A555490,true,Rx,0,8,0A,00,00,14,02,00,20,00,
6138890,1A555491,true,Rx,0,8,00,59,A8,00,00,00,00,80,
6152439,00000566,false,Rx,0,8,89,07,FE,01,FB,07,00,00,
6237285,0000038B,false,Rx,0,8,FE,01,00,BC,F2,CA,AB,7F,
6242526,1B000044,true,Rx,0,8,44,00,44,01,00,00,00,00,
6252481,00000566,false,Rx,0,8,5C,08,FE,01,FB,07,00,00,
6337322,0000038B,false,Rx,0,8,FE,01,00,BC,F2,CA,AB,7F,
6352500,00000566,false,Rx,0,8,A4,09,FE,01,FB,07,00,00,
6437358,0000038B,false,Rx,0,8,FE,01,00,BC,F2,CA,AB,7F,
6442578,1B000044,true,Rx,0,8,44,00,44,01,00,00,00,00,
6452533,00000566,false,Rx,0,8,EB,0A,FE,01,FB,07,00,00,
6537394,0000038B,false,Rx,0,8,FE,01,00,BC,F2,CA,AB,7F,
6552574,00000566,false,Rx,0,8,66,0B,FE,01,FB,07,00,00,
6637429,0000038B,false,Rx,0,8,FE,01,00,BC,F2,CA,AB,7F,
6637716,12DD5472,true,Rx,0,8,00,00,00,00,00,00,00,00,
6637955,00000565,false,Rx,0,8,00,50,00,15,0C,08,80,FF,
6638204,00000594,false,Rx,0,8,00,00,00,00,00,10,30,09,
6638495,17F00044,true,Rx,0,8,20,44,00,00,00,00,00,80,
6638743,0000067E,false,Rx,0,8,F4,07,16,00,3B,00,00,02,
6639013,1A555457,true,Rx,0,8,82,30,33,30,30,02,00,00,
6639304,1A555490,true,Rx,0,8,0A,00,00,14,02,00,20,00,
6639593,1A555491,true,Rx,0,8,00,59,A8,00,00,00,00,80,
6642671,1B000044,true,Rx,0,8,44,00,44,01,00,00,00,00,
6652622,00000566,false,Rx,0,8,A7,0C,FE,01,FB,07,00,00,
6737461,0000038B,false,Rx,0,8,FE,01,00,BC,F2,CA,AB,7F,
6752650,00000566,false,Rx,0,8,00,0D,FE,01,FB,07,00,00,
6837498,0000038B,false,Rx,0,8,FE,01,00,BC,F2,CA,AB,7F,
6842717,1B000044,true,Rx,0,8,44,00,44,01,00,00,00,00,
6852672,00000566,false,Rx,0,8,9E,0E,FE,01,FB,07,00,00,
6937528,0000038B,false,Rx,0,8,FE,01,00,BC,F2,CA,AB,7F,
6952719,00000566,false,Rx,0,8,63,0F,FE,01,FB,07,00,00,
6954036,17332510,true,Rx,0,8,39,42,03,00,25,00,04,04,
7037564,0000038B,false,Rx,0,8,FE,01,00,BC,F2,CA,AB,7F,
7042807,1B000044,true,Rx,0,8,44,00,44,01,00,00,00,00,
7052762,00000566,false,Rx,0,8,E9,00,FE,01,FB,07,00,00,
7087589,00000564,false,Rx,0,8,23,87,71,6E,F9,27,24,00,
7137596,0000038B,false,Rx,0,8,FE,01,00,BC,F2,CA,AB,7F,
7137894,12DD5472,true,Rx,0,8,00,00,00,00,00,00,00,00,
7118465,00000097,false,Tx,0,8,43,CE,7F,CE,05,02,00,00,
7138132,00000565,false,Rx,0,8,00,50,00,15,0C,08,80,FF,
7138382,00000594,false,Rx,0,8,00,00,00,00,00,10,30,09,
7138671,17F00044,true,Rx,0,8,20,44,00,00,00,00,00,80,
7138952,1A555490,true,Rx,0,8,0A,00,00,14,02,00,20,00,
7139242,1A555491,true,Rx,0,8,00,59,A8,00,00,00,00,80,
7118627,00000097,false,Tx,0,8,01,CF,7F,CE,05,02,00,00,
7118722,00000124,false,Tx,0,8,D4,E8,57,4F,4A,31,21,01,
7118843,00000187,false,Tx,0,8,4D,08,12,00,00,00,30,00,
7118975,00000097,false,Tx,0,8,89,C0,7F,CE,05,02,00,00,
7128823,00000097,false,Tx,0,8,2F,C1,7F,CE,05,02,00,00,
7128928,00000124,false,Tx,0,8,26,E9,57,4F,4A,31,21,01,
7128997,00000097,false,Tx,0,8,E8,C2,7F,CE,05,02,00,00,
7152786,00000566,false,Rx,0,8,B7,01,FE,01,FB,07,00,00,
7133542,000003A6,false,Tx,0,8,3D,0C,00,00,00,01,00,00,
7137457,00000097,false,Tx,0,8,F2,C3,7F,CE,05,02,00,00,
7138558,00000124,false,Tx,0,8,54,EA,57,4F,4A,31,21,01,
7164026,17332510,true,Rx,0,4,49,50,1F,21,00,00,00,00,
7146517,00000097,false,Tx,0,8,CC,C4,7F,CE,05,02,00,00,
7156483,00000097,false,Tx,0,8,4B,C5,7F,CE,05,FE,01,00,
7157488,00000124,false,Tx,0,8,7F,EB,57,4F,4A,31,21,01,
7162497,000003AF,false,Tx,0,8,56,D6,F7,1F,E0,01,00,00,
7162661,000006A4,false,Tx,0,8,E9,08,45,3D,40,03,00,00,
7167506,00000097,false,Tx,0,8,EE,C6,7F,CE,05,02,00,00,
7192799,00000565,false,Rx,0,8,00,20,00,15,0C,08,80,FF,
7176458,00000097,false,Tx,0,8,64,C7,7F,CE,05,02,00,00,
7177503,00000124,false,Tx,0,8,51,EC,57,4F,4A,31,21,01,
7186506,00000097,false,Tx,0,8,86,C8,7F,CE,05,02,00,00,
7214102,17332510,true,Rx,0,8,90,09,49,51,11,00,FF,FF,
7197498,00000097,false,Tx,0,8,BB,C9,7F,CE,05,02,00,00,
7198526,00000124,false,Tx,0,8,E0,ED,57,4F,4A,31,21,01,
7206513,00000097,false,Tx,0,8,63,CA,7F,CE,05,02,00,00,
7214492,00000187,false,Tx,0,8,D7,09,12,00,00,00,30,00,
7237642,0000038B,false,Rx,0,8,FE,01,00,BC,F2,CA,AB,7F,
7217513,00000097,false,Tx,0,8,7C,CB,7F,CE,05,02,00,00,
7218503,00000124,false,Tx,0,8,20,EE,57,4F,4A,31,21,01,
7242862,1B000044,true,Rx,0,8,44,00,44,01,00,00,00,00,
7227504,00000097,false,Tx,0,8,0C,CC,7F,CE,05,02,00,00,
7252818,00000566,false,Rx,0,8,33,02,FE,01,FB,07,00,00,
7233487,000003A6,false,Tx,0,8,CA,0D,00,00,00,01,00,00,
7236511,00000097,false,Tx,0,8,D5,CD,7F,CE,05,02,00,00,
7237507,00000124,false,Tx,0,8,CD,EF,57,4F,4A,31,21,01,
7264046,17332510,true,Rx,0,3,49,5C,21,00,00,00,00,00,
7246487,00000097,false,Tx,0,8,43,CE,7F,CE,05,02,00,00,
7257511,00000097,false,Tx,0,8,01,CF,7F,CE,05,02,00,00,
7258528,00000124,false,Tx,0,8,42,E0,57,4F,4A,31,21,01,
7262505,000003AF,false,Tx,0,8,3A,D7,F7,1F,E0,01,00,00,
7266496,00000097,false,Tx,0,8,89,C0,7F,CE,05,02,00,00,
7277144,00000097,false,Tx,0,8,3C,C1,7F,CE,05,FE,01,00,
7277331,00000124,false,Tx,0,8,58,E1,57,4F,4A,31,21,01,
7288193,00000097,false,Tx,0,8,71,C2,7F,CE,05,FA,01,00,
7314103,17332510,true,Rx,0,6,D0,FF,FF,01,FF,01,00,00,
7296454,00000097,false,Tx,0,8,F2,C3,7F,CE,05,02,00,00,
7297456,00000124,false,Tx,0,8,1B,E2,57,4F,4A,31,21,01,
7307759,00000097,false,Tx,0,8,DF,C4,7F,CE,05,FE,01,00,
7313476,00000187,false,Tx,0,8,27,0A,12,00,00,00,30,00,
7337673,0000038B,false,Rx,0,8,FE,01,00,BC,F2,CA,AB,7F,
7317446,00000097,false,Tx,0,8,C1,C5,7F,CE,05,FA,01,00,
7318467,00000124,false,Tx,0,8,52,E3,57,4F,4A,31,21,01,
7326458,00000097,false,Tx,0,8,EE,C6,7F,CE,05,02,00,00,
7352851,00000566,false,Rx,0,8,F5,03,FE,01,FB,07,00,00,
7333466,000003A6,false,Tx,0,8,9E,0E,00,00,00,01,00,00,
7337460,00000097,false,Tx,0,8,64,C7,7F,CE,05,02,00,00,
7338503,00000124,false,Tx,0,8,ED,E4,57,4F,4A,31,21,01,
7348518,00000097,false,Tx,0,8,86,C8,7F,CE,05,02,00,00,
7356553,00000097,false,Tx,0,8,BB,C9,7F,CE,05,02,00,00,
7357536,00000124,false,Tx,0,8,10,E5,57,4F,4A,31,21,01,
7357689,000006A3,false,Tx,0,8,C1,08,99,3E,6C,66,03,00,
7361583,000003AF,false,Tx,0,8,E5,D8,F7,1F,E0,01,00,00,
7366572,00000097,false,Tx,0,8,63,CA,7F,CE,05,02,00,00,
7377477,00000097,false,Tx,0,8,7C,CB,7F,CE,05,02,00,00,
7378499,00000124,false,Tx,0,8,93,E6,57,4F,4A,31,21,01,
7386514,00000097,false,Tx,0,8,0C,CC,7F,CE,05,02,00,00,
7396599,00000097,false,Tx,0,8,D5,CD,7F,CE,05,02,00,00,
7397601,00000124,false,Tx,0,8,EF,E7,57,4F,4A,31,21,01,
7407504,00000097,false,Tx,0,8,43,CE,7F,CE,05,02,00,00,
7414531,00000187,false,Tx,0,8,F3,0B,12,00,00,00,30,00,
7416529,00000097,false,Tx,0,8,01,CF,7F,CE,05,02,00,00,
7437708,0000038B,false,Rx,0,8,FE,01,00,BC,F2,CA,AB,7F,
7417516,00000124,false,Tx,0,8,D4,E8,57,4F,4A,31,21,01,
7442952,1B000044,true,Rx,0,8,44,00,44,01,00,00,00,00,
7427459,00000097,false,Tx,0,8,89,C0,7F,CE,05,02,00,00,
7452896,00000566,false,Rx,0,8,E6,04,FE,01,FB,07,19,00,
7433582,000003A6,false,Tx,0,8,88,0F,00,00,00,01,00,00,
7437505,00000097,false,Tx,0,8,2F,C1,7F,CE,05,02,00,00,
7438519,00000124,false,Tx,0,8,26,E9,57,4F,4A,31,21,01,
7446478,00000097,false,Tx,0,8,E8,C2,7F,CE,05,02,00,00,
7457503,00000097,false,Tx,0,8,E1,C3,7F,CE,05,FE,01,00,
7458531,00000124,false,Tx,0,8,54,EA,57,4F,4A,31,21,01,
7462503,000003AF,false,Tx,0,8,8F,D9,F7,1F,E0,01,00,00,
7468487,00000097,false,Tx,0,8,DF,C4,7F,CE,05,FE,01,00,
7476502,00000097,false,Tx,0,8,58,C5,7F,CE,05,02,00,00,
7477505,00000124,false,Tx,0,8,7F,EB,57,4F,4A,31,21,01,
7487479,00000097,false,Tx,0,8,EE,C6,7F,CE,05,02,00,00,
7497502,00000097,false,Tx,0,8,64,C7,7F,CE,05,02,00,00,
7498509,00000124,false,Tx,0,8,51,EC,57,4F,4A,31,21,01,
7506481,00000097,false,Tx,0,8,86,C8,7F,CE,05,02,00,00,
7513529,00000187,false,Tx,0,8,32,0C,12,00,00,00,30,00,
7537740,0000038B,false,Rx,0,8,FE,01,00,BC,F2,CA,AB,7F,
7517522,00000097,false,Tx,0,8,BB,C9,7F,CE,05,02,00,00,
7518505,00000124,false,Tx,0,8,E0,ED,57,4F,4A,31,21,01,
7527489,00000097,false,Tx,0,8,63,CA,7F,CE,05,02,00,00,
7552920,00000566,false,Rx,0,8,18,05,FE,01,FB,07,19,00,
7533494,000003A6,false,Tx,0,8,48,00,00,00,00,01,00,00,
7536473,00000097,false,Tx,0,8,7C,CB,7F,CE,05,02,00,00,
7537477,00000124,false,Tx,0,8,20,EE,57,4F,4A,31,21,01,
7547469,00000097,false,Tx,0,8,0C,CC,7F,CE,05,02,00,00,
7557478,00000097,false,Tx,0,8,D5,CD,7F,CE,05,02,00,00,
7558448,00000124,false,Tx,0,8,CD,EF,57,4F,4A,31,21,01,
7562440,000003AF,false,Tx,0,8,BA,DA,F7,1F,E0,01,00,00,
7567463,00000097,false,Tx,0,8,43,CE,7F,CE,05,02,00,00,
7577442,00000097,false,Tx,0,8,12,CF,7F,CE,05,FE,01,00,
7577562,00000124,false,Tx,0,8,42,E0,57,4F,4A,31,21,01,
7588454,00000097,false,Tx,0,8,89,C0,7F,CE,05,02,00,00,
7596514,00000097,false,Tx,0,8,2F,C1,7F,CE,05,02,00,00,
7597613,00000124,false,Tx,0,8,58,E1,57,4F,4A,31,21,01,
7607579,00000097,false,Tx,0,8,FB,C2,7F,CE,05,FE,01,00,
7614574,00000187,false,Tx,0,8,0A,0D,12,00,00,00,30,00,
7637782,0000038B,false,Rx,0,8,FE,01,00,BC,F2,CA,AB,7F,
7617576,00000097,false,Tx,0,8,F2,C3,7F,CE,05,02,00,00,
7618440,00000124,false,Tx,0,8,1B,E2,57,4F,4A,31,21,01,
7638067,12DD5472,true,Rx,0,8,00,00,00,00,00,00,00,00,
7638306,00000565,false,Rx,0,8,00,20,00,15,0C,08,80,FF,
7638555,00000594,false,Rx,0,8,00,00,00,00,00,10,30,09,
7638846,17F00044,true,Rx,0,8,20,44,00,00,00,00,00,80,
7639085,0000067E,false,Rx,0,8,B6,08,16,00,3B,00,00,02,
7639392,1A555457,true,Rx,0,8,83,4B,59,46,41,2B,00,00,
7639648,1A555490,true,Rx,0,8,0A,00,00,00,02,00,20,00,
7640241,1A555491,true,Rx,0,8,00,59,A8,00,00,00,00,80,
7643003,1B000044,true,Rx,0,8,44,00,44,01,00,00,00,00,
7627467,00000097,false,Tx,0,8,98,C4,7F,CF,05,02,00,00,
7652954,00000566,false,Rx,0,8,E3,06,FE,01,FB,07,19,00,
7633579,000003A6,false,Tx,0,8,B5,01,00,00,00,01,00,00,
7637577,00000097,false,Tx,0,8,58,C5,7F,CE,05,02,00,00,
7638489,00000124,false,Tx,0,8,52,E3,57,4F,4A,31,21,01,
7647541,00000097,false,Tx,0,8,EE,C6,7F,CE,05,02,00,00,
7656550,00000097,false,Tx,0,8,64,C7,7F,CE,05,02,00,00,
7657542,00000124,false,Tx,0,8,ED,E4,57,4F,4A,31,21,01,
7662539,000003AF,false,Tx,0,8,86,DB,F7,1F,E0,01,00,00,
7663547,000006A4,false,Tx,0,8,11,09,45,3D,40,03,00,00,
7667500,00000097,false,Tx,0,8,86,C8,7F,CE,05,02,00,00,
7692988,00000594,false,Rx,0,8,00,00,00,00,02,30,30,09,
7677486,00000097,false,Tx,0,8,BB,C9,7F,CE,05,02,00,00,
7678511,00000124,false,Tx,0,8,10,E5,57,4F,4A,31,21,01,
7686504,00000097,false,Tx,0,8,63,CA,7F,CE,05,02,00,00,
7697513,00000097,false,Tx,0,8,E5,CB,7F,CE,05,FA,01,00,
7697754,00000124,false,Tx,0,8,93,E6,57,4F,4A,31,21,01,
7708539,00000097,false,Tx,0,8,0C,CC,7F,CE,05,02,00,00,
7714511,00000187,false,Tx,0,8,17,0E,12,00,00,00,30,00,
7716478,00000097,false,Tx,0,8,D5,CD,7F,CE,05,02,00,00,
7737814,0000038B,false,Rx,0,8,FE,01,00,BC,F2,CA,AB,7F,
7717509,00000124,false,Tx,0,8,EF,E7,57,4F,4A,31,21,01,
7727503,00000097,false,Tx,0,8,43,CE,7F,CE,05,02,00,00,
7752994,00000566,false,Rx,0,8,9E,07,FE,21,FB,07,19,00,
7733514,000003A6,false,Tx,0,8,76,02,00,00,00,01,00,00,
7737676,00000097,false,Tx,0,8,98,CF,7F,CE,05,FA,01,00,
7738519,00000124,false,Tx,0,8,D4,E8,57,4F,4A,31,21,01,
7746502,00000097,false,Tx,0,8,89,C0,7F,CE,05,02,00,00,
7757515,00000097,false,Tx,0,8,3C,C1,7F,CE,05,FE,01,00,
7757694,00000124,false,Tx,0,8,26,E9,57,4F,4A,31,21,01,
7762507,000003AF,false,Tx,0,8,98,DC,F7,1F,E0,01,00,00,
7768541,00000097,false,Tx,0,8,E8,C2,7F,CE,05,02,00,00,
7777506,00000097,false,Tx,0,8,F2,C3,7F,CE,05,02,00,00,
7777677,00000124,false,Tx,0,8,54,EA,57,4F,4A,31,21,01,
7788482,00000097,false,Tx,0,8,CC,C4,7F,CE,05,02,00,00,
7798491,00000097,false,Tx,0,8,4B,C5,7F,CE,05,FE,01,00,
7798705,00000124,false,Tx,0,8,7F,EB,57,4F,4A,31,21,01,
7806496,00000097,false,Tx,0,8,EE,C6,7F,CE,05,02,00,00,
7813476,00000187,false,Tx,0,8,E2,0F,12,00,00,00,30,00,
7837850,0000038B,false,Rx,0,8,FE,01,00,BC,F2,CA,AB,7F,
7818487,00000097,false,Tx,0,8,64,C7,7F,CE,05,02,00,00,
7818721,00000124,false,Tx,0,8,51,EC,57,4F,4A,31,21,01,
7843089,1B000044,true,Rx,0,8,44,00,44,01,00,00,00,00,
7828480,00000097,false,Tx,0,8,86,C8,7F,CE,05,02,00,00,
7853035,00000566,false,Rx,0,8,4B,08,FE,21,FB,07,19,00,
7833471,000003A6,false,Tx,0,8,3A,03,00,00,00,01,00,00,
7837487,00000097,false,Tx,0,8,BB,C9,7F,CE,05,02,00,00,
7837598,00000124,false,Tx,0,8,E0,ED,57,4F,4A,31,21,01,
7847529,00000097,false,Tx,0,8,63,CA,7F,CE,05,02,00,00,
7857579,00000097,false,Tx,0,8,E5,CB,7F,CE,05,FA,01,00,
7858619,00000124,false,Tx,0,8,20,EE,57,4F,4A,31,21,01,
7858734,000006A3,false,Tx,0,8,DA,09,99,3E,6C,66,03,00,
7862509,000003AF,false,Tx,0,8,44,DD,F7,1F,E0,01,00,00,
7866593,00000097,false,Tx,0,8,0C,CC,7F,CE,05,02,00,00,
7877597,00000097,false,Tx,0,8,C6,CD,7F,CE,05,FE,01,00,
7878603,00000124,false,Tx,0,8,CD,EF,57,4F,4A,31,21,01,
7888547,00000097,false,Tx,0,8,43,CE,7F,CE,05,02,00,00,
7896551,00000097,false,Tx,0,8,01,CF,7F,CE,05,02,00,00,
7897519,00000124,false,Tx,0,8,42,E0,57,4F,4A,31,21,01,
7907552,00000097,false,Tx,0,8,9A,C0,7F,CE,05,FE,01,00,
7914517,00000187,false,Tx,0,8,92,00,12,00,00,00,30,00,
7937880,0000038B,false,Rx,0,8,FE,01,00,BC,F2,CA,AB,7F,
7917531,00000097,false,Tx,0,8,B6,C1,7F,CE,05,FA,01,00,
7918537,00000124,false,Tx,0,8,58,E1,57,4F,4A,31,21,01,
7926559,00000097,false,Tx,0,8,71,C2,7F,CE,05,FA,01,00,
7953057,00000566,false,Rx,0,8,B3,09,FE,21,FB,07,19,00,
7933524,000003A6,false,Tx,0,8,7A,04,00,00,00,01,00,00,
7938548,00000097,false,Tx,0,8,F2,C3,7F,CE,05,02,00,00,
7938726,00000124,false,Tx,0,8,1B,E2,57,4F,4A,31,21,01,
7947653,00000097,false,Tx,0,8,CC,C4,7F,CE,05,02,00,00,
7957513,00000097,false,Tx,0,8,58,C5,7F,CE,05,02,00,00,
7957705,00000124,false,Tx,0,8,52,E3,57,4F,4A,31,21,01,
7962509,000003AF,false,Tx,0,8,1A,DE,F7,1F,E0,01,00,00,
7967522,00000097,false,Tx,0,8,EE,C6,7F,CE,05,02,00,00,
7978700,00000097,false,Tx,0,8,64,C7,7F,CE,05,02,00,00,
7978867,00000124,false,Tx,0,8,ED,E4,57,4F,4A,31,21,01,
7987528,00000097,false,Tx,0,8,86,C8,7F,CE,05,02,00,00,
7998552,00000097,false,Tx,0,8,A8,C9,7F,CE,05,FE,01,00,
7998782,00000124,false,Tx,0,8,10,E5,57,4F,4A,31,21,01,
8008526,00000097,false,Tx,0,8,FA,CA,7F,CE,05,FA,01,00,
8014562,00000187,false,Tx,0,8,E5,01,12,00,00,00,30,00,
8037917,0000038B,false,Rx,0,8,FE,01,00,BC,F2,CA,AB,7F,
8017558,00000097,false,Tx,0,8,7C,CB,7F,CE,05,02,00,00,
8017776,00000124,false,Tx,0,8,93,E6,57,4F,4A,31,21,01,
8043140,1B000044,true,Rx,0,8,44,00,44,01,00,00,00,00,
8026561,00000097,false,Tx,0,8,0C,CC,7F,CE,05,02,00,00,
8053097,00000566,false,Rx,0,8,FC,0A,FE,21,FB,07,19,00,
8033566,000003A6,false,Tx,0,8,8A,05,00,00,00,01,00,00,
8037568,00000097,false,Tx,0,8,D5,CD,7F,CE,05,02,00,00,
8038532,00000124,false,Tx,0,8,EF,E7,57,4F,4A,31,21,01,
8046609,00000097,false,Tx,0,8,43,CE,7F,CE,05,02,00,00,
8056656,00000097,false,Tx,0,8,12,CF,7F,CE,05,FE,01,00,
8057513,00000124,false,Tx,0,8,D4,E8,57,4F,4A,31,21,01,
8062515,000003AF,false,Tx,0,8,CD,DF,F7,1F,E0,01,00,00,
8087932,00000564,false,Rx,0,8,61,88,71,6E,F9,27,24,00,
8067666,00000097,false,Tx,0,8,89,C0,7F,CE,05,02,00,00,
8077516,00000097,false,Tx,0,8,2F,C1,7F,CE,05,02,00,00,
8077710,00000124,false,Tx,0,8,26,E9,57,4F,4A,31,21,01,
8087522,00000097,false,Tx,0,8,E8,C2,7F,CE,05,02,00,00,
8098484,00000097,false,Tx,0,8,F2,C3,7F,CE,05,02,00,00,
8098599,00000124,false,Tx,0,8,54,EA,57,4F,4A,31,21,01,
8107480,00000097,false,Tx,0,8,CC,C4,7F,CE,05,02,00,00,
8114509,00000187,false,Tx,0,8,98,02,12,00,00,00,30,00,
8137953,0000038B,false,Rx,0,8,FE,01,00,BC,F2,CA,AB,7F,
8118631,00000097,false,Tx,0,8,58,C5,7F,CE,05,02,00,00,
8138240,12DD5472,true,Rx,0,8,00,00,00,00,00,00,00,00,
8138478,00000565,false,Rx,0,8,00,20,00,15,0C,08,80,FF,
8138727,00000594,false,Rx,0,8,00,00,00,00,02,30,30,09,
8139019,17F00044,true,Rx,0,8,20,44,00,00,00,00,00,80,
8139308,1A555490,true,Rx,0,8,0A,00,00,00,02,00,20,00,
8139598,1A555491,true,Rx,0,8,00,58,A8,00,00,00,00,80,
8118845,00000124,false,Tx,0,8,7F,EB,57,4F,4A,31,21,01,
8127620,00000097,false,Tx,0,8,EE,C6,7F,CE,05,02,00,00,
8153127,00000566,false,Rx,0,8,71,0B,FE,21,FB,07,19,00,
8133531,000003A6,false,Tx,0,8,08,06,00,00,00,01,00,00,
8154496,17332510,true,Rx,0,8,80,08,39,43,78,07,FE,FE,
8137557,00000097,false,Tx,0,8,64,C7,7F,CE,05,02,00,00,
8137638,00000124,false,Tx,0,8,51,EC,57,4F,4A,31,21,01,
8147577,00000097,false,Tx,0,8,86,C8,7F,CE,05,02,00,00,
8158520,00000097,false,Tx,0,8,BB,C9,7F,CE,05,02,00,00,
8158707,00000124,false,Tx,0,8,E0,ED,57,4F,4A,31,21,01,
8162517,000003AF,false,Tx,0,8,66,D0,F7,1F,E0,01,00,00,
8163522,000006A4,false,Tx,0,8,C0,0A,45,3D,40,03,00,00,
8167532,00000097,false,Tx,0,8,63,CA,7F,CE,05,02,00,00,
8177508,00000097,false,Tx,0,8,6F,CB,7F,CE,05,FE,01,00,
8177673,00000124,false,Tx,0,8,20,EE,57,4F,4A,31,21,01,
8204441,17332510,true,Rx,0,5,C0,00,00,00,00,00,00,00,
8188542,00000097,false,Tx,0,8,0C,CC,7F,CE,05,02,00,00,
8197512,00000097,false,Tx,0,8,D5,CD,7F,CE,05,02,00,00,
8197691,00000124,false,Tx,0,8,CD,EF,57,4F,4A,31,21,01,
8207545,00000097,false,Tx,0,8,43,CE,7F,CE,05,02,00,00,
8214543,00000187,false,Tx,0,8,C4,03,12,00,00,00,30,00,
8237989,0000038B,false,Rx,0,8,FE,01,00,BC,F2,CA,AB,7F,
8218551,00000097,false,Tx,0,8,01,CF,7F,CE,05,02,00,00,
8218728,00000124,false,Tx,0,8,42,E0,57,4F,4A,31,21,01,
8243229,1B000044,true,Rx,0,8,44,00,44,01,00,00,00,00,
8227625,00000097,false,Tx,0,8,DD,C0,7F,CF,05,02,00,00,
8253174,00000566,false,Rx,0,8,B0,0C,FE,21,FB,07,19,00,
8233519,000003A6,false,Tx,0,8,E0,07,00,00,00,01,00,00,
8238546,00000097,false,Tx,0,8,68,C1,7F,CF,05,FE,01,00,
8238718,00000124,false,Tx,0,8,58,E1,57,4F,4A,31,21,01,
8248534,00000097,false,Tx,0,8,BC,C2,7F,CF,05,02,00,00,
8257540,00000097,false,Tx,0,8,A6,C3,7F,CF,05,02,00,00,
8257713,00000124,false,Tx,0,8,1B,E2,57,4F,4A,31,21,01,
8262510,000003AF,false,Tx,0,8,6F,D1,F7,1F,E0,01,00,00,
8267509,00000097,false,Tx,0,8,98,C4,7F,CF,05,02,00,00,
8278544,00000097,false,Tx,0,8,0C,C5,7F,CF,05,02,00,00,
8278715,00000124,false,Tx,0,8,52,E3,57,4F,4A,31,21,01,
8288524,00000097,false,Tx,0,8,A9,C6,7F,CF,05,FE,01,00,
8297514,00000097,false,Tx,0,8,64,C7,7F,CE,05,02,00,00,
8297693,00000124,false,Tx,0,8,ED,E4,57,4F,4A,31,21,01,
8308531,00000097,false,Tx,0,8,86,C8,7F,CE,05,02,00,00,
8314542,00000187,false,Tx,0,8,5C,04,12,00,00,00,30,00,
8316677,00000097,false,Tx,0,8,A8,C9,7F,CE,05,FE,01,00,
8338020,0000038B,false,Rx,0,8,FE,01,00,BC,F2,CA,AB,7F,
8317542,00000124,false,Tx,0,8,10,E5,57,4F,4A,31,21,01,
8327508,00000097,false,Tx,0,8,63,CA,7F,CE,05,02,00,00,
8353200,00000566,false,Rx,0,8,17,0D,FE,21,FB,07,19,00,
8333498,000003A6,false,Tx,0,8,4F,08,00,00,00,01,00,00,
8338521,00000097,false,Tx,0,8,3B,CB,7F,CF,05,FE,01,00,
8338680,00000124,false,Tx,0,8,93,E6,57,4F,4A,31,21,01,
8347530,00000097,false,Tx,0,8,58,CC,7F,CF,05,02,00,00,
8358507,00000097,false,Tx,0,8,81,CD,7F,CF,05,02,00,00,
8358690,00000124,false,Tx,0,8,EF,E7,57,4F,4A,31,21,01,
8358898,000006A3,false,Tx,0,8,A1,0A,99,3E,6C,66,03,00,
8362568,000003AF,false,Tx,0,8,F2,D2,F7,1F,E0,01,00,00,
8368548,00000097,false,Tx,0,8,17,CE,7F,CF,05,02,00,00,
8377530,00000097,false,Tx,0,8,55,CF,7F,CF,05,02,00,00,
8377665,00000124,false,Tx,0,8,D4,E8,57,4F,4A,31,21,01,
8387589,00000097,false,Tx,0,8,DD,C0,7F,CF,05,02,00,00,
8398584,00000097,false,Tx,0,8,2F,C1,7F,CE,05,02,00,00,
8398701,00000124,false,Tx,0,8,26,E9,57,4F,4A,31,21,01,
8407562,00000097,false,Tx,0,8,E8,C2,7F,CE,05,02,00,00,
8414561,00000187,false,Tx,0,8,B8,05,12,00,00,00,30,00,
8438056,0000038B,false,Rx,0,8,FE,01,00,BC,F2,CA,AB,7F,
8418563,00000097,false,Tx,0,8,F2,C3,7F,CE,05,02,00,00,
8418651,00000124,false,Tx,0,8,54,EA,57,4F,4A,31,21,01,
8443279,1B000044,true,Rx,0,8,44,00,44,01,00,00,00,00,
8428526,00000097,false,Tx,0,8,55,C4,7F,CE,05,FA,01,00,
8453233,00000566,false,Rx,0,8,89,0E,FE,21,FB,07,19,00,
8433521,000003A6,false,Tx,0,8,22,09,00,00,00,01,00,00,
8437579,00000097,false,Tx,0,8,58,C5,7F,CE,05,02,00,00,
8437803,00000124,false,Tx,0,8,7F,EB,57,4F,4A,31,21,01,
8447586,00000097,false,Tx,0,8,EE,C6,7F,CE,05,02,00,00,
8458550,00000097,false,Tx,0,8,64,C7,7F,CE,05,02,00,00,
8458732,00000124,false,Tx,0,8,51,EC,57,4F,4A,31,21,01,
8462523,000003AF,false,Tx,0,8,B1,D3,F7,1F,E0,01,00,00,
8467545,00000097,false,Tx,0,8,86,C8,7F,CE,05,02,00,00,
8478546,00000097,false,Tx,0,8,A8,C9,7F,CE,05,FE,01,00,
8478710,00000124,false,Tx,0,8,E0,ED,57,4F,4A,31,21,01,
8488566,00000097,false,Tx,0,8,37,CA,7F,CF,05,02,00,00,
8497549,00000097,false,Tx,0,8,28,CB,7F,CF,05,02,00,00,
8497716,00000124,false,Tx,0,8,20,EE,57,4F,4A,31,21,01,
8508562,00000097,false,Tx,0,8,4B,CC,7F,CF,05,FE,01,00,
8514524,00000187,false,Tx,0,8,1E,06,12,00,00,00,30,00,
8538092,0000038B,false,Rx,0,8,FE,01,00,BC,F2,CA,AB,7F,
8518546,00000097,false,Tx,0,8,18,CD,7F,CF,05,FA,01,00,
8518719,00000124,false,Tx,0,8,CD,EF,57,4F,4A,31,21,01,
8526642,00000097,false,Tx,0,8,17,CE,7F,CF,05,02,00,00,
8553279,00000566,false,Rx,0,8,74,0F,FE,21,FB,07,19,00,
8533547,000003A6,false,Tx,0,8,C2,0A,00,00,00,01,00,00,
8538532,00000097,false,Tx,0,8,46,CF,7F,CF,05,FE,01,00,
8538705,00000124,false,Tx,0,8,42,E0,57,4F,4A,31,21,01,
8548576,00000097,false,Tx,0,8,DD,C0,7F,CF,05,02,00,00,
8557558,00000097,false,Tx,0,8,7B,C1,7F,CF,05,02,00,00,
8557731,00000124,false,Tx,0,8,58,E1,57,4F,4A,31,21,01,
8562524,000003AF,false,Tx,0,8,C2,D4,F7,1F,E0,01,00,00,
8567574,00000097,false,Tx,0,8,BC,C2,7F,CF,05,02,00,00,
8578588,00000097,false,Tx,0,8,F2,C3,7F,CE,05,02,00,00,
8578798,00000124,false,Tx,0,8,1B,E2,57,4F,4A,31,21,01,
8587525,00000097,false,Tx,0,8,CC,C4,7F,CE,05,02,00,00,
8597538,00000097,false,Tx,0,8,4B,C5,7F,CE,05,FE,01,00,
8597798,00000124,false,Tx,0,8,52,E3,57,4F,4A,31,21,01,
8608493,00000097,false,Tx,0,8,EE,C6,7F,CE,05,02,00,00,
8614508,00000187,false,Tx,0,8,7C,07,12,00,00,00,30,00,
8638128,0000038B,false,Rx,0,8,FE,01,00,BC,F2,CA,AB,7F,
8617520,00000097,false,Tx,0,8,64,C7,7F,CE,05,02,00,00,
8617609,00000124,false,Tx,0,8,ED,E4,57,4F,4A,31,21,01,
8638415,12DD5472,true,Rx,0,8,00,00,00,00,00,00,00,00,
8638653,00000565,false,Rx,0,8,00,20,00,15,0C,08,80,FF,
8638903,00000594,false,Rx,0,8,00,00,00,00,02,30,30,09,
8639194,17F00044,true,Rx,0,8,20,44,00,00,00,00,00,80,
8639426,0000067E,false,Rx,0,8,2F,09,16,00,3B,00,00,00,
8639940,1A555457,true,Rx,0,8,80,35,51,45,36,CD,00,00,
8640457,1A555490,true,Rx,0,8,0A,00,00,00,02,00,20,00,
8640747,1A555491,true,Rx,0,8,00,58,A8,00,00,00,00,80,
8643374,1B000044,true,Rx,0,8,44,00,44,01,00,00,00,00,
8627684,00000097,false,Tx,0,8,86,C8,7F,CE,05,02,00,00,
8653325,00000566,false,Rx,0,8,FE,00,FE,21,FB,07,19,00,
8633623,000003A6,false,Tx,0,8,AE,0B,00,00,00,01,00,00,
8638683,00000097,false,Tx,0,8,BB,C9,7F,CE,05,02,00,00,
8638746,00000124,false,Tx,0,8,10,E5,57,4F,4A,31,21,01,
8647509,00000097,false,Tx,0,8,63,CA,7F,CE,05,02,00,00,
8657514,00000097,false,Tx,0,8,6F,CB,7F,CE,05,FE,01,00,
8657640,00000124,false,Tx,0,8,93,E6,57,4F,4A,31,21,01,
8662512,000003AF,false,Tx,0,8,CE,D5,F7,1F,E0,01,00,00,
8663511,000006A4,false,Tx,0,8,86,0B,45,3D,40,03,00,00,
8668573,00000097,false,Tx,0,8,0C,CC,7F,CE,05,02,00,00,
8677537,00000097,false,Tx,0,8,D5,CD,7F,CE,05,02,00,00,
8677685,00000124,false,Tx,0,8,EF,E7,57,4F,4A,31,21,01,
8687519,00000097,false,Tx,0,8,43,CE,7F,CE,05,02,00,00,
8698621,00000097,false,Tx,0,8,01,CF,7F,CE,05,02,00,00,
8698882,00000124,false,Tx,0,8,D4,E8,57,4F,4A,31,21,01,
8707614,00000097,false,Tx,0,8,89,C0,7F,CE,05,02,00,00,
8714602,00000187,false,Tx,0,8,4D,08,12,00,00,00,30,00,
8738159,0000038B,false,Rx,0,8,FE,01,00,BC,F2,CA,AB,7F,
8718625,00000097,false,Tx,0,8,3C,C1,7F,CE,05,FE,01,00,
8718840,00000124,false,Tx,0,8,26,E9,57,4F,4A,31,21,01,
8728622,00000097,false,Tx,0,8,E8,C2,7F,CE,05,02,00,00,
8753336,00000566,false,Rx,0,8,A0,01,FE,21,FB,07,19,00,
8733581,000003A6,false,Tx,0,8,3D,0C,00,00,00,01,00,00,
8737589,00000097,false,Tx,0,8,F2,C3,7F,CE,05,02,00,00,
8737758,00000124,false,Tx,0,8,54,EA,57,4F,4A,31,21,01,
8747581,00000097,false,Tx,0,8,CC,C4,7F,CE,05,02,00,00,
8758594,00000097,false,Tx,0,8,58,C5,7F,CE,05,02,00,00,
8758750,00000124,false,Tx,0,8,7F,EB,57,4F,4A,31,21,01,
8762577,000003AF,false,Tx,0,8,56,D6,F7,1F,E0,01,00,00,
8767572,00000097,false,Tx,0,8,EE,C6,7F,CE,05,02,00,00,
8777583,00000097,false,Tx,0,8,77,C7,7F,CE,05,FE,01,00,
8777755,00000124,false,Tx,0,8,51,EC,57,4F,4A,31,21,01,
8788539,00000097,false,Tx,0,8,95,C8,7F,CE,05,FE,01,00,
8797505,00000097,false,Tx,0,8,BB,C9,7F,CE,05,02,00,00,
8797735,00000124,false,Tx,0,8,E0,ED,57,4F,4A,31,21,01,
8807583,00000097,false,Tx,0,8,63,CA,7F,CE,05,02,00,00,
8813498,00000187,false,Tx,0,8,D7,09,12,00,00,00,30,00,
8838196,0000038B,false,Rx,0,8,FE,01,00,BC,F2,CA,AB,7F,
8818541,00000097,false,Tx,0,8,E5,CB,7F,CE,05,FA,01,00,
8818705,00000124,false,Tx,0,8,20,EE,57,4F,4A,31,21,01,
8843418,1B000044,true,Rx,0,8,44,00,44,01,00,00,00,00,
8827620,00000097,false,Tx,0,8,0C,CC,7F,CE,05,02,00,00,
8853373,00000566,false,Rx,0,8,24,02,FE,21,FB,07,19,00,
8833589,000003A6,false,Tx,0,8,CA,0D,00,00,00,01,00,00,
8838536,00000097,false,Tx,0,8,C6,CD,7F,CE,05,FE,01,00,
8838665,00000124,false,Tx,0,8,CD,EF,57,4F,4A,31,21,01,
8848520,00000097,false,Tx,0,8,43,CE,7F,CE,05,02,00,00,
8857508,00000097,false,Tx,0,8,01,CF,7F,CE,05,02,00,00,
8857688,00000124,false,Tx,0,8,42,E0,57,4F,4A,31,21,01,
8857881,000006A3,false,Tx,0,8,99,0B,99,3E,6C,66,03,00,
8862508,000003AF,false,Tx,0,8,3A,D7,F7,1F,E0,01,00,00,
8867526,00000097,false,Tx,0,8,89,C0,7F,CE,05,02,00,00,
8878506,00000097,false,Tx,0,8,2F,C1,7F,CE,05,02,00,00,
8878557,00000124,false,Tx,0,8,58,E1,57,4F,4A,31,21,01,
8887660,00000097,false,Tx,0,8,E8,C2,7F,CE,05,02,00,00,
8897638,00000097,false,Tx,0,8,6B,C3,7F,CE,05,FA,01,00,
8897697,00000124,false,Tx,0,8,1B,E2,57,4F,4A,31,21,01,
8908667,00000097,false,Tx,0,8,55,C4,7F,CE,05,FA,01,00,
8914648,00000187,false,Tx,0,8,27,0A,12,00,00,00,30,00,
8938231,0000038B,false,Rx,0,8,FE,01,00,BC,F2,CA,AB,7F,
8917526,00000097,false,Tx,0,8,58,C5,7F,CE,05,02,00,00,
8917653,00000124,false,Tx,0,8,52,E3,57,4F,4A,31,21,01,
8927530,00000097,false,Tx,0,8,FD,C6,7F,CE,05,FE,01,00,
8953409,00000566,false,Rx,0,8,E2,03,FE,21,FB,07,19,00,
8933558,000003A6,false,Tx,0,8,9E,0E,00,00,00,01,00,00,
8938553,00000097,false,Tx,0,8,64,C7,7F,CE,05,02,00,00,
8938697,00000124,false,Tx,0,8,ED,E4,57,4F,4A,31,21,01,
8947626,00000097,false,Tx,0,8,86,C8,7F,CE,05,02,00,00,
8958624,00000097,false,Tx,0,8,A8,C9,7F,CE,05,FE,01,00,
8958846,00000124,false,Tx,0,8,10,E5,57,4F,4A,31,21,01,
8962608,000003AF,false,Tx,0,8,E5,D8,F7,1F,E0,01,00,00,
8968635,00000097,false,Tx,0,8,63,CA,7F,CE,05,02,00,00,
8977628,00000097,false,Tx,0,8,7C,CB,7F,CE,05,02,00,00,
8977852,00000124,false,Tx,0,8,93,E6,57,4F,4A,31,21,01,
8987627,00000097,false,Tx,0,8,0C,CC,7F,CE,05,02,00,00,
8998614,00000097,false,Tx,0,8,D5,CD,7F,CE,05,02,00,00,
8998811,00000124,false,Tx,0,8,EF,E7,57,4F,4A,31,21,01,
9007650,00000097,false,Tx,0,8,50,CE,7F,CE,05,FE,01,00,
9013541,00000187,false,Tx,0,8,F3,0B,12,00,00,00,30,00,
9038267,0000038B,false,Rx,0,8,FE,01,00,BC,F2,CA,AB,7F,
9018601,00000097,false,Tx,0,8,12,CF,7F,CE,05,FE,01,00,
9018774,00000124,false,Tx,0,8,D4,E8,57,4F,4A,31,21,01,
9043509,1B000044,true,Rx,0,8,44,00,44,01,00,00,00,00,
9028597,00000097,false,Tx,0,8,89,C0,7F,CE,05,02,00,00,
9053454,00000566,false,Rx,0,8,6F,04,FE,21,FB,07,19,00,
9033567,000003A6,false,Tx,0,8,88,0F,00,00,00,01,00,00,
9037575,00000097,false,Tx,0,8,2F,C1,7F,CE,05,02,00,00,
9037747,00000124,false,Tx,0,8,26,E9,57,4F,4A,31,21,01,
9047599,00000097,false,Tx,0,8,E8,C2,7F,CE,05,02,00,00,
9058595,00000097,false,Tx,0,8,F2,C3,7F,CE,05,02,00,00,
9058780,00000124,false,Tx,0,8,54,EA,57,4F,4A,31,21,01,
9062576,000003AF,false,Tx,0,8,8F,D9,F7,1F,E0,01,00,00,
9088285,00000564,false,Rx,0,8,86,09,71,6E,F9,27,24,00,
9067629,00000097,false,Tx,0,8,CC,C4,7F,CE,05,02,00,00,
9077575,00000097,false,Tx,0,8,4B,C5,7F,CE,05,FE,01,00,
9077754,00000124,false,Tx,0,8,7F,EB,57,4F,4A,31,21,01,
9088617,00000097,false,Tx,0,8,EE,C6,7F,CE,05,02,00,00,
9097598,00000097,false,Tx,0,8,64,C7,7F,CE,05,02,00,00,
9097770,00000124,false,Tx,0,8,51,EC,57,4F,4A,31,21,01,
9107555,00000097,false,Tx,0,8,86,C8,7F,CE,05,02,00,00,
9114549,00000187,false,Tx,0,8,32,0C,12,00,00,00,30,00,
9138299,0000038B,false,Rx,0,8,FE,01,00,BC,F2,CA,AB,7F,
9117790,00000097,false,Tx,0,8,22,C9,7F,CE,05,FA,01,00,
9118562,00000124,false,Tx,0,8,E0,ED,57,4F,4A,31,21,01,
9138595,12DD5472,true,Rx,0,8,00,00,00,00,00,00,00,00,
9138835,00000565,false,Rx,0,8,00,20,00,15,0C,08,80,FF,
9139074,00000594,false,Rx,0,8,00,00,00,00,02,30,30,09,
9139363,17F00044,true,Rx,0,8,20,44,00,00,00,00,00,80,
9139765,1A555490,true,Rx,0,8,0A,00,00,00,02,00,20,00,
9139949,1A555491,true,Rx,0,8,00,58,A8,00,00,00,00,80,
9127548,00000097,false,Tx,0,8,63,CA,7F,CE,05,02,00,00,
9153482,00000566,false,Rx,0,8,91,05,FE,21,FB,07,19,00,
9133553,000003A6,false,Tx,0,8,48,00,00,00,00,01,00,00,
9154768,17332510,true,Rx,0,3,39,44,0A,00,00,00,00,00,
9138573,00000097,false,Tx,0,8,6F,CB,7F,CE,05,FE,01,00,
9138811,00000124,false,Tx,0,8,20,EE,57,4F,4A,31,21,01,
9148522,00000097,false,Tx,0,8,0C,CC,7F,CE,05,02,00,00,
9157514,00000097,false,Tx,0,8,D5,CD,7F,CE,05,02,00,00,
9157624,00000124,false,Tx,0,8,CD,EF,57,4F,4A,31,21,01,
9162537,000003AF,false,Tx,0,8,BA,DA,F7,1F,E0,01,00,00,
9163643,000006A4,false,Tx,0,8,98,0C,44,3D,40,03,00,00,
9167587,00000097,false,Tx,0,8,43,CE,7F,CE,05,02,00,00,
9178587,00000097,false,Tx,0,8,01,CF,7F,CE,05,02,00,00,
9178686,00000124,false,Tx,0,8,42,E0,57,4F,4A,31,21,01,
9187543,00000097,false,Tx,0,8,89,C0,7F,CE,05,02,00,00,
9197546,00000097,false,Tx,0,8,B6,C1,7F,CE,05,FA,01,00,
9197667,00000124,false,Tx,0,8,58,E1,57,4F,4A,31,21,01,
9208565,00000097,false,Tx,0,8,E8,C2,7F,CE,05,02,00,00,
9214619,00000187,false,Tx,0,8,0A,0D,12,00,00,00,30,00,
9238335,0000038B,false,Rx,0,8,FE,01,00,BC,F2,CA,AB,7F,
9217628,00000097,false,Tx,0,8,F2,C3,7F,CE,05,02,00,00,
9217860,00000124,false,Tx,0,8,1B,E2,57,4F,4A,31,21,01,
9243556,1B000044,true,Rx,0,8,44,00,44,01,00,00,00,00,
9227638,00000097,false,Tx,0,8,CC,C4,7F,CE,05,02,00,00,
9253511,00000566,false,Rx,0,8,6A,06,FE,21,FB,07,19,00,
9233639,000003A6,false,Tx,0,8,B5,01,00,00,00,01,00,00,
9238587,00000097,false,Tx,0,8,58,C5,7F,CE,05,02,00,00,
9238814,00000124,false,Tx,0,8,52,E3,57,4F,4A,31,21,01,
9247551,00000097,false,Tx,0,8,EE,C6,7F,CE,05,02,00,00,
9257567,00000097,false,Tx,0,8,77,C7,7F,CE,05,FE,01,00,
9257878,00000124,false,Tx,0,8,ED,E4,57,4F,4A,31,21,01,
9262659,000003AF,false,Tx,0,8,86,DB,F7,1F,E0,01,00,00,
9268659,00000097,false,Tx,0,8,86,C8,7F,CE,05,02,00,00,
9277613,00000097,false,Tx,0,8,BB,C9,7F,CE,05,02,00,00,
9277887,00000124,false,Tx,0,8,10,E5,57,4F,4A,31,21,01,
9288603,00000097,false,Tx,0,8,63,CA,7F,CE,05,02,00,00,
9298658,00000097,false,Tx,0,8,6F,CB,7F,CE,05,FE,01,00,
9298794,00000124,false,Tx,0,8,93,E6,57,4F,4A,31,21,01,
9307670,00000097,false,Tx,0,8,1F,CC,7F,CE,05,FE,01,00,
9314572,00000187,false,Tx,0,8,17,0E,12,00,00,00,30,00,
9338376,0000038B,false,Rx,0,8,FE,01,00,BC,F2,CA,AB,7F,
9318720,00000097,false,Tx,0,8,D5,CD,7F,CE,05,02,00,00,
9318905,00000124,false,Tx,0,8,EF,E7,57,4F,4A,31,21,01,
9328729,00000097,false,Tx,0,8,43,CE,7F,CE,05,02,00,00,
9353554,00000566,false,Rx,0,8,9E,07,FE,21,FB,07,19,00,
9333644,000003A6,false,Tx,0,8,76,02,00,00,00,01,00,00,
9337644,00000097,false,Tx,0,8,01,CF,7F,CE,05,02,00,00,
9337867,00000124,false,Tx,0,8,D4,E8,57,4F,4A,31,21,01,
9347642,00000097,false,Tx,0,8,89,C0,7F,CE,05,02,00,00,
9358564,00000097,false,Tx,0,8,B6,C1,7F,CE,05,FA,01,00,
9358767,00000124,false,Tx,0,8,26,E9,57,4F,4A,31,21,01,
9359575,000006A3,false,Tx,0,8,37,0C,99,3E,6C,66,03,00,
9362621,000003AF,false,Tx,0,8,98,DC,F7,1F,E0,01,00,00,
9367597,00000097,false,Tx,0,8,E8,C2,7F,CE,05,02,00,00,
9377567,00000097,false,Tx,0,8,E1,C3,7F,CE,05,FE,01,00,
9378000,00000124,false,Tx,0,8,54,EA,57,4F,4A,31,21,01,
9388529,00000097,false,Tx,0,8,CC,C4,7F,CE,05,02,00,00,
9397567,00000097,false,Tx,0,8,58,C5,7F,CE,05,02,00,00,
9397701,00000124,false,Tx,0,8,7F,EB,57,4F,4A,31,21,01,
9408645,00000097,false,Tx,0,8,EE,C6,7F,CE,05,02,00,00,
9414618,00000187,false,Tx,0,8,E2,0F,12,00,00,00,30,00,
9438404,0000038B,false,Rx,0,8,FE,01,00,BC,F2,CA,AB,7F,
9418617,00000097,false,Tx,0,8,64,C7,7F,CE,05,02,00,00,
9418729,00000124,false,Tx,0,8,51,EC,57,4F,4A,31,21,01,
9443653,1B000044,true,Rx,0,8,44,00,44,01,00,00,00,00,
9427585,00000097,false,Tx,0,8,D2,C8,7F,CF,05,02,00,00,
9453598,00000566,false,Rx,0,8,4B,08,FE,21,FB,07,19,00,
9433575,000003A6,false,Tx,0,8,3A,03,00,00,00,01,00,00,
9437569,00000097,false,Tx,0,8,FC,C9,7F,CF,05,FE,01,00,
9437690,00000124,false,Tx,0,8,E0,ED,57,4F,4A,31,21,01,
9448566,00000097,false,Tx,0,8,37,CA,7F,CF,05,02,00,00,
9457548,00000097,false,Tx,0,8,28,CB,7F,CF,05,02,00,00,
9457709,00000124,false,Tx,0,8,20,EE,57,4F,4A,31,21,01,
9462550,000003AF,false,Tx,0,8,44,DD,F7,1F,E0,01,00,00,
9467631,00000097,false,Tx,0,8,58,CC,7F,CF,05,02,00,00,
9478612,00000097,false,Tx,0,8,18,CD,7F,CF,05,FA,01,00,
9478842,00000124,false,Tx,0,8,CD,EF,57,4F,4A,31,21,01,
9487616,00000097,false,Tx,0,8,17,CE,7F,CF,05,02,00,00,
9497655,00000097,false,Tx,0,8,CC,CF,7F,CF,05,FA,01,00,
9497883,00000124,false,Tx,0,8,42,E0,57,4F,4A,31,21,01,
9508636,00000097,false,Tx,0,8,44,C0,7F,CF,05,FA,01,00,
9514655,00000187,false,Tx,0,8,92,00,12,00,00,00,30,00,
9538440,0000038B,false,Rx,0,8,FE,01,00,BC,F2,CA,AB,7F,
9517656,00000097,false,Tx,0,8,7B,C1,7F,CF,05,02,00,00,
9517884,00000124,false,Tx,0,8,58,E1,57,4F,4A,31,21,01,
9527630,00000097,false,Tx,0,8,BC,C2,7F,CF,05,02,00,00,
9553621,00000566,false,Rx,0,8,B3,09,FE,21,FB,07,19,00,
9533655,000003A6,false,Tx,0,8,7A,04,00,00,00,01,00,00,
9538639,00000097,false,Tx,0,8,F2,C3,7F,CE,05,02,00,00,
9539252,00000124,false,Tx,0,8,1B,E2,57,4F,4A,31,21,01,
9547612,00000097,false,Tx,0,8,CC,C4,7F,CE,05,02,00,00,
9557635,00000097,false,Tx,0,8,4B,C5,7F,CE,05,FE,01,00,
9557858,00000124,false,Tx,0,8,52,E3,57,4F,4A,31,21,01,
9562628,000003AF,false,Tx,0,8,1A,DE,F7,1F,E0,01,00,00,
9568653,00000097,false,Tx,0,8,EE,C6,7F,CE,05,02,00,00,
9577633,00000097,false,Tx,0,8,30,C7,7F,CF,05,02,00,00,
9577854,00000124,false,Tx,0,8,ED,E4,57,4F,4A,31,21,01,
9587623,00000097,false,Tx,0,8,D2,C8,7F,CF,05,02,00,00,
9598646,00000097,false,Tx,0,8,BB,C9,7F,CE,05,02,00,00,
9598877,00000124,false,Tx,0,8,10,E5,57,4F,4A,31,21,01,
9607643,00000097,false,Tx,0,8,70,CA,7F,CE,05,FE,01,00,
9614636,00000187,false,Tx,0,8,E5,01,12,00,00,00,30,00,
9638472,0000038B,false,Rx,0,8,FE,01,00,BC,F2,CA,AB,7F,
9618578,00000097,false,Tx,0,8,6F,CB,7F,CE,05,FE,01,00,
9618785,00000124,false,Tx,0,8,93,E6,57,4F,4A,31,21,01,
9638771,12DD5472,true,Rx,0,8,00,00,00,00,00,00,00,00,
9639010,00000565,false,Rx,0,8,00,20,00,15,0C,08,80,FF,
9639249,00000594,false,Rx,0,8,00,00,00,00,02,30,30,09,
9639538,17F00044,true,Rx,0,8,20,44,00,00,00,00,00,80,
9639779,0000067E,false,Rx,0,8,7E,0A,16,00,3B,00,00,02,
9640058,1A555457,true,Rx,0,8,81,38,32,41,4B,D9,00,00,
9640348,1A555490,true,Rx,0,8,0A,00,00,00,02,00,20,00,
9640631,1A555491,true,Rx,0,8,00,58,A8,00,00,00,00,80,
9643704,1B000044,true,Rx,0,8,44,00,44,01,00,00,00,00,
9627844,00000097,false,Tx,0,8,0C,CC,7F,CE,05,02,00,00,
9653654,00000566,false,Rx,0,8,FC,0A,FE,21,FB,07,19,00,
9633565,000003A6,false,Tx,0,8,8A,05,00,00,00,01,00,00,
9637567,00000097,false,Tx,0,8,D5,CD,7F,CE,05,02,00,00,
9637766,00000124,false,Tx,0,8,EF,E7,57,4F,4A,31,21,01,
9647603,00000097,false,Tx,0,8,43,CE,7F,CE,05,02,00,00,
9658562,00000097,false,Tx,0,8,01,CF,7F,CE,05,02,00,00,
9658697,00000124,false,Tx,0,8,D4,E8,57,4F,4A,31,21,01,
9662557,000003AF,false,Tx,0,8,CD,DF,F7,1F,E0,01,00,00,
9663559,000006A4,false,Tx,0,8,2A,0D,44,3D,40,03,00,00,
9667558,00000097,false,Tx,0,8,89,C0,7F,CE,05,02,00,00,
9677612,00000097,false,Tx,0,8,3C,C1,7F,CE,05,FE,01,00,
9677742,00000124,false,Tx,0,8,26,E9,57,4F,4A,31,21,01,
9688593,00000097,false,Tx,0,8,BC,C2,7F,CF,05,02,00,00,
9697674,00000097,false,Tx,0,8,A6,C3,7F,CF,05,02,00,00,
9697731,00000124,false,Tx,0,8,54,EA,57,4F,4A,31,21,01,
9707558,00000097,false,Tx,0,8,98,C4,7F,CF,05,02,00,00,
9714560,00000187,false,Tx,0,8,98,02,12,00,00,00,30,00,
9738511,0000038B,false,Rx,0,8,FE,01,00,BC,F2,CA,AB,7F,
9718589,00000097,false,Tx,0,8,0C,C5,7F,CF,05,02,00,00,
9718738,00000124,false,Tx,0,8,7F,EB,57,4F,4A,31,21,01,
9727615,00000097,false,Tx,0,8,BA,C6,7F,CF,05,02,00,00,
9753692,00000566,false,Rx,0,8,71,0B,FE,21,FB,07,19,00,
9733662,000003A6,false,Tx,0,8,08,06,00,00,00,01,00,00,
9738641,00000097,false,Tx,0,8,23,C7,7F,CF,05,FE,01,00,
9738868,00000124,false,Tx,0,8,51,EC,57,4F,4A,31,21,01,
9748606,00000097,false,Tx,0,8,D2,C8,7F,CF,05,02,00,00,
9757608,00000097,false,Tx,0,8,BB,C9,7F,CE,05,02,00,00,
9757793,00000124,false,Tx,0,8,E0,ED,57,4F,4A,31,21,01,
9762600,000003AF,false,Tx,0,8,66,D0,F7,1F,E0,01,00,00,
9767621,00000097,false,Tx,0,8,63,CA,7F,CE,05,02,00,00,
9778625,00000097,false,Tx,0,8,7C,CB,7F,CE,05,02,00,00,
9778908,00000124,false,Tx,0,8,20,EE,57,4F,4A,31,21,01,
9788585,00000097,false,Tx,0,8,0C,CC,7F,CE,05,02,00,00,
9797578,00000097,false,Tx,0,8,D5,CD,7F,CE,05,02,00,00,
9797832,00000124,false,Tx,0,8,E6,EF,97,4F,4A,31,21,01,
9808587,00000097,false,Tx,0,8,43,CE,7F,CE,05,02,00,00,
9814645,00000187,false,Tx,0,8,C4,03,12,00,00,00,30,00,
9838543,0000038B,false,Rx,0,8,FE,01,00,BC,F2,CA,AB,7F,
9817594,00000097,false,Tx,0,8,01,CF,7F,CE,05,02,00,00,
9817786,00000124,false,Tx,0,8,69,E0,97,4F,4A,31,21,01,
9843784,1B000044,true,Rx,0,8,44,00,44,01,00,00,00,00,
9827628,00000097,false,Tx,0,8,89,C0,7F,CE,05,02,00,00,
9853738,00000566,false,Rx,0,8,B0,0C,FE,21,FB,07,19,00,
9833610,000003A6,false,Tx,0,8,E0,07,00,00,00,01,00,00,
9838652,00000097,false,Tx,0,8,2F,C1,7F,CE,05,02,00,00,
9838832,00000124,false,Tx,0,8,73,E1,97,4F,4A,31,21,01,
9847627,00000097,false,Tx,0,8,E8,C2,7F,CE,05,02,00,00,
9858628,00000097,false,Tx,0,8,E1,C3,7F,CE,05,FE,01,00,
9858802,00000124,false,Tx,0,8,30,E2,97,4F,4A,31,21,01,
9859643,000006A3,false,Tx,0,8,E3,0D,99,3E,6C,66,03,00,
9862620,000003AF,false,Tx,0,8,6F,D1,F7,1F,E0,01,00,00,
9868628,00000097,false,Tx,0,8,CC,C4,7F,CE,05,02,00,00,
9877737,00000097,false,Tx,0,8,58,C5,7F,CE,05,02,00,00,
9877913,00000124,false,Tx,0,8,79,E3,97,4F,4A,31,21,01,
9887656,00000097,false,Tx,0,8,EE,C6,7F,CE,05,02,00,00,
9898590,00000097,false,Tx,0,8,64,C7,7F,CE,05,02,00,00,
9898814,00000124,false,Tx,0,8,ED,E4,57,4F,4A,31,21,01,
9907826,00000097,false,Tx,0,8,95,C8,7F,CE,05,FE,01,00,
9914638,00000187,false,Tx,0,8,5C,04,12,00,00,00,30,00,
9938584,0000038B,false,Rx,0,8,FE,01,00,BC,F2,CA,AB,7F,
9918639,00000097,false,Tx,0,8,A8,C9,7F,CE,05,FE,01,00,
9918874,00000124,false,Tx,0,8,10,E5,57,4F,4A,31,21,01,
9928776,00000097,false,Tx,0,8,63,CA,7F,CE,05,02,00,00,
9953763,00000566,false,Rx,0,8,17,0D,FE,21,FB,07,19,00,
9933572,000003A6,false,Tx,0,8,4F,08,00,00,00,01,00,00,
9937574,00000097,false,Tx,0,8,28,CB,7F,CF,05,02,00,00,
9937692,00000124,false,Tx,0,8,93,E6,57,4F,4A,31,21,01,
9947635,00000097,false,Tx,0,8,58,CC,7F,CF,05,02,00,00,
9958641,00000097,false,Tx,0,8,81,CD,7F,CF,05,02,00,00,
9958758,00000124,false,Tx,0,8,EF,E7,57,4F,4A,31,21,01,
9962581,000003AF,false,Tx,0,8,F2,D2,F7,1F,E0,01,00,00,
9967574,00000097,false,Tx,0,8,43,CE,7F,CE,05,02,00,00,
9977685,00000097,false,Tx,0,8,46,CF,7F,CF,05,FE,01,00,
9977766,00000124,false,Tx,0,8,D4,E8,57,4F,4A,31,21,01,
9988657,00000097,false,Tx,0,8,89,C0,7F,CE,05,02,00,00,
9997655,00000097,false,Tx,0,8,2F,C1,7F,CE,05,02,00,00,
9997881,00000124,false,Tx,0,8,0D,E9,97,4F,4A,31,21,01,
10007607,00000097,false,Tx,0,8,E8,C2,7F,CE,05,02,00,00,
10013670,00000187,false,Tx,0,8,B8,05,12,00,00,00,30,00,
10038614,0000038B,false,Rx,0,8,FE,01,00,BC,F2,CA,AB,7F,
10018654,00000097,false,Tx,0,8,F2,C3,7F,CE,05,02,00,00,
10018882,00000124,false,Tx,0,8,7F,EA,97,4F,4A,31,21,01,
10043834,1B000044,true,Rx,0,8,44,00,44,01,00,00,00,00,
10027595,00000097,false,Tx,0,8,CC,C4,7F,CE,05,02,00,00,
10053790,00000566,false,Rx,0,8,89,0E,FE,21,FB,07,19,00,
10033642,000003A6,false,Tx,0,8,22,09,00,00,00,01,00,00,
10037642,00000097,false,Tx,0,8,4B,C5,7F,CE,05,FE,01,00,
10037915,00000124,false,Tx,0,8,54,EB,97,4F,4A,31,21,01,
10048622,00000097,false,Tx,0,8,EE,C6,7F,CE,05,02,00,00,
10057666,00000097,false,Tx,0,8,64,C7,7F,CE,05,02,00,00,
10057843,00000124,false,Tx,0,8,7A,EC,97,4F,4A,31,21,01,
10062629,000003AF,false,Tx,0,8,B1,D3,F7,1F,E0,01,00,00,
10088636,00000564,false,Rx,0,8,19,0A,72,6E,F9,27,24,00,
10068260,00000097,false,Tx,0,8,86,C8,7F,CE,05,02,00,00,
10078639,00000097,false,Tx,0,8,BB,C9,7F,CE,05,02,00,00,
10078813,00000124,false,Tx,0,8,CB,ED,97,4F,4A,31,21,01,
10087618,00000097,false,Tx,0,8,63,CA,7F,CE,05,02,00,00,
10097611,00000097,false,Tx,0,8,E5,CB,7F,CE,05,FA,01,00,
10097777,00000124,false,Tx,0,8,20,EE,57,4F,4A,31,21,01,
10108628,00000097,false,Tx,0,8,58,CC,7F,CF,05,02,00,00,
10114623,00000187,false,Tx,0,8,1E,06,12,00,00,00,30,00,
10138655,0000038B,false,Rx,0,8,FE,01,00,BC,F2,CA,AB,7F,
10117611,00000097,false,Tx,0,8,81,CD,7F,CF,05,02,00,00,
10117950,00000124,false,Tx,0,8,CD,EF,57,4F,4A,31,21,01,
10138943,12DD5472,true,Rx,0,8,00,00,00,00,00,00,00,00,
10139181,00000565,false,Rx,0,8,00,20,00,15,0C,08,80,FF,
10139430,00000594,false,Rx,0,8,00,00,00,00,02,30,30,09,
10139725,17F00044,true,Rx,0,8,20,44,00,00,00,00,00,80,
10140250,1A555490,true,Rx,0,8,0A,00,00,00,02,00,20,00,
10140767,1A555491,true,Rx,0,8,00,58,A8,00,00,00,00,80,
10127614,00000097,false,Tx,0,8,17,CE,7F,CF,05,02,00,00,
10153853,00000566,false,Rx,0,8,74,0F,FE,21,FB,07,19,00,
10133596,000003A6,false,Tx,0,8,C2,0A,00,00,00,01,00,00,
10155086,17332510,true,Rx,0,3,39,4D,00,00,00,00,00,00,
10138597,00000097,false,Tx,0,8,55,CF,7F,CF,05,02,00,00,
10138943,00000124,false,Tx,0,8,42,E0,57,4F,4A,31,21,01,
10147603,00000097,false,Tx,0,8,89,C0,7F,CE,05,02,00,00,
10157600,00000097,false,Tx,0,8,3C,C1,7F,CE,05,FE,01,00,
10157918,00000124,false,Tx,0,8,58,E1,57,4F,4A,31,21,01,
10162715,000003AF,false,Tx,0,8,C2,D4,F7,1F,E0,01,00,00,
10163562,000006A4,false,Tx,0,8,83,0E,44,3D,40,03,00,00,
10168562,00000097,false,Tx,0,8,E8,C2,7F,CE,05,02,00,00,
10177605,00000097,false,Tx,0,8,F2,C3,7F,CE,05,02,00,00,
10177753,00000124,false,Tx,0,8,1B,E2,57,4F,4A,31,21,01,
10187592,00000097,false,Tx,0,8,CC,C4,7F,CE,05,02,00,00,
10198607,00000097,false,Tx,0,8,58,C5,7F,CE,05,02,00,00,
10198744,00000124,false,Tx,0,8,52,E3,57,4F,4A,31,21,01,
10207580,00000097,false,Tx,0,8,FD,C6,7F,CE,05,FE,01,00,
10213584,00000187,false,Tx,0,8,7C,07,12,00,00,00,30,00,
10238694,0000038B,false,Rx,0,8,FE,01,00,BC,F2,CA,AB,7F,
10218608,00000097,false,Tx,0,8,77,C7,7F,CE,05,FE,01,00,
10218736,00000124,false,Tx,0,8,ED,E4,57,4F,4A,31,21,01,
10243936,1B000044,true,Rx,0,8,44,00,44,01,00,00,00,00,
10228617,00000097,false,Tx,0,8,86,C8,7F,CE,05,02,00,00,
10253881,00000566,false,Rx,0,8,FE,00,FE,21,FB,07,19,00,
10233600,000003A6,false,Tx,0,8,AE,0B,00,00,00,01,00,00,
10237583,00000097,false,Tx,0,8,BB,C9,7F,CE,05,02,00,00,
10237762,00000124,false,Tx,0,8,10,E5,57,4F,4A,31,21,01,
10247646,00000097,false,Tx,0,8,63,CA,7F,CE,05,02,00,00,
10258672,00000097,false,Tx,0,8,7C,CB,7F,CE,05,02,00,00,
10258938,00000124,false,Tx,0,8,93,E6,57,4F,4A,31,21,01,
10262650,000003AF,false,Tx,0,8,CE,D5,F7,1F,E0,01,00,00,
10267669,00000097,false,Tx,0,8,0C,CC,7F,CE,05,02,00,00,
10277688,00000097,false,Tx,0,8,C6,CD,7F,CE,05,FE,01,00,
10277948,00000124,false,Tx,0,8,EF,E7,57,4F,4A,31,21,01,
10288702,00000097,false,Tx,0,8,43,CE,7F,CE,05,02,00,00,
10297727,00000097,false,Tx,0,8,01,CF,7F,CE,05,02,00,00,
10297997,00000124,false,Tx,0,8,D4,E8,57,4F,4A,31,21,01,
10307694,00000097,false,Tx,0,8,89,C0,7F,CE,05,02,00,00,
10313704,00000187,false,Tx,0,8,4D,08,12,00,00,00,30,00,
10338720,0000038B,false,Rx,0,8,FE,01,00,BC,F2,CA,AB,7F,
10318701,00000097,false,Tx,0,8,3C,C1,7F,CE,05,FE,01,00,
10319026,00000124,false,Tx,0,8,26,E9,57,4F,4A,31,21,01,
10327687,00000097,false,Tx,0,8,E8,C2,7F,CE,05,02,00,00,
10353908,00000566,false,Rx,0,8,A0,01,FE,21,FB,07,19,00,
10333713,000003A6,false,Tx,0,8,3D,0C,00,00,00,01,00,00,
10338705,00000097,false,Tx,0,8,E1,C3,7F,CE,05,FE,01,00,
10338956,00000124,false,Tx,0,8,54,EA,57,4F,4A,31,21,01,
10348694,00000097,false,Tx,0,8,CC,C4,7F,CE,05,02,00,00,
10357676,00000097,false,Tx,0,8,58,C5,7F,CE,05,02,00,00,
10357932,00000124,false,Tx,0,8,7F,EB,57,4F,4A,31,21,01,
10358681,000006A3,false,Tx,0,8,B9,0E,99,3E,6C,66,03,00,
10362676,000003AF,false,Tx,0,8,56,D6,F7,1F,E0,01,00,00,
10367636,00000097,false,Tx,0,8,BA,C6,7F,CF,05,02,00,00,
10378657,00000097,false,Tx,0,8,30,C7,7F,CF,05,02,00,00,
10378917,00000124,false,Tx,0,8,51,EC,57,4F,4A,31,21,01,
10387692,00000097,false,Tx,0,8,D2,C8,7F,CF,05,02,00,00,
10397644,00000097,false,Tx,0,8,FC,C9,7F,CF,05,FE,01,00,
10397890,00000124,false,Tx,0,8,E0,ED,57,4F,4A,31,21,01,
10408634,00000097,false,Tx,0,8,AE,CA,7F,CF,05,FA,01,00,
10415600,00000187,false,Tx,0,8,D7,09,12,00,00,00,30,00,
10438756,0000038B,false,Rx,0,8,FE,01,00,BC,F2,CA,AB,7F,
10417651,00000097,false,Tx,0,8,28,CB,7F,CF,05,02,00,00,
10417802,00000124,false,Tx,0,8,20,EE,57,4F,4A,31,21,01,
10443989,1B000044,true,Rx,0,8,44,00,44,01,00,00,00,00,
10428624,00000097,false,Tx,0,8,58,CC,7F,CF,05,02,00,00,
10453935,00000566,false,Rx,0,8,24,02,FE,21,FB,07,19,00,
10433596,000003A6,false,Tx,0,8,CA,0D,00,00,00,01,00,00,
10438575,00000097,false,Tx,0,8,81,CD,7F,CF,05,02,00,00,
10438690,00000124,false,Tx,0,8,CD,EF,57,4F,4A,31,21,01,
10447596,00000097,false,Tx,0,8,17,CE,7F,CF,05,02,00,00,
10457563,00000097,false,Tx,0,8,46,CF,7F,CF,05,FE,01,00,
10457732,00000124,false,Tx,0,8,42,E0,57,4F,4A,31,21,01,
10462654,000003AF,false,Tx,0,8,3A,D7,F7,1F,E0,01,00,00,
10468626,00000097,false,Tx,0,8,10,C0,7F,CE,05,FA,01,00,
10477712,00000097,false,Tx,0,8,2F,C1,7F,CE,05,02,00,00,
10477778,00000124,false,Tx,0,8,58,E1,57,4F,4A,31,21,01,
10487606,00000097,false,Tx,0,8,E8,C2,7F,CE,05,02,00,00,
10498719,00000097,false,Tx,0,8,F2,C3,7F,CE,05,02,00,00,
10498982,00000124,false,Tx,0,8,30,E2,97,4F,4A,31,21,01,
10507659,00000097,false,Tx,0,8,DF,C4,7F,CE,05,FE,01,00,
10514652,00000187,false,Tx,0,8,27,0A,12,00,00,00,30,00,
10538793,0000038B,false,Rx,0,8,FE,01,00,BC,F2,CA,AB,7F,
10518687,00000097,false,Tx,0,8,4B,C5,7F,CE,05,FE,01,00,
10518901,00000124,false,Tx,0,8,79,E3,97,4F,4A,31,21,01,
10528653,00000097,false,Tx,0,8,EE,C6,7F,CE,05,02,00,00,
10553973,00000566,false,Rx,0,8,E2,03,FE,21,FB,07,19,00,
10533688,000003A6,false,Tx,0,8,9E,0E,00,00,00,01,00,00,
10537653,00000097,false,Tx,0,8,30,C7,7F,CF,05,02,00,00,
10538076,00000124,false,Tx,0,8,C6,E4,97,4F,4A,31,21,01,
10547669,00000097,false,Tx,0,8,D2,C8,7F,CF,05,02,00,00,
10558688,00000097,false,Tx,0,8,BB,C9,7F,CE,05,02,00,00,
10558921,00000124,false,Tx,0,8,3B,E5,97,4F,4A,31,21,01,
10562648,000003AF,false,Tx,0,8,E5,D8,F7,1F,E0,01,00,00,
10567622,00000097,false,Tx,0,8,63,CA,7F,CE,05,02,00,00,
10577646,00000097,false,Tx,0,8,6F,CB,7F,CE,05,FE,01,00,
10577863,00000124,false,Tx,0,8,B8,E6,97,4F,4A,31,21,01,
10588665,00000097,false,Tx,0,8,0C,CC,7F,CE,05,02,00,00,
10597645,00000097,false,Tx,0,8,D5,CD,7F,CE,05,02,00,00,
10597852,00000124,false,Tx,0,8,EF,E7,57,4F,4A,31,21,01,
10607679,00000097,false,Tx,0,8,17,CE,7F,CF,05,02,00,00,
10615660,00000187,false,Tx,0,8,F3,0B,12,00,00,00,30,00,
10638829,0000038B,false,Rx,0,8,FE,01,00,BC,F2,CA,AB,7F,
10618686,00000097,false,Tx,0,8,CC,CF,7F,CF,05,FA,01,00,
10618986,00000124,false,Tx,0,8,D4,E8,57,4F,4A,31,21,01,
10639125,12DD5472,true,Rx,0,8,00,00,00,00,00,00,00,00,
10639363,00000565,false,Rx,0,8,00,20,00,15,0C,08,80,FF,
10639602,00000594,false,Rx,0,8,00,00,00,00,02,30,30,09,
10639893,17F00044,true,Rx,0,8,20,44,00,00,00,00,00,80,
10640142,0000067E,false,Rx,0,8,1A,0B,16,00,3B,00,00,02,
10640412,1A555457,true,Rx,0,8,82,30,33,30,30,02,00,00,
10640722,1A555490,true,Rx,0,8,0A,00,00,00,02,00,20,00,
10640996,1A555491,true,Rx,0,8,00,58,A8,00,00,00,00,80,
10644078,1B000044,true,Rx,0,8,44,00,44,01,00,00,00,00,
10627582,00000097,false,Tx,0,8,DD,C0,7F,CF,05,02,00,00,
10654019,00000566,false,Rx,0,8,6F,04,FE,21,FB,07,19,00,
10633552,000003A6,false,Tx,0,8,88,0F,00,00,00,01,00,00,
10637689,00000097,false,Tx,0,8,68,C1,7F,CF,05,FE,01,00,
10638472,00000124,false,Tx,0,8,26,E9,57,4F,4A,31,21,01,
10648577,00000097,false,Tx,0,8,E8,C2,7F,CE,05,02,00,00,
10657641,00000097,false,Tx,0,8,F2,C3,7F,CE,05,02,00,00,
10657877,00000124,false,Tx,0,8,54,EA,57,4F,4A,31,21,01,
10662200,000003AF,false,Tx,0,8,8F,D9,F7,1F,E0,01,00,00,
10663578,000006A4,false,Tx,0,8,7B,0F,44,3D,40,03,00,00,
10667595,00000097,false,Tx,0,8,CC,C4,7F,CE,05,02,00,00,
10678568,00000097,false,Tx,0,8,58,C5,7F,CE,05,02,00,00,
10678690,00000124,false,Tx,0,8,7F,EB,57,4F,4A,31,21,01,
10687558,00000097,false,Tx,0,8,EE,C6,7F,CE,05,02,00,00,
10697586,00000097,false,Tx,0,8,FD,C7,7F,CE,05,FA,01,00,
10697715,00000124,false,Tx,0,8,51,EC,57,4F,4A,31,21,01,
10708597,00000097,false,Tx,0,8,86,C8,7F,CE,05,02,00,00,
10713563,00000187,false,Tx,0,8,32,0C,12,00,00,00,30,00,
10738866,0000038B,false,Rx,0,8,FE,01,00,BC,F2,CA,AB,7F,
10717563,00000097,false,Tx,0,8,BB,C9,7F,CE,05,02,00,00,
10717610,00000124,false,Tx,0,8,E0,ED,57,4F,4A,31,21,01,
10727560,00000097,false,Tx,0,8,37,CA,7F,CF,05,02,00,00,
10754040,00000566,false,Rx,0,8,91,05,FE,21,FB,07,19,00,
10733560,000003A6,false,Tx,0,8,48,00,00,00,00,01,00,00,
10738562,00000097,false,Tx,0,8,7C,CB,7F,CE,05,02,00,00,
10738615,00000124,false,Tx,0,8,20,EE,57,4F,4A,31,21,01,
10747560,00000097,false,Tx,0,8,0C,CC,7F,CE,05,02,00,00,
10757563,00000097,false,Tx,0,8,C6,CD,7F,CE,05,FE,01,00,
10757617,00000124,false,Tx,0,8,CD,EF,57,4F,4A,31,21,01,
10762562,000003AF,false,Tx,0,8,BA,DA,F7,1F,E0,01,00,00,
10768589,00000097,false,Tx,0,8,43,CE,7F,CE,05,02,00,00,
10777586,00000097,false,Tx,0,8,01,CF,7F,CE,05,02,00,00,
10777678,00000124,false,Tx,0,8,42,E0,57,4F,4A,31,21,01,
10788569,00000097,false,Tx,0,8,89,C0,7F,CE,05,02,00,00,
10798570,00000097,false,Tx,0,8,3C,C1,7F,CE,05,FE,01,00,
10798633,00000124,false,Tx,0,8,73,E1,97,4F,4A,31,21,01,
10807608,00000097,false,Tx,0,8,FB,C2,7F,CE,05,FE,01,00,
10815654,00000187,false,Tx,0,8,0A,0D,12,00,00,00,30,00,
10838896,0000038B,false,Rx,0,8,FE,01,00,BC,F2,CA,AB,7F,
10818672,00000097,false,Tx,0,8,E1,C3,7F,CE,05,FE,01,00,
10818788,00000124,false,Tx,0,8,30,E2,97,4F,4A,31,21,01,
10844118,1B000044,true,Rx,0,8,44,00,44,01,00,00,00,00,
10828603,00000097,false,Tx,0,8,CC,C4,7F,CE,05,02,00,00,
10854073,00000566,false,Rx,0,8,6A,06,FE,21,FB,07,19,00,
10834594,000003A6,false,Tx,0,8,B5,01,00,00,00,01,00,00,
10837601,00000097,false,Tx,0,8,58,C5,7F,CE,05,02,00,00,
10837698,00000124,false,Tx,0,8,79,E3,97,4F,4A,31,21,01,
10847592,00000097,false,Tx,0,8,EE,C6,7F,CE,05,02,00,00,
10858592,00000097,false,Tx,0,8,FD,C7,7F,CE,05,FA,01,00,
10858678,00000124,false,Tx,0,8,C6,E4,97,4F,4A,31,21,01,
10859568,000006A3,false,Tx,0,8,63,0F,99,3E,6C,66,03,00,
10862571,000003AF,false,Tx,0,8,86,DB,F7,1F,E0,01,00,00,
10867573,00000097,false,Tx,0,8,86,C8,7F,CE,05,02,00,00,
10877570,00000097,false,Tx,0,8,FC,C9,7F,CF,05,FE,01,00,
10877654,00000124,false,Tx,0,8,3B,E5,97,4F,4A,31,21,01,
10888596,00000097,false,Tx,0,8,37,CA,7F,CF,05,02,00,00,
10897593,00000097,false,Tx,0,8,28,CB,7F,CF,05,02,00,00,
10897709,00000124,false,Tx,0,8,93,E6,57,4F,4A,31,21,01,
10908608,00000097,false,Tx,0,8,58,CC,7F,CF,05,02,00,00,
10914600,00000187,false,Tx,0,8,17,0E,12,00,00,00,30,00,
10938928,0000038B,false,Rx,0,8,FE,01,00,BC,F2,CA,AB,7F,
10918585,00000097,false,Tx,0,8,81,CD,7F,CF,05,02,00,00,
10918712,00000124,false,Tx,0,8,EF,E7,57,4F,4A,31,21,01,
10927576,00000097,false,Tx,0,8,04,CE,7F,CF,05,FE,01,00,
10954119,00000566,false,Rx,0,8,9E,07,FE,21,FB,07,19,00,
10934600,000003A6,false,Tx,0,8,76,02,00,00,00,01,00,00,
10938584,00000097,false,Tx,0,8,46,CF,7F,CF,05,FE,01,00,
10938736,00000124,false,Tx,0,8,D4,E8,57,4F,4A,31,21,01,
10948584,00000097,false,Tx,0,8,DD,C0,7F,CF,05,02,00,00,
10957591,00000097,false,Tx,0,8,7B,C1,7F,CF,05,02,00,00,
10957679,00000124,false,Tx,0,8,26,E9,57,4F,4A,31,21,01,
10962607,000003AF,false,Tx,0,8,98,DC,F7,1F,E0,01,00,00,
10967621,00000097,false,Tx,0,8,BC,C2,7F,CF,05,02,00,00,
10978589,00000097,false,Tx,0,8,F2,C3,7F,CE,05,02,00,00,
10978705,00000124,false,Tx,0,8,54,EA,57,4F,4A,31,21,01,
10987599,00000097,false,Tx,0,8,CC,C4,7F,CE,05,02,00,00,
10997578,00000097,false,Tx,0,8,4B,C5,7F,CE,05,FE,01,00,
10997671,00000124,false,Tx,0,8,7F,EB,57,4F,4A,31,21,01,
11008583,00000097,false,Tx,0,8,EE,C6,7F,CE,05,02,00,00,
11015579,00000187,false,Tx,0,8,E2,0F,12,00,00,00,30,00,
11038973,0000038B,false,Rx,0,8,FE,01,00,BC,F2,CA,AB,7F,
11017582,00000097,false,Tx,0,8,64,C7,7F,CE,05,02,00,00,
11017639,00000124,false,Tx,0,8,51,EC,57,4F,4A,31,21,01,
11044215,1B000044,true,Rx,0,8,44,00,44,01,00,00,00,00,
11027573,00000097,false,Tx,0,8,86,C8,7F,CE,05,02,00,00,
11054160,00000566,false,Rx,0,8,4B,08,FE,21,FB,07,19,00,
11034608,000003A6,false,Tx,0,8,3A,03,00,00,00,01,00,00,
11038602,00000097,false,Tx,0,8,22,C9,7F,CE,05,FA,01,00,
11038709,00000124,false,Tx,0,8,E0,ED,57,4F,4A,31,21,01,
11047605,00000097,false,Tx,0,8,63,CA,7F,CE,05,02,00,00,
11057604,00000097,false,Tx,0,8,6F,CB,7F,CE,05,FE,01,00,
11057718,00000124,false,Tx,0,8,20,EE,57,4F,4A,31,21,01,
11062599,000003AF,false,Tx,0,8,44,DD,F7,1F,E0,01,00,00,
11088990,00000564,false,Rx,0,8,7D,0B,72,6E,F9,27,24,00,
11068605,00000097,false,Tx,0,8,0C,CC,7F,CE,05,02,00,00,
11077657,00000097,false,Tx,0,8,D5,CD,7F,CE,05,02,00,00,
11077794,00000124,false,Tx,0,8,CD,EF,57,4F,4A,31,21,01,
11087612,00000097,false,Tx,0,8,43,CE,7F,CE,05,02,00,00,
11098605,00000097,false,Tx,0,8,01,CF,7F,CE,05,02,00,00,
11098690,00000124,false,Tx,0,8,42,E0,57,4F,4A,31,21,01,
11107595,00000097,false,Tx,0,8,10,C0,7F,CE,05,FA,01,00,
11114595,00000187,false,Tx,0,8,92,00,12,00,00,00,30,00,
11139002,0000038B,false,Rx,0,8,FE,01,00,BC,F2,CA,AB,7F,
11118615,00000097,false,Tx,0,8,3C,C1,7F,CE,05,FE,01,00,
11118709,00000124,false,Tx,0,8,58,E1,57,4F,4A,31,21,01,
11139298,12DD5472,true,Rx,0,8,00,00,00,00,00,00,00,00,
11139537,00000565,false,Rx,0,8,00,20,00,15,0C,08,80,FF,
11139777,00000594,false,Rx,0,8,00,00,00,00,02,30,30,09,
11140066,17F00044,true,Rx,0,8,20,44,00,00,00,00,00,80,
11140357,1A555490,true,Rx,0,8,0A,00,00,00,02,00,20,00,
11140743,1A555491,true,Rx,0,8,00,58,A8,00,00,00,00,80,
11128622,00000097,false,Tx,0,8,E8,C2,7F,CE,05,02,00,00,
11154177,00000566,false,Rx,0,8,B3,09,FE,21,FB,07,19,00,
11134648,000003A6,false,Tx,0,8,7A,04,00,00,00,01,00,00,
11155554,17332510,true,Rx,0,8,39,4E,00,00,00,00,00,00,
11137624,00000097,false,Tx,0,8,F2,C3,7F,CE,05,02,00,00,
11137690,00000124,false,Tx,0,8,1B,E2,57,4F,4A,31,21,01,
11147594,00000097,false,Tx,0,8,CC,C4,7F,CE,05,02,00,00,
11158599,00000097,false,Tx,0,8,58,C5,7F,CE,05,02,00,00,
11158683,00000124,false,Tx,0,8,52,E3,57,4F,4A,31,21,01,
11162580,000003AF,false,Tx,0,8,1A,DE,F7,1F,E0,01,00,00,
11163583,000006A4,false,Tx,0,8,3B,00,44,3D,40,03,00,00,
11167577,00000097,false,Tx,0,8,EE,C6,7F,CE,05,02,00,00,
11177592,00000097,false,Tx,0,8,23,C7,7F,CF,05,FE,01,00,
11177693,00000124,false,Tx,0,8,ED,E4,57,4F,4A,31,21,01,
11188611,00000097,false,Tx,0,8,D2,C8,7F,CF,05,02,00,00,
11197597,00000097,false,Tx,0,8,EF,C9,7F,CF,05,02,00,00,
11197696,00000124,false,Tx,0,8,3B,E5,97,4F,4A,31,21,01,
11207608,00000097,false,Tx,0,8,37,CA,7F,CF,05,02,00,00,
11213610,00000187,false,Tx,0,8,E5,01,12,00,00,00,30,00,
11239039,0000038B,false,Rx,0,8,FE,01,00,BC,F2,CA,AB,7F,
11218628,00000097,false,Tx,0,8,B1,CB,7F,CF,05,FA,01,00,
11218699,00000124,false,Tx,0,8,B8,E6,97,4F,4A,31,21,01,
11244262,1B000044,true,Rx,0,8,44,00,44,01,00,00,00,00,
11227609,00000097,false,Tx,0,8,58,CC,7F,CF,05,02,00,00,
11254217,00000566,false,Rx,0,8,FC,0A,FE,21,FB,07,19,00,
11234620,000003A6,false,Tx,0,8,8A,05,00,00,00,01,00,00,
11237610,00000097,false,Tx,0,8,92,CD,7F,CF,05,FE,01,00,
11237721,00000124,false,Tx,0,8,C4,E7,97,4F,4A,31,21,01,
11248615,00000097,false,Tx,0,8,17,CE,7F,CF,05,02,00,00,
11257620,00000097,false,Tx,0,8,55,CF,7F,CF,05,02,00,00,
11257755,00000124,false,Tx,0,8,FF,E8,97,4F,4A,31,21,01,
11262599,000003AF,false,Tx,0,8,CD,DF,F7,1F,E0,01,00,00,
11267598,00000097,false,Tx,0,8,DD,C0,7F,CF,05,02,00,00,
11278624,00000097,false,Tx,0,8,2F,C1,7F,CE,05,02,00,00,
11278759,00000124,false,Tx,0,8,0D,E9,97,4F,4A,31,21,01,
11288623,00000097,false,Tx,0,8,FB,C2,7F,CE,05,FE,01,00,
11298625,00000097,false,Tx,0,8,F2,C3,7F,CE,05,02,00,00,
11298765,00000124,false,Tx,0,8,54,EA,57,4F,4A,31,21,01,
11308711,00000097,false,Tx,0,8,CC,C4,7F,CE,05,02,00,00,
11313679,00000187,false,Tx,0,8,98,02,12,00,00,00,30,00,
11317624,00000097,false,Tx,0,8,0C,C5,7F,CF,05,02,00,00,
11339071,0000038B,false,Rx,0,8,FE,01,00,BC,F2,CA,AB,7F,
11317730,00000124,false,Tx,0,8,7F,EB,57,4F,4A,31,21,01,
11327681,00000097,false,Tx,0,8,BA,C6,7F,CF,05,02,00,00,
11354259,00000566,false,Rx,0,8,71,0B,FE,21,FB,07,19,00,
11334738,000003A6,false,Tx,0,8,08,06,00,00,00,01,00,00,
11338729,00000097,false,Tx,0,8,30,C7,7F,CF,05,02,00,00,
11339005,00000124,false,Tx,0,8,51,EC,57,4F,4A,31,21,01,
11347726,00000097,false,Tx,0,8,D2,C8,7F,CF,05,02,00,00,
11358781,00000097,false,Tx,0,8,FC,C9,7F,CF,05,FE,01,00,
11359036,00000124,false,Tx,0,8,E0,ED,57,4F,4A,31,21,01,
11359701,000006A3,false,Tx,0,8,56,00,99,3E,6C,66,03,00,
11362686,000003AF,false,Tx,0,8,66,D0,F7,1F,E0,01,00,00,
11368681,00000097,false,Tx,0,8,37,CA,7F,CF,05,02,00,00,
11377678,00000097,false,Tx,0,8,B1,CB,7F,CF,05,FA,01,00,
11377899,00000124,false,Tx,0,8,20,EE,57,4F,4A,31,21,01,
11387700,00000097,false,Tx,0,8,58,CC,7F,CF,05,02,00,00,
11398703,00000097,false,Tx,0,8,D5,CD,7F,CE,05,02,00,00,
11398915,00000124,false,Tx,0,8,CD,EF,57,4F,4A,31,21,01,
11407683,00000097,false,Tx,0,8,43,CE,7F,CE,05,02,00,00,
11415682,00000187,false,Tx,0,8,C4,03,12,00,00,00,30,00,
11439118,0000038B,false,Rx,0,8,FE,01,00,BC,F2,CA,AB,7F,
11418701,00000097,false,Tx,0,8,46,CF,7F,CF,05,FE,01,00,
11418907,00000124,false,Tx,0,8,42,E0,57,4F,4A,31,21,01,
11444358,1B000044,true,Rx,0,8,44,00,44,01,00,00,00,00,
11428680,00000097,false,Tx,0,8,44,C0,7F,CF,05,FA,01,00,
11454303,00000566,false,Rx,0,8,B0,0C,FE,21,FB,07,19,00,
11434695,000003A6,false,Tx,0,8,E0,07,00,00,00,01,00,00,
11437713,00000097,false,Tx,0,8,7B,C1,7F,CF,05,02,00,00,
11437925,00000124,false,Tx,0,8,58,E1,57,4F,4A,31,21,01,
11447660,00000097,false,Tx,0,8,BC,C2,7F,CF,05,02,00,00,
11458665,00000097,false,Tx,0,8,F2,C3,7F,CE,05,02,00,00,
11458821,00000124,false,Tx,0,8,1B,E2,57,4F,4A,31,21,01,
11462683,000003AF,false,Tx,0,8,6F,D1,F7,1F,E0,01,00,00,
11467640,00000097,false,Tx,0,8,CC,C4,7F,CE,05,02,00,00,
11478706,00000097,false,Tx,0,8,4B,C5,7F,CE,05,FE,01,00,
11478954,00000124,false,Tx,0,8,52,E3,57,4F,4A,31,21,01,
11488655,00000097,false,Tx,0,8,BA,C6,7F,CF,05,02,00,00,
11497691,00000097,false,Tx,0,8,30,C7,7F,CF,05,02,00,00,
11497831,00000124,false,Tx,0,8,ED,E4,57,4F,4A,31,21,01,
11508718,00000097,false,Tx,0,8,C1,C8,7F,CF,05,FE,01,00,
11514718,00000187,false,Tx,0,8,5C,04,12,00,00,00,30,00,
11539144,0000038B,false,Rx,0,8,FE,01,00,BC,F2,CA,AB,7F,
11518735,00000097,false,Tx,0,8,76,C9,7F,CF,05,FA,01,00,
11518816,00000124,false,Tx,0,8,10,E5,57,4F,4A,31,21,01,
11527681,00000097,false,Tx,0,8,AE,CA,7F,CF,05,FA,01,00,
11554325,00000566,false,Rx,0,8,17,0D,FE,21,FB,07,19,00,
11534690,000003A6,false,Tx,0,8,4F,08,00,00,00,01,00,00,
11537686,00000097,false,Tx,0,8,3B,CB,7F,CF,05,FE,01,00,
11537798,00000124,false,Tx,0,8,93,E6,57,4F,4A,31,21,01,
11548697,00000097,false,Tx,0,8,0C,CC,7F,CE,05,02,00,00,
11557731,00000097,false,Tx,0,8,D5,CD,7F,CE,05,02,00,00,
11557996,00000124,false,Tx,0,8,EF,E7,57,4F,4A,31,21,01,
11562718,000003AF,false,Tx,0,8,F2,D2,F7,1F,E0,01,00,00,
11567726,00000097,false,Tx,0,8,17,CE,7F,CF,05,02,00,00,
11578715,00000097,false,Tx,0,8,55,CF,7F,CF,05,02,00,00,
11578980,00000124,false,Tx,0,8,D4,E8,57,4F,4A,31,21,01,
11587786,00000097,false,Tx,0,8,44,C0,7F,CF,05,FA,01,00,
11597747,00000097,false,Tx,0,8,E2,C1,7F,CF,05,FA,01,00,
11597956,00000124,false,Tx,0,8,26,E9,57,4F,4A,31,21,01,
11608678,00000097,false,Tx,0,8,E8,C2,7F,CE,05,02,00,00,
11615686,00000187,false,Tx,0,8,B8,05,12,00,00,00,30,00,
11617691,00000097,false,Tx,0,8,F2,C3,7F,CE,05,02,00,00,
11639182,0000038B,false,Rx,0,8,FE,01,00,BC,F2,CA,AB,7F,
11618110,00000124,false,Tx,0,8,54,EA,57,4F,4A,31,21,01,
11639468,12DD5472,true,Rx,0,8,00,00,00,00,00,00,00,00,
11639707,00000565,false,Rx,0,8,00,20,00,15,0C,08,80,FF,
11640026,00000594,false,Rx,0,8,00,00,00,00,02,30,30,09,
11640240,17F00044,true,Rx,0,8,20,44,00,00,00,00,00,80,
11640717,0000067E,false,Rx,0,8,09,0C,16,00,3B,00,00,02,
11641218,1A555457,true,Rx,0,8,83,4B,59,46,41,2B,00,00,
11641514,1A555490,true,Rx,0,8,0A,00,00,00,02,00,20,00,
11641806,1A555491,true,Rx,0,8,00,58,A8,00,00,00,00,80,
11644402,1B000044,true,Rx,0,8,44,00,44,01,00,00,00,00,
11627666,00000097,false,Tx,0,8,CC,C4,7F,CE,05,02,00,00,
11654352,00000566,false,Rx,0,8,89,0E,FE,21,FB,07,19,00,
11634659,000003A6,false,Tx,0,8,22,09,00,00,00,01,00,00,
11638692,00000097,false,Tx,0,8,58,C5,7F,CE,05,02,00,00,
11638897,00000124,false,Tx,0,8,7F,EB,57,4F,4A,31,21,01,
11647667,00000097,false,Tx,0,8,EE,C6,7F,CE,05,02,00,00,
11657731,00000097,false,Tx,0,8,77,C7,7F,CE,05,FE,01,00,
11657936,00000124,false,Tx,0,8,51,EC,57,4F,4A,31,21,01,
11662670,000003AF,false,Tx,0,8,B1,D3,F7,1F,E0,01,00,00,
11663683,000006A4,false,Tx,0,8,6B,01,44,3D,40,03,00,00,
11668707,00000097,false,Tx,0,8,86,C8,7F,CE,05,02,00,00,
11677710,00000097,false,Tx,0,8,BB,C9,7F,CE,05,02,00,00,
11677921,00000124,false,Tx,0,8,E0,ED,57,4F,4A,31,21,01,
11687685,00000097,false,Tx,0,8,63,CA,7F,CE,05,02,00,00,
11698675,00000097,false,Tx,0,8,7C,CB,7F,CE,05,02,00,00,
11698916,00000124,false,Tx,0,8,20,EE,57,4F,4A,31,21,01,
11707664,00000097,false,Tx,0,8,0C,CC,7F,CE,05,02,00,00,
11714719,00000187,false,Tx,0,8,1E,06,12,00,00,00,30,00,
11739211,0000038B,false,Rx,0,8,FE,01,00,BC,F2,CA,AB,7F,
11717987,00000097,false,Tx,0,8,C6,CD,7F,CE,05,FE,01,00,
11718220,00000124,false,Tx,0,8,CD,EF,57,4F,4A,31,21,01,
11728679,00000097,false,Tx,0,8,43,CE,7F,CE,05,02,00,00,
11754402,00000566,false,Rx,0,8,74,0F,FE,21,FB,07,19,00,
11734668,000003A6,false,Tx,0,8,C2,0A,00,00,00,01,00,00,
11737686,00000097,false,Tx,0,8,01,CF,7F,CE,05,02,00,00,
11737827,00000124,false,Tx,0,8,42,E0,57,4F,4A,31,21,01,
11747635,00000097,false,Tx,0,8,89,C0,7F,CE,05,02,00,00,
11758739,00000097,false,Tx,0,8,2F,C1,7F,CE,05,02,00,00,
11758878,00000124,false,Tx,0,8,58,E1,57,4F,4A,31,21,01,
11762733,000003AF,false,Tx,0,8,C2,D4,F7,1F,E0,01,00,00,
11767701,00000097,false,Tx,0,8,71,C2,7F,CE,05,FA,01,00,
11777706,00000097,false,Tx,0,8,E1,C3,7F,CE,05,FE,01,00,
11777836,00000124,false,Tx,0,8,1B,E2,57,4F,4A,31,21,01,
11788668,00000097,false,Tx,0,8,DF,C4,7F,CE,05,FE,01,00,
11797684,00000097,false,Tx,0,8,58,C5,7F,CE,05,02,00,00,
11797936,00000124,false,Tx,0,8,52,E3,57,4F,4A,31,21,01,
11807688,00000097,false,Tx,0,8,EE,C6,7F,CE,05,02,00,00,
11813633,00000187,false,Tx,0,8,7C,07,12,00,00,00,30,00,
11839248,0000038B,false,Rx,0,8,FE,01,00,BC,F2,CA,AB,7F,
11818729,00000097,false,Tx,0,8,FD,C7,7F,CE,05,FA,01,00,
11818867,00000124,false,Tx,0,8,ED,E4,57,4F,4A,31,21,01,
11844490,1B000044,true,Rx,0,8,44,00,44,01,00,00,00,00,
11827691,00000097,false,Tx,0,8,86,C8,7F,CE,05,02,00,00,
11854445,00000566,false,Rx,0,8,FE,00,FE,21,FB,07,19,00,
11834708,000003A6,false,Tx,0,8,AE,0B,00,00,00,01,00,00,
11837725,00000097,false,Tx,0,8,A8,C9,7F,CE,05,FE,01,00,
11837849,00000124,false,Tx,0,8,10,E5,57,4F,4A,31,21,01,
11848724,00000097,false,Tx,0,8,63,CA,7F,CE,05,02,00,00,
11857702,00000097,false,Tx,0,8,E5,CB,7F,CE,05,FA,01,00,
11858003,00000124,false,Tx,0,8,93,E6,57,4F,4A,31,21,01,
11858716,000006A3,false,Tx,0,8,DD,01,99,3E,6C,66,03,00,
11862715,000003AF,false,Tx,0,8,CE,D5,F7,1F,E0,01,00,00,
11867716,00000097,false,Tx,0,8,0C,CC,7F,CE,05,02,00,00,
11878739,00000097,false,Tx,0,8,D5,CD,7F,CE,05,02,00,00,
11879101,00000124,false,Tx,0,8,EF,E7,57,4F,4A,31,21,01,
11887717,00000097,false,Tx,0,8,DA,CE,7F,CE,05,FA,01,00,
11897710,00000097,false,Tx,0,8,12,CF,7F,CE,05,FE,01,00,
11897915,00000124,false,Tx,0,8,D4,E8,57,4F,4A,31,21,01,
11908769,00000097,false,Tx,0,8,89,C0,7F,CE,05,02,00,00,
11914691,00000187,false,Tx,0,8,4D,08,12,00,00,00,30,00,
11917706,00000097,false,Tx,0,8,B6,C1,7F,CE,05,FA,01,00,
11939283,0000038B,false,Rx,0,8,FE,01,00,BC,F2,CA,AB,7F,
11918190,00000124,false,Tx,0,8,26,E9,57,4F,4A,31,21,01,
11927688,00000097,false,Tx,0,8,E8,C2,7F,CE,05,02,00,00,
11954465,00000566,false,Rx,0,8,A0,01,FE,21,FB,07,19,00,
11933735,000003A6,false,Tx,0,8,3D,0C,00,00,00,01,00,00,
11938695,00000097,false,Tx,0,8,F2,C3,7F,CE,05,02,00,00,
11938910,00000124,false,Tx,0,8,54,EA,57,4F,4A,31,21,01,
11947718,00000097,false,Tx,0,8,CC,C4,7F,CE,05,02,00,00,
11957685,00000097,false,Tx,0,8,1F,C5,7F,CF,05,FE,01,00,
11957970,00000124,false,Tx,0,8,7F,EB,57,4F,4A,31,21,01,
11962664,000003AF,false,Tx,0,8,56,D6,F7,1F,E0,01,00,00,
11968682,00000097,false,Tx,0,8,BA,C6,7F,CF,05,02,00,00,
11977668,00000097,false,Tx,0,8,23,C7,7F,CF,05,FE,01,00,
11977929,00000124,false,Tx,0,8,51,EC,57,4F,4A,31,21,01,
11987687,00000097,false,Tx,0,8,D2,C8,7F,CF,05,02,00,00,
11998668,00000097,false,Tx,0,8,EF,C9,7F,CF,05,02,00,00,
11998791,00000124,false,Tx,0,8,E0,ED,57,4F,4A,31,21,01,
12007714,00000097,false,Tx,0,8,24,CA,7F,CF,05,FE,01,00,
12015709,00000187,false,Tx,0,8,D7,09,12,00,00,00,30,00,
12039316,0000038B,false,Rx,0,8,FE,01,00,BC,F2,CA,AB,7F,
12018761,00000097,false,Tx,0,8,3B,CB,7F,CF,05,FE,01,00,
12018845,00000124,false,Tx,0,8,20,EE,57,4F,4A,31,21,01,
12044538,1B000044,true,Rx,0,8,44,00,44,01,00,00,00,00,
12028743,00000097,false,Tx,0,8,58,CC,7F,CF,05,02,00,00,
12054492,00000566,false,Rx,0,8,24,02,FE,21,FB,07,19,00,
12033681,000003A6,false,Tx,0,8,CA,0D,00,00,00,01,00,00,
12037674,00000097,false,Tx,0,8,81,CD,7F,CF,05,02,00,00,
12037787,00000124,false,Tx,0,8,CD,EF,57,4F,4A,31,21,01,
12047687,00000097,false,Tx,0,8,17,CE,7F,CF,05,02,00,00,
12058750,00000097,false,Tx,0,8,55,CF,7F,CF,05,02,00,00,
12059007,00000124,false,Tx,0,8,42,E0,57,4F,4A,31,21,01,
12062745,000003AF,false,Tx,0,8,3A,D7,F7,1F,E0,01,00,00,
12067704,00000097,false,Tx,0,8,CE,C0,7F,CF,05,FE,01,00,
12089341,00000564,false,Rx,0,8,6E,0C,72,6E,F9,27,24,00,
12077774,00000097,false,Tx,0,8,68,C1,7F,CF,05,FE,01,00,
12078031,00000124,false,Tx,0,8,58,E1,57,4F,4A,31,21,01,
12088708,00000097,false,Tx,0,8,E8,C2,7F,CE,05,02,00,00,
12097762,00000097,false,Tx,0,8,E1,C3,7F,CE,05,FE,01,00,
12097981,00000124,false,Tx,0,8,1B,E2,57,4F,4A,31,21,01,
12107693,00000097,false,Tx,0,8,CC,C4,7F,CE,05,02,00,00,
12114726,00000187,false,Tx,0,8,27,0A,12,00,00,00,30,00,
12139352,0000038B,false,Rx,0,8,FE,01,00,BC,F2,CA,AB,7F,
12118702,00000097,false,Tx,0,8,C1,C5,7F,CE,05,FA,01,00,
12118917,00000124,false,Tx,0,8,52,E3,57,4F,4A,31,21,01,
12139639,12DD5472,true,Rx,0,8,00,00,00,00,00,00,00,00,
12139879,00000565,false,Rx,0,8,00,20,00,15,0C,08,80,FF,
12140127,00000594,false,Rx,0,8,00,00,00,00,02,30,30,09,
12140418,17F00044,true,Rx,0,8,20,44,00,00,00,00,00,80,
12140781,1A555490,true,Rx,0,8,0A,00,00,00,02,00,20,00,
12141055,1A555491,true,Rx,0,8,00,58,A8,00,00,00,00,80,
12127773,00000097,false,Tx,0,8,FD,C6,7F,CE,05,FE,01,00,
12154537,00000566,false,Rx,0,8,E2,03,FE,21,FB,07,19,00,
12133692,000003A6,false,Tx,0,8,9E,0E,00,00,00,01,00,00,
12155811,17332510,true,Rx,0,3,39,4F,00,00,00,00,00,00,
12137750,00000097,false,Tx,0,8,23,C7,7F,CF,05,FE,01,00,
12137935,00000124,false,Tx,0,8,ED,E4,57,4F,4A,31,21,01,
12148709,00000097,false,Tx,0,8,D2,C8,7F,CF,05,02,00,00,
12157735,00000097,false,Tx,0,8,FC,C9,7F,CF,05,FE,01,00,
12157918,00000124,false,Tx,0,8,10,E5,57,4F,4A,31,21,01,
12162685,000003AF,false,Tx,0,8,E5,D8,F7,1F,E0,01,00,00,
12163699,000006A4,false,Tx,0,8,CC,02,44,3D,40,03,00,00,
12167724,00000097,false,Tx,0,8,37,CA,7F,CF,05,02,00,00,
12178705,00000097,false,Tx,0,8,28,CB,7F,CF,05,02,00,00,
12178872,00000124,false,Tx,0,8,93,E6,57,4F,4A,31,21,01,
12187699,00000097,false,Tx,0,8,4B,CC,7F,CF,05,FE,01,00,
12197715,00000097,false,Tx,0,8,18,CD,7F,CF,05,FA,01,00,
12197883,00000124,false,Tx,0,8,C4,E7,97,4F,4A,31,21,01,
12208714,00000097,false,Tx,0,8,17,CE,7F,CF,05,02,00,00,
12215747,00000187,false,Tx,0,8,F3,0B,12,00,00,00,30,00,
12217751,00000097,false,Tx,0,8,46,CF,7F,CF,05,FE,01,00,
12217954,00000124,false,Tx,0,8,FF,E8,97,4F,4A,31,21,01,
12239382,0000038B,false,Rx,0,8,FE,01,00,BC,F2,CA,AB,7F,
12244635,1B000044,true,Rx,0,8,44,00,44,01,00,00,00,00,
12227687,00000097,false,Tx,0,8,DD,C0,7F,CF,05,02,00,00,
12254580,00000566,false,Rx,0,8,6F,04,FE,21,FB,07,19,00,
12233678,000003A6,false,Tx,0,8,88,0F,00,00,00,01,00,00,
12238693,00000097,false,Tx,0,8,7B,C1,7F,CF,05,02,00,00,
12238859,00000124,false,Tx,0,8,0D,E9,97,4F,4A,31,21,01,
12247680,00000097,false,Tx,0,8,AF,C2,7F,CF,05,FE,01,00,
12257677,00000097,false,Tx,0,8,B5,C3,7F,CF,05,FE,01,00,
12257851,00000124,false,Tx,0,8,7F,EA,97,4F,4A,31,21,01,
12262675,000003AF,false,Tx,0,8,8F,D9,F7,1F,E0,01,00,00,
12268694,00000097,false,Tx,0,8,CC,C4,7F,CE,05,02,00,00,
12277728,00000097,false,Tx,0,8,4B,C5,7F,CE,05,FE,01,00,
12277856,00000124,false,Tx,0,8,54,EB,97,4F,4A,31,21,01,
12288769,00000097,false,Tx,0,8,EE,C6,7F,CE,05,02,00,00,
12298755,00000097,false,Tx,0,8,23,C7,7F,CF,05,FE,01,00,
12298842,00000124,false,Tx,0,8,7A,EC,97,4F,4A,31,21,01,
12307772,00000097,false,Tx,0,8,C1,C8,7F,CF,05,FE,01,00,
12314741,00000187,false,Tx,0,8,32,0C,12,00,00,00,30,00,
12339420,0000038B,false,Rx,0,8,FE,01,00,BC,F2,CA,AB,7F,
12318738,00000097,false,Tx,0,8,EF,C9,7F,CF,05,02,00,00,
12318835,00000124,false,Tx,0,8,CB,ED,97,4F,4A,31,21,01,
12328784,00000097,false,Tx,0,8,37,CA,7F,CF,05,02,00,00,
12354599,00000566,false,Rx,0,8,91,05,FE,21,FB,07,19,00,
12333764,000003A6,false,Tx,0,8,48,00,00,00,00,01,00,00,
12337731,00000097,false,Tx,0,8,3B,CB,7F,CF,05,FE,01,00,
12337960,00000124,false,Tx,0,8,0B,EE,97,4F,4A,31,21,01,
12347748,00000097,false,Tx,0,8,58,CC,7F,CF,05,02,00,00,
12358761,00000097,false,Tx,0,8,18,CD,7F,CF,05,FA,01,00,
12358938,00000124,false,Tx,0,8,E6,EF,97,4F,4A,31,21,01,
12359752,000006A3,false,Tx,0,8,3E,02,99,3E,6C,66,03,00,
12362754,000003AF,false,Tx,0,8,BA,DA,F7,1F,E0,01,00,00,
12367753,00000097,false,Tx,0,8,04,CE,7F,CF,05,FE,01,00,
12377838,00000097,false,Tx,0,8,46,CF,7F,CF,05,FE,01,00,
12378023,00000124,false,Tx,0,8,69,E0,97,4F,4A,31,21,01,
12388774,00000097,false,Tx,0,8,DD,C0,7F,CF,05,02,00,00,
12397726,00000097,false,Tx,0,8,68,C1,7F,CF,05,FE,01,00,
12397891,00000124,false,Tx,0,8,58,E1,57,4F,4A,31,21,01,
12407738,00000097,false,Tx,0,8,25,C2,7F,CF,05,FA,01,00,
12415756,00000187,false,Tx,0,8,0A,0D,12,00,00,00,30,00,
12439459,0000038B,false,Rx,0,8,FE,01,00,BC,F2,CA,AB,7F,
12418771,00000097,false,Tx,0,8,6B,C3,7F,CE,05,FA,01,00,
12418950,00000124,false,Tx,0,8,1B,E2,57,4F,4A,31,21,01,
12444682,1B000044,true,Rx,0,8,44,00,44,01,00,00,00,00,
12427771,00000097,false,Tx,0,8,DF,C4,7F,CE,05,FE,01,00,
12454637,00000566,false,Rx,0,8,6A,06,FE,21,FB,07,19,00,
12433818,000003A6,false,Tx,0,8,B5,01,00,00,00,01,00,00,
12437756,00000097,false,Tx,0,8,1F,C5,7F,CF,05,FE,01,00,
12438003,00000124,false,Tx,0,8,52,E3,57,4F,4A,31,21,01,
12448766,00000097,false,Tx,0,8,BA,C6,7F,CF,05,02,00,00,
12457842,00000097,false,Tx,0,8,23,C7,7F,CF,05,FE,01,00,
12457993,00000124,false,Tx,0,8,ED,E4,57,4F,4A,31,21,01,
12462787,000003AF,false,Tx,0,8,86,DB,F7,1F,E0,01,00,00,
12467757,00000097,false,Tx,0,8,D2,C8,7F,CF,05,02,00,00,
12478721,00000097,false,Tx,0,8,22,C9,7F,CE,05,FA,01,00,
12478935,00000124,false,Tx,0,8,10,E5,57,4F,4A,31,21,01,
12487702,00000097,false,Tx,0,8,70,CA,7F,CE,05,FE,01,00,
12497706,00000097,false,Tx,0,8,3B,CB,7F,CF,05,FE,01,00,
12497988,00000124,false,Tx,0,8,93,E6,57,4F,4A,31,21,01,
12508697,00000097,false,Tx,0,8,C1,CC,7F,CF,05,FA,01,00,
12513694,00000187,false,Tx,0,8,17,0E,12,00,00,00,30,00,
12517706,00000097,false,Tx,0,8,92,CD,7F,CF,05,FE,01,00,
12517808,00000124,false,Tx,0,8,EF,E7,57,4F,4A,31,21,01,
12539496,0000038B,false,Rx,0,8,FE,01,00,BC,F2,CA,AB,7F,
12527852,00000097,false,Tx,0,8,17,CE,7F,CF,05,02,00,00,
12554676,00000566,false,Rx,0,8,9E,07,FE,21,FB,07,19,00,
12533764,000003A6,false,Tx,0,8,76,02,00,00,00,01,00,00,
12538700,00000097,false,Tx,0,8,01,CF,7F,CE,05,02,00,00,
12538794,00000124,false,Tx,0,8,D4,E8,57,4F,4A,31,21,01,
12547736,00000097,false,Tx,0,8,9A,C0,7F,CE,05,FE,01,00,
12557701,00000097,false,Tx,0,8,3C,C1,7F,CE,05,FE,01,00,
12557832,00000124,false,Tx,0,8,26,E9,57,4F,4A,31,21,01,
12562699,000003AF,false,Tx,0,8,98,DC,F7,1F,E0,01,00,00,
12568715,00000097,false,Tx,0,8,E8,C2,7F,CE,05,02,00,00,
12577716,00000097,false,Tx,0,8,E1,C3,7F,CE,05,FE,01,00,
12577833,00000124,false,Tx,0,8,54,EA,57,4F,4A,31,21,01,
12587779,00000097,false,Tx,0,8,98,C4,7F,CF,05,02,00,00,
12598795,00000097,false,Tx,0,8,0C,C5,7F,CF,05,02,00,00,
12599006,00000124,false,Tx,0,8,54,EB,97,4F,4A,31,21,01,
12607851,00000097,false,Tx,0,8,A9,C6,7F,CF,05,FE,01,00,
12615804,00000187,false,Tx,0,8,E2,0F,12,00,00,00,30,00,
12639529,0000038B,false,Rx,0,8,FE,01,00,BC,F2,CA,AB,7F,
12618776,00000097,false,Tx,0,8,23,C7,7F,CF,05,FE,01,00,
12618952,00000124,false,Tx,0,8,7A,EC,97,4F,4A,31,21,01,
12639815,12DD5472,true,Rx,0,8,00,00,00,00,00,00,00,00,
12640054,00000565,false,Rx,0,8,00,20,00,15,0C,08,80,FF,
12640303,00000594,false,Rx,0,8,00,00,00,00,02,30,30,09,
12640593,17F00044,true,Rx,0,8,20,44,00,00,00,00,00,80,
12640911,0000067E,false,Rx,0,8,6D,0D,16,00,3B,00,00,02,
12641096,1A555457,true,Rx,0,8,80,35,51,45,36,CD,00,00,
12641619,1A555490,true,Rx,0,8,0A,00,00,00,02,00,20,00,
12642141,1A555491,true,Rx,0,8,00,58,A8,00,00,00,00,80,
12644779,1B000044,true,Rx,0,8,44,00,44,01,00,00,00,00,
12628754,00000097,false,Tx,0,8,D2,C8,7F,CF,05,02,00,00,
12654718,00000566,false,Rx,0,8,4B,08,FE,21,FB,07,19,00,
12633758,000003A6,false,Tx,0,8,3A,03,00,00,00,01,00,00,
12637776,00000097,false,Tx,0,8,FC,C9,7F,CF,05,FE,01,00,
12637942,00000124,false,Tx,0,8,CB,ED,97,4F,4A,31,21,01,
12647744,00000097,false,Tx,0,8,37,CA,7F,CF,05,02,00,00,
12658780,00000097,false,Tx,0,8,28,CB,7F,CF,05,02,00,00,
12659059,00000124,false,Tx,0,8,0B,EE,97,4F,4A,31,21,01,
12662755,000003AF,false,Tx,0,8,44,DD,F7,1F,E0,01,00,00,
12663756,000006A4,false,Tx,0,8,7E,03,44,3D,3F,03,00,00,
12667755,00000097,false,Tx,0,8,4B,CC,7F,CF,05,FE,01,00,
12677734,00000097,false,Tx,0,8,92,CD,7F,CF,05,FE,01,00,
12677911,00000124,false,Tx,0,8,E6,EF,97,4F,4A,31,21,01,
12688758,00000097,false,Tx,0,8,17,CE,7F,CF,05,02,00,00,
12697752,00000097,false,Tx,0,8,46,CF,7F,CF,05,FE,01,00,
12697924,00000124,false,Tx,0,8,42,E0,57,4F,4A,31,21,01,
12707757,00000097,false,Tx,0,8,CE,C0,7F,CF,05,FE,01,00,
12714758,00000187,false,Tx,0,8,92,00,12,00,00,00,30,00,
12739560,0000038B,false,Rx,0,8,FE,01,00,BC,F2,CA,AB,7F,
12718748,00000097,false,Tx,0,8,7B,C1,7F,CF,05,02,00,00,
12718922,00000124,false,Tx,0,8,58,E1,57,4F,4A,31,21,01,
12727771,00000097,false,Tx,0,8,AF,C2,7F,CF,05,FE,01,00,
12754736,00000566,false,Rx,0,8,B3,09,FE,21,FB,07,19,00,
12733769,000003A6,false,Tx,0,8,7A,04,00,00,00,01,00,00,
12737721,00000097,false,Tx,0,8,B5,C3,7F,CF,05,FE,01,00,
12737921,00000124,false,Tx,0,8,1B,E2,57,4F,4A,31,21,01,
12748776,00000097,false,Tx,0,8,98,C4,7F,CF,05,02,00,00,
12757717,00000097,false,Tx,0,8,1F,C5,7F,CF,05,FE,01,00,
12757958,00000124,false,Tx,0,8,52,E3,57,4F,4A,31,21,01,
12762889,000003AF,false,Tx,0,8,1A,DE,F7,1F,E0,01,00,00,
12767745,00000097,false,Tx,0,8,BA,C6,7F,CF,05,02,00,00,
12778716,00000097,false,Tx,0,8,64,C7,7F,CE,05,02,00,00,
12778842,00000124,false,Tx,0,8,ED,E4,57,4F,4A,31,21,01,
12788679,00000097,false,Tx,0,8,86,C8,7F,CE,05,02,00,00,
12797751,00000097,false,Tx,0,8,BB,C9,7F,CE,05,02,00,00,
12797888,00000124,false,Tx,0,8,3B,E5,97,4F,4A,31,21,01,
12808737,00000097,false,Tx,0,8,63,CA,7F,CE,05,02,00,00,
12813731,00000187,false,Tx,0,8,E5,01,12,00,00,00,30,00,
12817711,00000097,false,Tx,0,8,6F,CB,7F,CE,05,FE,01,00,
12817833,00000124,false,Tx,0,8,B8,E6,97,4F,4A,31,21,01,
12839668,0000038B,false,Rx,0,8,FE,01,00,BC,F2,CA,AB,7F,
12844817,1B000044,true,Rx,0,8,44,00,44,01,00,00,00,00,
12827712,00000097,false,Tx,0,8,58,CC,7F,CF,05,02,00,00,
12854772,00000566,false,Rx,0,8,FC,0A,FE,21,FB,07,19,00,
12833722,000003A6,false,Tx,0,8,8A,05,00,00,00,01,00,00,
12838735,00000097,false,Tx,0,8,D5,CD,7F,CE,05,02,00,00,
12838886,00000124,false,Tx,0,8,C4,E7,97,4F,4A,31,21,01,
12847795,00000097,false,Tx,0,8,50,CE,7F,CE,05,FE,01,00,
12858825,00000097,false,Tx,0,8,12,CF,7F,CE,05,FE,01,00,
12859056,00000124,false,Tx,0,8,FF,E8,97,4F,4A,31,21,01,
12859726,000006A3,false,Tx,0,8,17,03,99,3E,6C,66,03,00,
12862804,000003AF,false,Tx,0,8,CD,DF,F7,1F,E0,01,00,00,
12868796,00000097,false,Tx,0,8,89,C0,7F,CE,05,02,00,00,
12877827,00000097,false,Tx,0,8,68,C1,7F,CF,05,FE,01,00,
12878049,00000124,false,Tx,0,8,0D,E9,97,4F,4A,31,21,01,
12887862,00000097,false,Tx,0,8,BC,C2,7F,CF,05,02,00,00,
12898777,00000097,false,Tx,0,8,A6,C3,7F,CF,05,02,00,00,
12898959,00000124,false,Tx,0,8,7F,EA,97,4F,4A,31,21,01,
12907770,00000097,false,Tx,0,8,DF,C4,7F,CE,05,FE,01,00,
12914799,00000187,false,Tx,0,8,98,02,12,00,00,00,30,00,
12939631,0000038B,false,Rx,0,8,FE,01,00,BC,F2,CA,AB,7F,
12918796,00000097,false,Tx,0,8,1F,C5,7F,CF,05,FE,01,00,
12918970,00000124,false,Tx,0,8,54,EB,97,4F,4A,31,21,01,
12928769,00000097,false,Tx,0,8,BA,C6,7F,CF,05,02,00,00,
12954813,00000566,false,Rx,0,8,71,0B,FE,21,FB,07,19,00,
12933762,000003A6,false,Tx,0,8,08,06,00,00,00,01,00,00,
12937760,00000097,false,Tx,0,8,77,C7,7F,CE,05,FE,01,00,
12937929,00000124,false,Tx,0,8,7A,EC,97,4F,4A,31,21,01,
12947766,00000097,false,Tx,0,8,D2,C8,7F,CF,05,02,00,00,
12958788,00000097,false,Tx,0,8,22,C9,7F,CE,05,FA,01,00,
12958964,00000124,false,Tx,0,8,CB,ED,97,4F,4A,31,21,01,
12962719,000003AF,false,Tx,0,8,66,D0,F7,1F,E0,01,00,00,
12967769,00000097,false,Tx,0,8,70,CA,7F,CE,05,FE,01,00,
12977784,00000097,false,Tx,0,8,3B,CB,7F,CF,05,FE,01,00,
12977953,00000124,false,Tx,0,8,0B,EE,97,4F,4A,31,21,01,
12988796,00000097,false,Tx,0,8,0C,CC,7F,CE,05,02,00,00,
12997750,00000097,false,Tx,0,8,C6,CD,7F,CE,05,FE,01,00,
12997932,00000124,false,Tx,0,8,CD,EF,57,4F,4A,31,21,01,
13007724,00000097,false,Tx,0,8,50,CE,7F,CE,05,FE,01,00,
13015723,00000187,false,Tx,0,8,C4,03,12,00,00,00,30,00,
13039672,0000038B,false,Rx,0,8,FE,01,00,BC,F2,CA,AB,7F,
13018751,00000097,false,Tx,0,8,01,CF,7F,CE,05,02,00,00,
13018948,00000124,false,Tx,0,8,42,E0,57,4F,4A,31,21,01,
13044913,1B000044,true,Rx,0,8,44,00,44,01,00,00,00,00,
13027731,00000097,false,Tx,0,8,9A,C0,7F,CE,05,FE,01,00,
13054859,00000566,false,Rx,0,8,B0,0C,FE,21,FB,07,19,00,
13033790,000003A6,false,Tx,0,8,E0,07,00,00,00,01,00,00,
13037790,00000097,false,Tx,0,8,68,C1,7F,CF,05,FE,01,00,
13038026,00000124,false,Tx,0,8,58,E1,57,4F,4A,31,21,01,
13048705,00000097,false,Tx,0,8,BC,C2,7F,CF,05,02,00,00,
13057720,00000097,false,Tx,0,8,B5,C3,7F,CF,05,FE,01,00,
13057863,00000124,false,Tx,0,8,1B,E2,57,4F,4A,31,21,01,
13062792,000003AF,false,Tx,0,8,6F,D1,F7,1F,E0,01,00,00,
13067776,00000097,false,Tx,0,8,98,C4,7F,CF,05,02,00,00,
13089726,00000564,false,Rx,0,8,0A,0D,72,6E,F9,27,24,00,
13078785,00000097,false,Tx,0,8,0C,C5,7F,CF,05,02,00,00,
13078888,00000124,false,Tx,0,8,52,E3,57,4F,4A,31,21,01,
13087800,00000097,false,Tx,0,8,A9,C6,7F,CF,05,FE,01,00,
13097772,00000097,false,Tx,0,8,23,C7,7F,CF,05,FE,01,00,
13097891,00000124,false,Tx,0,8,C6,E4,97,4F,4A,31,21,01,
13108790,00000097,false,Tx,0,8,86,C8,7F,CE,05,02,00,00,
13114935,00000187,false,Tx,0,8,5C,04,12,00,00,00,30,00,
13117843,00000097,false,Tx,0,8,A8,C9,7F,CE,05,FE,01,00,
13118064,00000124,false,Tx,0,8,3B,E5,97,4F,4A,31,21,01,
13139703,0000038B,false,Rx,0,8,FE,01,00,BC,F2,CA,AB,7F,
13140062,12DD5472,true,Rx,0,8,00,00,00,00,00,00,00,00,
13140234,00000565,false,Rx,0,8,00,20,00,15,0C,08,80,FF,
13140762,00000594,false,Rx,0,8,00,00,00,00,02,30,30,09,
13140999,17F00044,true,Rx,0,8,20,44,00,00,00,00,00,80,
13141528,1A555490,true,Rx,0,8,0A,00,00,00,02,00,20,00,
13141815,1A555491,true,Rx,0,8,00,58,A8,00,00,00,00,80,
13127802,00000097,false,Tx,0,8,63,CA,7F,CE,05,02,00,00,
13154878,00000566,false,Rx,0,8,17,0D,FE,21,FB,07,19,00,
13133792,000003A6,false,Tx,0,8,4F,08,00,00,00,01,00,00,
13156136,17332510,true,Rx,0,4,39,50,1F,21,00,00,00,00,
13138801,00000097,false,Tx,0,8,6F,CB,7F,CE,05,FE,01,00,
13138974,00000124,false,Tx,0,8,B8,E6,97,4F,4A,31,21,01,
13147774,00000097,false,Tx,0,8,1F,CC,7F,CE,05,FE,01,00,
13157807,00000097,false,Tx,0,8,C6,CD,7F,CE,05,FE,01,00,
13157957,00000124,false,Tx,0,8,C4,E7,97,4F,4A,31,21,01,
13162771,000003AF,false,Tx,0,8,F2,D2,F7,1F,E0,01,00,00,
13163761,000006A4,false,Tx,0,8,D3,04,44,3D,3F,03,00,00,
13168747,00000097,false,Tx,0,8,43,CE,7F,CE,05,02,00,00,
13177790,00000097,false,Tx,0,8,12,CF,7F,CE,05,FE,01,00,
13177957,00000124,false,Tx,0,8,FF,E8,97,4F,4A,31,21,01,
13187777,00000097,false,Tx,0,8,89,C0,7F,CE,05,02,00,00,
13198755,00000097,false,Tx,0,8,2F,C1,7F,CE,05,02,00,00,
13199024,00000124,false,Tx,0,8,0D,E9,97,4F,4A,31,21,01,
13207755,00000097,false,Tx,0,8,FB,C2,7F,CE,05,FE,01,00,
13213805,00000187,false,Tx,0,8,B8,05,12,00,00,00,30,00,
13217789,00000097,false,Tx,0,8,B5,C3,7F,CF,05,FE,01,00,
13217955,00000124,false,Tx,0,8,7F,EA,97,4F,4A,31,21,01,
13239740,0000038B,false,Rx,0,8,FE,01,00,BC,F2,CA,AB,7F,
13244963,1B000044,true,Rx,0,8,44,00,44,01,00,00,00,00,
13228799,00000097,false,Tx,0,8,98,C4,7F,CF,05,02,00,00,
13254907,00000566,false,Rx,0,8,89,0E,FE,21,FB,07,19,00,
13233751,000003A6,false,Tx,0,8,22,09,00,00,00,01,00,00,
13237782,00000097,false,Tx,0,8,1F,C5,7F,CF,05,FE,01,00,
13237947,00000124,false,Tx,0,8,54,EB,97,4F,4A,31,21,01,
13247794,00000097,false,Tx,0,8,BA,C6,7F,CF,05,02,00,00,
13258752,00000097,false,Tx,0,8,30,C7,7F,CF,05,02,00,00,
13258958,00000124,false,Tx,0,8,7A,EC,97,4F,4A,31,21,01,
13262735,000003AF,false,Tx,0,8,B1,D3,F7,1F,E0,01,00,00,
13267895,00000097,false,Tx,0,8,C1,C8,7F,CF,05,FE,01,00,
13277744,00000097,false,Tx,0,8,FC,C9,7F,CF,05,FE,01,00,
13278022,00000124,false,Tx,0,8,CB,ED,97,4F,4A,31,21,01,
13288737,00000097,false,Tx,0,8,37,CA,7F,CF,05,02,00,00,
13297745,00000097,false,Tx,0,8,3B,CB,7F,CF,05,FE,01,00,
13297881,00000124,false,Tx,0,8,0B,EE,97,4F,4A,31,21,01,
13307709,00000097,false,Tx,0,8,4B,CC,7F,CF,05,FE,01,00,
13314928,00000187,false,Tx,0,8,1E,06,12,00,00,00,30,00,
13339777,0000038B,false,Rx,0,8,FE,01,00,BC,F2,CA,AB,7F,
13318843,00000097,false,Tx,0,8,81,CD,7F,CF,05,02,00,00,
13318901,00000124,false,Tx,0,8,E6,EF,97,4F,4A,31,21,01,
13327734,00000097,false,Tx,0,8,50,CE,7F,CE,05,FE,01,00,
13354957,00000566,false,Rx,0,8,74,0F,FE,21,FB,07,19,00,
13333733,000003A6,false,Tx,0,8,C2,0A,00,00,00,01,00,00,
13337731,00000097,false,Tx,0,8,12,CF,7F,CE,05,FE,01,00,
13337856,00000124,false,Tx,0,8,69,E0,97,4F,4A,31,21,01,
13348760,00000097,false,Tx,0,8,89,C0,7F,CE,05,02,00,00,
13357735,00000097,false,Tx,0,8,3C,C1,7F,CE,05,FE,01,00,
13357888,00000124,false,Tx,0,8,73,E1,97,4F,4A,31,21,01,
13358764,000006A3,false,Tx,0,8,EF,04,99,3E,6C,66,03,00,
13362741,000003AF,false,Tx,0,8,C2,D4,F7,1F,E0,01,00,00,
13367779,00000097,false,Tx,0,8,E8,C2,7F,CE,05,02,00,00,
13378784,00000097,false,Tx,0,8,F2,C3,7F,CE,05,02,00,00,
13379019,00000124,false,Tx,0,8,30,E2,97,4F,4A,31,21,01,
13387794,00000097,false,Tx,0,8,DF,C4,7F,CE,05,FE,01,00,
13397829,00000097,false,Tx,0,8,95,C5,7F,CF,05,FA,01,00,
13398048,00000124,false,Tx,0,8,79,E3,97,4F,4A,31,21,01,
13408868,00000097,false,Tx,0,8,23,C6,7F,CF,05,FA,01,00,
13415792,00000187,false,Tx,0,8,7C,07,12,00,00,00,30,00,
13417778,00000097,false,Tx,0,8,23,C7,7F,CF,05,FE,01,00,
13417958,00000124,false,Tx,0,8,C6,E4,97,4F,4A,31,21,01,
13439879,0000038B,false,Rx,0,8,FE,01,00,BC,F2,CA,AB,7F,
13445046,1B000044,true,Rx,0,8,44,00,44,01,00,00,00,00,
13428821,00000097,false,Tx,0,8,D2,C8,7F,CF,05,02,00,00,
13455001,00000566,false,Rx,0,8,FE,00,FE,21,FB,07,19,00,
13433821,000003A6,false,Tx,0,8,AE,0B,00,00,00,01,00,00,
13438824,00000097,false,Tx,0,8,76,C9,7F,CF,05,FA,01,00,
13439106,00000124,false,Tx,0,8,3B,E5,97,4F,4A,31,21,01,
13447826,00000097,false,Tx,0,8,24,CA,7F,CF,05,FE,01,00,
13458811,00000097,false,Tx,0,8,3B,CB,7F,CF,05,FE,01,00,
13459033,00000124,false,Tx,0,8,B8,E6,97,4F,4A,31,21,01,
13462806,000003AF,false,Tx,0,8,CE,D5,F7,1F,E0,01,00,00,
13468781,00000097,false,Tx,0,8,C1,CC,7F,CF,05,FA,01,00,
13477808,00000097,false,Tx,0,8,92,CD,7F,CF,05,FE,01,00,
13477991,00000124,false,Tx,0,8,C4,E7,97,4F,4A,31,21,01,
13487791,00000097,false,Tx,0,8,17,CE,7F,CF,05,02,00,00,
13498756,00000097,false,Tx,0,8,55,CF,7F,CF,05,02,00,00,
13498929,00000124,false,Tx,0,8,FF,E8,97,4F,4A,31,21,01,
13507783,00000097,false,Tx,0,8,CE,C0,7F,CF,05,FE,01,00,
13514783,00000187,false,Tx,0,8,4D,08,12,00,00,00,30,00,
13539841,0000038B,false,Rx,0,8,FE,01,00,BC,F2,CA,AB,7F,
13518866,00000097,false,Tx,0,8,68,C1,7F,CF,05,FE,01,00,
13519125,00000124,false,Tx,0,8,0D,E9,97,4F,4A,31,21,01,
13528756,00000097,false,Tx,0,8,BC,C2,7F,CF,05,02,00,00,
13555020,00000566,false,Rx,0,8,A0,01,FE,21,FB,07,19,00,
13533988,000003A6,false,Tx,0,8,3D,0C,00,00,00,01,00,00,
13537884,00000097,false,Tx,0,8,B5,C3,7F,CF,05,FE,01,00,
13538134,00000124,false,Tx,0,8,7F,EA,97,4F,4A,31,21,01,
13547786,00000097,false,Tx,0,8,98,C4,7F,CF,05,02,00,00,
13558766,00000097,false,Tx,0,8,0C,C5,7F,CF,05,02,00,00,
13558914,00000124,false,Tx,0,8,54,EB,97,4F,4A,31,21,01,
13562770,000003AF,false,Tx,0,8,56,D6,F7,1F,E0,01,00,00,
13567754,00000097,false,Tx,0,8,A9,C6,7F,CF,05,FE,01,00,
13577756,00000097,false,Tx,0,8,23,C7,7F,CF,05,FE,01,00,
13577908,00000124,false,Tx,0,8,7A,EC,97,4F,4A,31,21,01,
13588765,00000097,false,Tx,0,8,D2,C8,7F,CF,05,02,00,00,
13597756,00000097,false,Tx,0,8,FC,C9,7F,CF,05,FE,01,00,
13597870,00000124,false,Tx,0,8,CB,ED,97,4F,4A,31,21,01,
13607743,00000097,false,Tx,0,8,24,CA,7F,CF,05,FE,01,00,
13615740,00000187,false,Tx,0,8,D7,09,12,00,00,00,30,00,
13639875,0000038B,false,Rx,0,8,FE,01,00,BC,F2,CA,AB,7F,
13618765,00000097,false,Tx,0,8,28,CB,7F,CF,05,02,00,00,
13618926,00000124,false,Tx,0,8,0B,EE,97,4F,4A,31,21,01,
13640172,12DD5472,true,Rx,0,8,00,00,00,00,00,00,00,00,
13640410,00000565,false,Rx,0,8,00,20,00,15,0C,08,80,FF,
13640648,00000594,false,Rx,0,8,00,00,00,00,02,30,30,09,
13641017,17F00044,true,Rx,0,8,20,44,00,00,00,00,00,80,
13641419,0000067E,false,Rx,0,8,C1,0E,16,00,3B,00,00,02,
13641937,1A555457,true,Rx,0,8,81,38,32,41,4B,D9,00,00,
13642217,1A555490,true,Rx,0,8,0A,00,00,00,02,00,20,00,
13642507,1A555491,true,Rx,0,8,00,58,A8,00,00,00,00,80,
13645096,1B000044,true,Rx,0,8,44,00,44,01,00,00,00,00,
13627763,00000097,false,Tx,0,8,4B,CC,7F,CF,05,FE,01,00,
13633775,000003A6,false,Tx,0,8,CA,0D,00,00,00,01,00,00,
606397946,00000097,false,Tx,0,8,61,DD,80,D4,45,FE,01,00,
13637853,00000097,false,Tx,0,8,92,CD,7F,CF,05,FE,01,00,
13638076,00000124,false,Tx,0,8,E6,EF,97,4F,4A,31,21,01,
13648831,00000097,false,Tx,0,8,17,CE,7F,CF,05,02,00,00,
13657904,00000097,false,Tx,0,8,CC,CF,7F,CF,05,FA,01,00,
13658128,00000124,false,Tx,0,8,69,E0,97,4F,4A,31,21,01,
13662786,000003AF,false,Tx,0,8,3A,D7,F7,1F,E0,01,00,00,
13663832,000006A4,false,Tx,0,8,4D,05,44,3D,3F,03,00,00,
13667823,00000097,false,Tx,0,8,DD,C0,7F,CF,05,02,00,00,
13678827,00000097,false,Tx,0,8,7B,C1,7F,CF,05,02,00,00,
13679052,00000124,false,Tx,0,8,73,E1,97,4F,4A,31,21,01,
13687889,00000097,false,Tx,0,8,BC,C2,7F,CF,05,02,00,00,
13697850,00000097,false,Tx,0,8,B5,C3,7F,CF,05,FE,01,00,
13698076,00000124,false,Tx,0,8,30,E2,97,4F,4A,31,21,01,
13708899,00000097,false,Tx,0,8,98,C4,7F,CF,05,02,00,00,
13714822,00000187,false,Tx,0,8,27,0A,12,00,00,00,30,00,
13717830,00000097,false,Tx,0,8,1F,C5,7F,CF,05,FE,01,00,
13718048,00000124,false,Tx,0,8,79,E3,97,4F,4A,31,21,01,
13739981,0000038B,false,Rx,0,8,FE,01,00,BC,F2,CA,AB,7F,
13727768,00000097,false,Tx,0,8,BA,C6,7F,CF,05,02,00,00,
13755089,00000566,false,Rx,0,8,E2,03,FE,21,FB,07,19,00,
13733813,000003A6,false,Tx,0,8,9E,0E,00,00,00,01,00,00,
13738842,00000097,false,Tx,0,8,30,C7,7F,CF,05,02,00,00,
13739064,00000124,false,Tx,0,8,C6,E4,97,4F,4A,31,21,01,
13747765,00000097,false,Tx,0,8,4B,C8,7F,CF,05,FA,01,00,
13757767,00000097,false,Tx,0,8,FC,C9,7F,CF,05,FE,01,00,
13758054,00000124,false,Tx,0,8,3B,E5,97,4F,4A,31,21,01,
13762761,000003AF,false,Tx,0,8,E5,D8,F7,1F,E0,01,00,00,
13768787,00000097,false,Tx,0,8,37,CA,7F,CF,05,02,00,00,
13777781,00000097,false,Tx,0,8,B1,CB,7F,CF,05,FA,01,00,
13778033,00000124,false,Tx,0,8,B8,E6,97,4F,4A,31,21,01,
13789327,00000097,false,Tx,0,8,58,CC,7F,CF,05,02,00,00,
13799003,00000097,false,Tx,0,8,92,CD,7F,CF,05,FE,01,00,
13799158,00000124,false,Tx,0,8,EF,E7,57,4F,4A,31,21,01,
13807714,00000097,false,Tx,0,8,04,CE,7F,CF,05,FE,01,00,
13815717,00000187,false,Tx,0,8,F3,0B,12,00,00,00,30,00,
13839952,0000038B,false,Rx,0,8,FE,01,00,BC,F2,CA,AB,7F,
13818762,00000097,false,Tx,0,8,46,CF,7F,CF,05,FE,01,00,
13818864,00000124,false,Tx,0,8,D4,E8,57,4F,4A,31,21,01,
13845196,1B000044,true,Rx,0,8,44,00,44,01,00,00,00,00,
13828822,00000097,false,Tx,0,8,DD,C0,7F,CF,05,02,00,00,
13855140,00000566,false,Rx,0,8,6F,04,FE,21,FB,07,19,00,
13833705,000003A6,false,Tx,0,8,88,0F,00,00,00,01,00,00,
13837743,00000097,false,Tx,0,8,68,C1,7F,CF,05,FE,01,00,
13837848,00000124,false,Tx,0,8,26,E9,57,4F,4A,31,21,01,
13847737,00000097,false,Tx,0,8,BC,C2,7F,CF,05,02,00,00,
13858749,00000097,false,Tx,0,8,A6,C3,7F,CF,05,02,00,00,
13858843,00000124,false,Tx,0,8,54,EA,57,4F,4A,31,21,01,
13859790,000006A3,false,Tx,0,8,19,05,99,3E,6C,66,03,00,
13862756,000003AF,false,Tx,0,8,8F,D9,F7,1F,E0,01,00,00,
13867755,00000097,false,Tx,0,8,01,C4,7F,CF,05,FA,01,00,
13877865,00000097,false,Tx,0,8,1F,C5,7F,CF,05,FE,01,00,
13878077,00000124,false,Tx,0,8,7F,EB,57,4F,4A,31,21,01,
13888880,00000097,false,Tx,0,8,BA,C6,7F,CF,05,02,00,00,
13897832,00000097,false,Tx,0,8,23,C7,7F,CF,05,FE,01,00,
13898024,00000124,false,Tx,0,8,7A,EC,97,4F,4A,31,21,01,
13907776,00000097,false,Tx,0,8,C1,C8,7F,CF,05,FE,01,00,
13914786,00000187,false,Tx,0,8,32,0C,12,00,00,00,30,00,
13939978,0000038B,false,Rx,0,8,FE,01,00,BC,F2,CA,AB,7F,
13918811,00000097,false,Tx,0,8,76,C9,7F,CF,05,FA,01,00,
13918986,00000124,false,Tx,0,8,CB,ED,97,4F,4A,31,21,01,
13927786,00000097,false,Tx,0,8,AE,CA,7F,CF,05,FA,01,00,
13933783,000003A6,false,Tx,0,8,48,00,00,00,00,01,00,00,
13955160,00000566,false,Rx,0,8,91,05,FE,21,FB,07,19,00,
13937845,00000097,false,Tx,0,8,3B,CB,7F,CF,05,FE,01,00,
13938021,00000124,false,Tx,0,8,0B,EE,97,4F,4A,31,21,01,
13948808,00000097,false,Tx,0,8,58,CC,7F,CF,05,02,00,00,
13957842,00000097,false,Tx,0,8,18,CD,7F,CF,05,FA,01,00,
13958021,00000124,false,Tx,0,8,E6,EF,97,4F,4A,31,21,01,
13962781,000003AF,false,Tx,0,8,BA,DA,F7,1F,E0,01,00,00,
13967801,00000097,false,Tx,0,8,17,CE,7F,CF,05,02,00,00,
13978809,00000097,false,Tx,0,8,55,CF,7F,CF,05,02,00,00,
13978996,00000124,false,Tx,0,8,69,E0,97,4F,4A,31,21,01,
13987808,00000097,false,Tx,0,8,44,C0,7F,CF,05,FA,01,00,
13997806,00000097,false,Tx,0,8,68,C1,7F,CF,05,FE,01,00,
13998810,00000124,false,Tx,0,8,73,E1,97,4F,4A,31,21,01,
14008819,00000097,false,Tx,0,8,BC,C2,7F,CF,05,02,00,00,
14015820,00000187,false,Tx,0,8,0A,0D,12,00,00,00,30,00,
14017814,00000097,false,Tx,0,8,3F,C3,7F,CF,05,FA,01,00,
14017984,00000124,false,Tx,0,8,30,E2,97,4F,4A,31,21,01,
14040013,0000038B,false,Rx,0,8,FE,01,00,BC,F2,CA,AB,7F,
14045242,1B000044,true,Rx,0,8,44,00,44,01,00,00,00,00,
14027783,00000097,false,Tx,0,8,98,C4,7F,CF,05,02,00,00,
14055198,00000566,false,Rx,0,8,6A,06,FE,21,FB,07,19,00,
14033819,000003A6,false,Tx,0,8,B5,01,00,00,00,01,00,00,
14038848,00000097,false,Tx,0,8,95,C5,7F,CF,05,FA,01,00,
14039044,00000124,false,Tx,0,8,79,E3,97,4F,4A,31,21,01,
14047790,00000097,false,Tx,0,8,BA,C6,7F,CF,05,02,00,00,
14057796,00000097,false,Tx,0,8,23,C7,7F,CF,05,FE,01,00,
14058803,00000124,false,Tx,0,8,C6,E4,97,4F,4A,31,21,01,
14062776,000003AF,false,Tx,0,8,86,DB,F7,1F,E0,01,00,00,
14090035,00000564,false,Rx,0,8,A6,0E,72,6E,F9,27,24,00,
14068796,00000097,false,Tx,0,8,D2,C8,7F,CF,05,02,00,00,
14077758,00000097,false,Tx,0,8,22,C9,7F,CE,05,FA,01,00,
14077995,00000124,false,Tx,0,8,3B,E5,97,4F,4A,31,21,01,
14087779,00000097,false,Tx,0,8,37,CA,7F,CF,05,02,00,00,
14098843,00000097,false,Tx,0,8,B1,CB,7F,CF,05,FA,01,00,
14098996,00000124,false,Tx,0,8,B8,E6,97,4F,4A,31,21,01,
14107839,00000097,false,Tx,0,8,C1,CC,7F,CF,05,FA,01,00,
14114827,00000187,false,Tx,0,8,17,0E,12,00,00,00,30,00,
14140050,0000038B,false,Rx,0,8,FE,01,00,BC,F2,CA,AB,7F,
14118807,00000097,false,Tx,0,8,81,CD,7F,CF,05,02,00,00,
14118914,00000124,false,Tx,0,8,C4,E7,97,4F,4A,31,21,01,
14140347,12DD5472,true,Rx,0,8,00,00,00,00,00,00,00,00,
14140585,00000565,false,Rx,0,8,00,20,00,15,0C,08,80,FF,
14140884,00000594,false,Rx,0,8,00,00,00,00,02,30,30,09,
14141119,17F00044,true,Rx,0,8,20,44,00,00,00,00,00,80,
14141647,1A555490,true,Rx,0,8,0A,00,00,00,02,00,20,00,
14142162,1A555491,true,Rx,0,8,00,58,A8,00,00,00,00,80,
14128843,00000097,false,Tx,0,8,17,CE,7F,CF,05,02,00,00,
14155236,00000566,false,Rx,0,8,9E,07,FE,21,FB,07,19,00,
14133740,000003A6,false,Tx,0,8,76,02,00,00,00,01,00,00,
14156584,17332510,true,Rx,0,8,90,09,39,51,11,00,FF,FF,
14137806,00000097,false,Tx,0,8,CC,CF,7F,CF,05,FA,01,00,
14137914,00000124,false,Tx,0,8,FF,E8,97,4F,4A,31,21,01,
14147839,00000097,false,Tx,0,8,DD,C0,7F,CF,05,02,00,00,
14158843,00000097,false,Tx,0,8,7B,C1,7F,CF,05,02,00,00,
14159016,00000124,false,Tx,0,8,0D,E9,97,4F,4A,31,21,01,
14162833,000003AF,false,Tx,0,8,98,DC,F7,1F,E0,01,00,00,
14163790,000006A4,false,Tx,0,8,58,06,44,3D,3F,03,00,00,
14167808,00000097,false,Tx,0,8,25,C2,7F,CF,05,FA,01,00,
14177815,00000097,false,Tx,0,8,B5,C3,7F,CF,05,FE,01,00,
14178819,00000124,false,Tx,0,8,7F,EA,97,4F,4A,31,21,01,
14206548,17332510,true,Rx,0,6,D0,FF,FF,01,FF,01,00,00,
14188817,00000097,false,Tx,0,8,98,C4,7F,CF,05,02,00,00,
14197821,00000097,false,Tx,0,8,1F,C5,7F,CF,05,FE,01,00,
