Time Stamp,ID,Extended,Dir,Bus,LEN,D1,D2,D3,D4,D5,D6,D7,D8
61806565,0000038B,false,Rx,1,8,FE,01,FE,BC,F2,CA,AB,7F,
61806862,12DD5472,true,Rx,1,8,00,00,00,00,00,00,00,00,
61807103,00000565,false,Rx,1,8,00,20,00,00,0C,08,80,FF,
61807343,0000067E,false,Rx,1,8,1D,01,FE,01,3B,00,00,38,
61807623,1A555457,true,Rx,1,8,00,35,51,45,36,00,00,00,
61807884,1A555490,true,Rx,1,8,AA,AA,08,9A,A2,2A,AA,02,
61808177,1A555491,true,Rx,1,8,AA,59,AA,02,00,00,00,80,
61891770,00000566,false,Rx,1,8,B7,01,FE,01,FB,07,00,00,
61896603,0000038B,false,Rx,1,8,FE,01,FE,BC,F2,CA,AB,7F,
61991800,00000566,false,Rx,1,8,33,02,FE,01,FB,07,00,00,
61996612,0000038B,false,Rx,1,8,FE,01,FE,BC,F2,CA,AB,7F,
62091807,00000566,false,Rx,1,8,F5,03,FE,01,FB,07,00,00,
62096629,0000038B,false,Rx,1,8,FE,01,FE,BC,F2,CA,AB,7F,
62191837,00000566,false,Rx,1,8,78,04,FE,01,FB,07,00,00,
62196647,0000038B,false,Rx,1,8,FE,01,FE,BC,F2,CA,AB,7F,
62246666,00000564,false,Rx,1,8,C5,01,00,71,F9,07,36,00,
62291850,00000566,false,Rx,1,8,86,05,FE,01,FB,07,00,00,
62296670,0000038B,false,Rx,1,8,FE,01,00,BC,F2,CA,AB,7F,
62296959,12DD5472,true,Rx,1,8,00,00,00,00,00,00,00,00,
62297209,00000565,false,Rx,1,8,00,20,00,00,0C,08,80,FF,
62297469,1A555490,true,Rx,1,8,AA,AA,08,98,A2,2A,AA,02,
62297761,1A555491,true,Rx,1,8,AA,59,AA,02,00,00,00,80,
62351875,00000565,false,Rx,1,8,00,00,00,00,0C,08,80,FF,
62391870,00000566,false,Rx,1,8,D0,06,FE,01,FA,07,00,00,
62396691,0000038B,false,Rx,1,8,FE,01,00,BC,F2,CA,AB,7F,
62491906,00000566,false,Rx,1,8,24,07,FE,01,FA,07,00,00,
62496718,0000038B,false,Rx,1,8,FE,01,00,BC,F2,CA,AB,7F,
62591923,00000566,false,Rx,1,8,F1,08,FE,01,FA,07,00,00,
62596732,0000038B,false,Rx,1,8,FE,01,00,BC,F2,CA,AB,7F,
62691939,00000566,false,Rx,1,8,09,09,FE,01,FA,07,00,00,
62696759,0000038B,false,Rx,1,8,FE,01,00,BC,F2,CA,AB,7F,
62791954,00000566,false,Rx,1,8,46,0A,FE,01,FA,07,00,00,
62796784,0000038B,false,Rx,1,8,FE,01,00,BC,F2,CA,AB,7F,
62797074,12DD5472,true,Rx,1,8,00,00,00,00,00,00,00,00,
62797313,00000565,false,Rx,1,8,00,00,00,00,0C,08,80,FF,
62797563,0000067E,false,Rx,1,8,FA,02,00,00,3B,00,00,40,
62797844,1A555457,true,Rx,1,8,01,38,32,41,4B,00,00,00,
62798106,1A555490,true,Rx,1,8,AA,AA,08,90,A2,2A,AA,02,
62798396,1A555491,true,Rx,1,8,AA,59,AA,02,00,00,00,80,
62891986,00000566,false,Rx,1,8,A0,2B,FE,01,FA,07,00,00,
62896806,0000038B,false,Rx,1,8,FE,01,00,BC,F2,CA,AB,7F,
62931986,00000565,false,Rx,1,8,00,00,00,15,0C,08,80,FF,
62986831,00000565,false,Rx,1,8,00,20,00,15,0C,08,80,FF,
62992018,00000566,false,Rx,1,8,61,2C,FE,01,FA,07,00,00,
62996827,0000038B,false,Rx,1,8,FE,01,00,BC,F2,CA,AB,7F,
63092026,00000566,false,Rx,1,8,C6,2D,FE,01,FA,07,00,00,
63096845,0000038B,false,Rx,1,8,FE,01,00,BC,F2,CA,AB,7F,
63192045,00000566,false,Rx,1,8,58,2E,FE,01,FA,07,00,00,
63196866,0000038B,false,Rx,1,8,FE,01,08,BC,F2,CA,AB,7F,
63246885,00000564,false,Rx,1,8,72,82,41,71,F9,27,34,08,
63292071,00000566,false,Rx,1,8,A5,2F,FE,01,FA,07,00,00,
63296893,0000038B,false,Rx,1,8,FE,01,08,BC,F2,CA,AB,7F,
63297181,12DD5472,true,Rx,1,8,00,00,00,00,00,00,00,00,
63297421,00000565,false,Rx,1,8,00,20,00,15,0C,08,80,FF,
63297692,1A555490,true,Rx,1,8,AA,AA,08,90,A2,2A,AA,02,
63297975,1A555491,true,Rx,1,8,AA,59,AA,02,00,00,00,80,
63392101,00000566,false,Rx,1,8,82,20,FE,01,FB,07,00,00,
63396912,0000038B,false,Rx,1,8,FE,01,05,BC,F2,CA,AB,7F,
63492112,00000566,false,Rx,1,8,DC,21,FE,01,FB,07,00,00,
63496933,0000038B,false,Rx,1,8,FE,01,03,BC,F2,CA,AB,7F,
63592134,00000566,false,Rx,1,8,58,22,FE,01,FB,07,00,00,
63596955,0000038B,false,Rx,1,8,FE,01,03,BC,F2,CA,AB,7F,
63692163,00000566,false,Rx,1,8,9E,23,FE,01,FB,07,00,00,
63696976,0000038B,false,Rx,1,8,FE,01,02,BC,F2,CA,AB,7F,
63792191,00000566,false,Rx,1,8,13,24,FE,01,FB,07,00,00,
63797003,0000038B,false,Rx,1,8,FE,01,01,BC,F2,CA,AB,7F,
63797300,12DD5472,true,Rx,1,8,00,00,00,00,00,00,00,00,
63797529,00000565,false,Rx,1,8,00,20,00,15,0C,08,80,FF,
63797769,0000067E,false,Rx,1,8,4B,03,16,00,3B,00,00,02,
63798051,1A555457,true,Rx,1,8,02,30,33,30,30,00,00,00,
63798321,1A555490,true,Rx,1,8,AA,AA,08,90,A2,2A,AA,02,
63798613,1A555491,true,Rx,1,8,AA,59,AA,02,00,00,00,80,
63892194,00000566,false,Rx,1,8,ED,25,FE,01,FB,07,00,00,
63897026,0000038B,false,Rx,1,8,FE,01,01,BC,F2,CA,AB,7F,
63992230,00000566,false,Rx,1,8,16,26,FE,01,FB,07,00,00,
63997051,0000038B,false,Rx,1,8,FE,01,01,BC,F2,CA,AB,7F,
64092247,00000566,false,Rx,1,8,E2,27,FE,01,FB,07,00,00,
64097069,0000038B,false,Rx,1,8,FE,01,01,BC,F2,CA,AB,7F,
64192278,00000566,false,Rx,1,8,37,28,FE,01,FB,07,00,00,
64197090,0000038B,false,Rx,1,8,FE,01,01,BC,F2,CA,AB,7F,
64247103,00000564,false,Rx,1,8,E1,83,72,71,F9,27,34,00,
64292290,00000566,false,Rx,1,8,CF,29,FE,01,FB,07,00,00,
64297111,0000038B,false,Rx,1,8,FE,01,00,BC,F2,CA,AB,7F,
64297398,12DD5472,true,Rx,1,8,00,00,00,00,00,00,00,00,
64297638,00000565,false,Rx,1,8,00,20,00,15,0C,08,80,FF,
64297908,1A555490,true,Rx,1,8,AA,0A,08,90,82,2A,A2,02,
64298200,1A555491,true,Rx,1,8,AA,59,AA,02,00,00,00,80,
64392309,00000566,false,Rx,1,8,80,2A,FE,01,FB,07,00,00,
64397130,0000038B,false,Rx,1,8,FE,01,00,BC,F2,CA,AB,7F,
64492335,00000566,false,Rx,1,8,0D,2B,FE,01,FB,07,00,00,
64497156,0000038B,false,Rx,1,8,FE,01,00,BC,F2,CA,AB,7F,
64592366,00000566,false,Rx,1,8,CC,2C,FE,01,FB,07,00,00,
64597178,0000038B,false,Rx,1,8,FE,01,00,BC,F2,CA,AB,7F,
64692381,00000566,false,Rx,1,8,6B,2D,FE,01,FB,07,00,00,
64697201,0000038B,false,Rx,1,8,FE,01,00,BC,F2,CA,AB,7F,
64792400,00000566,false,Rx,1,8,F5,2E,FE,01,FB,07,00,00,
64797221,0000038B,false,Rx,1,8,FE,01,00,BC,F2,CA,AB,7F,
64797508,12DD5472,true,Rx,1,8,00,00,00,00,00,00,00,00,
64797748,00000565,false,Rx,1,8,00,20,00,15,0C,08,80,FF,
64797989,0000067E,false,Rx,1,8,70,04,16,00,3B,00,00,04,
64798269,1A555457,true,Rx,1,8,03,4B,59,46,41,00,00,00,
64798541,1A555490,true,Rx,1,8,AA,0A,08,90,82,2A,A2,02,
64798821,1A555491,true,Rx,1,8,AA,59,AA,02,00,00,00,80,
64892424,00000566,false,Rx,1,8,08,2F,FE,01,FB,07,00,00,
64897245,0000038B,false,Rx,1,8,FE,01,00,BC,F2,CA,AB,7F,
64964554,00000097,false,Tx,1,8,43,CE,7F,CE,05,02,00,00,
64965002,00000124,false,Tx,1,8,D4,E8,57,4F,4A,31,21,01,
64965162,00000097,false,Tx,1,8,01,CF,7F,CE,05,02,00,00,
64966478,00000097,false,Tx,1,8,89,C0,7F,CE,05,02,00,00,
64967780,00000097,false,Tx,1,8,2F,C1,7F,CE,05,02,00,00,
64967916,00000124,false,Tx,1,8,26,E9,57,4F,4A,31,21,01,
64975951,00000097,false,Tx,1,8,E8,C2,7F,CE,05,02,00,00,
64981845,000003A6,false,Tx,1,8,3D,0C,00,00,00,01,00,00,
64985422,00000097,false,Tx,1,8,F2,C3,7F,CE,05,02,00,00,
64986749,00000124,false,Tx,1,8,54,EA,57,4F,4A,31,21,01,
64992456,00000566,false,Rx,1,8,82,20,FE,01,FB,07,00,00,
64994833,00000097,false,Tx,1,8,CC,C4,7F,CE,05,02,00,00,
64997267,0000038B,false,Rx,1,8,FE,01,00,BC,F2,CA,AB,7F,
65005452,00000097,false,Tx,1,8,4B,C5,7F,CE,05,FE,01,00,
65005690,00000124,false,Tx,1,8,7F,EB,57,4F,4A,31,21,01,
65010550,000003AF,false,Tx,1,8,56,D6,F7,1F,E0,01,00,00,
65011948,000006A4,false,Tx,1,8,E9,08,45,3D,40,03,00,00,
65015542,00000097,false,Tx,1,8,EE,C6,7F,CE,05,02,00,00,
65024811,00000097,false,Tx,1,8,64,C7,7F,CE,05,02,00,00,
65026123,00000124,false,Tx,1,8,51,EC,57,4F,4A,31,21,01,
65035357,00000097,false,Tx,1,8,86,C8,7F,CE,05,02,00,00,
65045909,00000097,false,Tx,1,8,BB,C9,7F,CE,05,02,00,00,
65047195,00000124,false,Tx,1,8,E0,ED,57,4F,4A,31,21,01,
65054237,00000097,false,Tx,1,8,63,CA,7F,CE,05,02,00,00,
65065849,00000097,false,Tx,1,8,7C,CB,7F,CE,05,02,00,00,
65067222,00000124,false,Tx,1,8,20,EE,57,4F,4A,31,21,01,
65075534,00000097,false,Tx,1,8,0C,CC,7F,CE,05,02,00,00,
65081488,000003A6,false,Tx,1,8,CA,0D,00,00,00,01,00,00,
65084096,00000097,false,Tx,1,8,D5,CD,7F,CE,05,02,00,00,
65085533,00000124,false,Tx,1,8,CD,EF,57,4F,4A,31,21,01,
65092466,00000566,false,Rx,1,8,DC,21,FE,01,FB,07,00,00,
65095086,00000097,false,Tx,1,8,43,CE,7F,CE,05,02,00,00,
65097288,0000038B,false,Rx,1,8,FE,01,00,BC,F2,CA,AB,7F,
65105725,00000097,false,Tx,1,8,01,CF,7F,CE,05,02,00,00,
65107173,00000124,false,Tx,1,8,42,E0,57,4F,4A,31,21,01,
65110796,000003AF,false,Tx,1,8,3A,D7,F7,1F,E0,01,00,00,
65114447,00000097,false,Tx,1,8,89,C0,7F,CE,05,02,00,00,
65124442,00000097,false,Tx,1,8,3C,C1,7F,CE,05,FE,01,00,
65125653,00000124,false,Tx,1,8,58,E1,57,4F,4A,31,21,01,
65135634,00000097,false,Tx,1,8,71,C2,7F,CE,05,FA,01,00,
65144520,00000097,false,Tx,1,8,F2,C3,7F,CE,05,02,00,00,
65145773,00000124,false,Tx,1,8,1B,E2,57,4F,4A,31,21,01,
65155663,00000097,false,Tx,1,8,DF,C4,7F,CE,05,FE,01,00,
65165256,00000097,false,Tx,1,8,C1,C5,7F,CE,05,FA,01,00,
65166570,00000124,false,Tx,1,8,52,E3,57,4F,4A,31,21,01,
65174685,00000097,false,Tx,1,8,EE,C6,7F,CE,05,02,00,00,
65181818,000003A6,false,Tx,1,8,9E,0E,00,00,00,01,00,00,
65185448,00000097,false,Tx,1,8,64,C7,7F,CE,05,02,00,00,
65186741,00000124,false,Tx,1,8,ED,E4,57,4F,4A,31,21,01,
65192482,00000566,false,Rx,1,8,58,22,FE,01,FB,07,00,00,
65197198,00000097,false,Tx,1,8,86,C8,7F,CE,05,02,00,00,
65197377,0000038B,false,Rx,1,8,FE,01,00,BC,F2,CA,AB,7F,
65204297,00000097,false,Tx,1,8,BB,C9,7F,CE,05,02,00,00,
65205676,00000124,false,Tx,1,8,10,E5,57,4F,4A,31,21,01,
65205940,000006A3,false,Tx,1,8,C1,08,99,3E,6C,66,03,00,
65209684,000003AF,false,Tx,1,8,E5,D8,F7,1F,E0,01,00,00,
65214510,00000097,false,Tx,1,8,63,CA,7F,CE,05,02,00,00,
65226172,00000097,false,Tx,1,8,7C,CB,7F,CE,05,02,00,00,
65226468,00000124,false,Tx,1,8,93,E6,57,4F,4A,31,21,01,
65235037,00000097,false,Tx,1,8,0C,CC,7F,CE,05,02,00,00,
65244547,00000097,false,Tx,1,8,D5,CD,7F,CE,05,02,00,00,
65246022,00000124,false,Tx,1,8,EF,E7,57,4F,4A,31,21,01,
65247320,00000564,false,Rx,1,8,71,04,72,71,F9,27,34,00,
65255610,00000097,false,Tx,1,8,43,CE,7F,CE,05,02,00,00,
65264962,00000097,false,Tx,1,8,01,CF,7F,CE,05,02,00,00,
65266328,00000124,false,Tx,1,8,D4,E8,57,4F,4A,31,21,01,
65275656,00000097,false,Tx,1,8,89,C0,7F,CE,05,02,00,00,
65281617,000003A6,false,Tx,1,8,88,0F,00,00,00,01,00,00,
65285403,00000097,false,Tx,1,8,2F,C1,7F,CE,05,02,00,00,
65287022,00000124,false,Tx,1,8,26,E9,57,4F,4A,31,21,01,
65292511,00000566,false,Rx,1,8,00,23,FE,01,FB,07,19,00,
65294187,00000097,false,Tx,1,8,E8,C2,7F,CE,05,02,00,00,
65297323,0000038B,false,Rx,1,8,FE,01,00,BC,F2,CA,AB,7F,
65297619,12DD5472,true,Rx,1,8,00,00,00,00,00,00,00,00,
65297860,00000565,false,Rx,1,8,00,20,00,15,0C,08,80,FF,
65298131,1A555490,true,Rx,1,8,AA,02,08,80,82,2A,A2,02,
65298422,1A555491,true,Rx,1,8,AA,59,AA,02,00,00,00,80,
65305908,00000097,false,Tx,1,8,E1,C3,7F,CE,05,FE,01,00,
65307272,00000124,false,Tx,1,8,54,EA,57,4F,4A,31,21,01,
65310930,000003AF,false,Tx,1,8,8F,D9,F7,1F,E0,01,00,00,
65315944,00000097,false,Tx,1,8,DF,C4,7F,CE,05,FE,01,00,
65324226,00000097,false,Tx,1,8,58,C5,7F,CE,05,02,00,00,
65325681,00000124,false,Tx,1,8,7F,EB,57,4F,4A,31,21,01,
65335035,00000097,false,Tx,1,8,EE,C6,7F,CE,05,02,00,00,
65345582,00000097,false,Tx,1,8,64,C7,7F,CE,05,02,00,00,
65347005,00000124,false,Tx,1,8,51,EC,57,4F,4A,31,21,01,
65355241,00000097,false,Tx,1,8,86,C8,7F,CE,05,02,00,00,
65365679,00000097,false,Tx,1,8,BB,C9,7F,CE,05,02,00,00,
65367067,00000124,false,Tx,1,8,E0,ED,57,4F,4A,31,21,01,
65375847,00000097,false,Tx,1,8,63,CA,7F,CE,05,02,00,00,
65381353,000003A6,false,Tx,1,8,48,00,00,00,00,01,00,00,
65384782,00000097,false,Tx,1,8,7C,CB,7F,CE,05,02,00,00,
65385973,00000124,false,Tx,1,8,20,EE,57,4F,4A,31,21,01,
65392528,00000566,false,Rx,1,8,8D,24,FE,01,FB,07,19,00,
65394818,00000097,false,Tx,1,8,0C,CC,7F,CE,05,02,00,00,
65397348,0000038B,false,Rx,1,8,FE,01,00,BC,F2,CA,AB,7F,
65405893,00000097,false,Tx,1,8,D5,CD,7F,CE,05,02,00,00,
65405980,00000124,false,Tx,1,8,CD,EF,57,4F,4A,31,21,01,
65410556,000003AF,false,Tx,1,8,BA,DA,F7,1F,E0,01,00,00,
65415250,00000097,false,Tx,1,8,43,CE,7F,CE,05,02,00,00,
65424653,00000097,false,Tx,1,8,12,CF,7F,CE,05,FE,01,00,
65425945,00000124,false,Tx,1,8,42,E0,57,4F,4A,31,21,01,
65436392,00000097,false,Tx,1,8,89,C0,7F,CE,05,02,00,00,
65444582,00000097,false,Tx,1,8,2F,C1,7F,CE,05,02,00,00,
65444750,00000124,false,Tx,1,8,58,E1,57,4F,4A,31,21,01,
65456281,00000097,false,Tx,1,8,FB,C2,7F,CE,05,FE,01,00,
65465557,00000097,false,Tx,1,8,F2,C3,7F,CE,05,02,00,00,
65465709,00000124,false,Tx,1,8,1B,E2,57,4F,4A,31,21,01,
65475116,00000097,false,Tx,1,8,98,C4,7F,CF,05,02,00,00,
65482226,000003A6,false,Tx,1,8,B5,01,00,00,00,01,00,00,
65485800,00000097,false,Tx,1,8,58,C5,7F,CE,05,02,00,00,
65485963,00000124,false,Tx,1,8,52,E3,57,4F,4A,31,21,01,
65492544,00000566,false,Rx,1,8,73,25,FE,01,FB,07,19,00,
65496310,00000097,false,Tx,1,8,EE,C6,7F,CE,05,02,00,00,
65497375,0000038B,false,Rx,1,8,FE,01,00,BC,F2,CA,AB,7F,
65504597,00000124,false,Tx,1,8,ED,E4,57,4F,4A,31,21,01,
65504907,00000097,false,Tx,1,8,64,C7,7F,CE,05,02,00,00,
65511051,000003AF,false,Tx,1,8,86,DB,F7,1F,E0,01,00,00,
65511366,000006A4,false,Tx,1,8,11,09,45,3D,40,03,00,00,
65515200,00000097,false,Tx,1,8,86,C8,7F,CE,05,02,00,00,
65525780,00000097,false,Tx,1,8,BB,C9,7F,CE,05,02,00,00,
65525998,00000124,false,Tx,1,8,10,E5,57,4F,4A,31,21,01,
65535177,00000097,false,Tx,1,8,63,CA,7F,CE,05,02,00,00,
65544678,00000097,false,Tx,1,8,E5,CB,7F,CE,05,FA,01,00,
65544987,00000124,false,Tx,1,8,93,E6,57,4F,4A,31,21,01,
65555799,00000097,false,Tx,1,8,0C,CC,7F,CE,05,02,00,00,
65565286,00000097,false,Tx,1,8,D5,CD,7F,CE,05,02,00,00,
65565550,00000124,false,Tx,1,8,EF,E7,57,4F,4A,31,21,01,
65575093,00000097,false,Tx,1,8,43,CE,7F,CE,05,02,00,00,
65581131,000003A6,false,Tx,1,8,76,02,00,00,00,01,00,00,
65585938,00000097,false,Tx,1,8,98,CF,7F,CE,05,FA,01,00,
65586301,00000124,false,Tx,1,8,D4,E8,57,4F,4A,31,21,01,
65592565,00000566,false,Rx,1,8,88,26,FE,01,FB,07,19,00,
65594483,00000097,false,Tx,1,8,89,C0,7F,CE,05,02,00,00,
65597397,0000038B,false,Rx,1,8,FE,01,00,BC,F2,CA,AB,7F,
65605067,00000124,false,Tx,1,8,26,E9,57,4F,4A,31,21,01,
65605336,00000097,false,Tx,1,8,3C,C1,7F,CE,05,FE,01,00,
65611400,000003AF,false,Tx,1,8,98,DC,F7,1F,E0,01,00,00,
65616150,00000097,false,Tx,1,8,E8,C2,7F,CE,05,02,00,00,
65624837,00000097,false,Tx,1,8,F2,C3,7F,CE,05,02,00,00,
65624914,00000124,false,Tx,1,8,54,EA,57,4F,4A,31,21,01,
65636104,00000097,false,Tx,1,8,CC,C4,7F,CE,05,02,00,00,
65645988,00000097,false,Tx,1,8,4B,C5,7F,CE,05,FE,01,00,
65646077,00000124,false,Tx,1,8,7F,EB,57,4F,4A,31,21,01,
65655041,00000097,false,Tx,1,8,EE,C6,7F,CE,05,02,00,00,
65665522,00000097,false,Tx,1,8,64,C7,7F,CE,05,02,00,00,
65665680,00000124,false,Tx,1,8,51,EC,57,4F,4A,31,21,01,
65675937,00000097,false,Tx,1,8,86,C8,7F,CE,05,02,00,00,
65680731,000003A6,false,Tx,1,8,3A,03,00,00,00,01,00,00,
65685436,00000097,false,Tx,1,8,BB,C9,7F,CE,05,02,00,00,
65685588,00000124,false,Tx,1,8,E0,ED,57,4F,4A,31,21,01,
65692591,00000566,false,Rx,1,8,7C,27,FE,01,FB,07,19,00,
65694781,00000097,false,Tx,1,8,63,CA,7F,CE,05,02,00,00,
65697413,0000038B,false,Rx,1,8,FE,01,00,BC,F2,CA,AB,7F,
65706590,00000097,false,Tx,1,8,E5,CB,7F,CE,05,FA,01,00,
65706804,00000124,false,Tx,1,8,20,EE,57,4F,4A,31,21,01,
65706943,000006A3,false,Tx,1,8,DA,09,99,3E,6C,66,03,00,
65710578,000003AF,false,Tx,1,8,44,DD,F7,1F,E0,01,00,00,
65715261,00000097,false,Tx,1,8,0C,CC,7F,CE,05,02,00,00,
65725683,00000097,false,Tx,1,8,C6,CD,7F,CE,05,FE,01,00,
65725933,00000124,false,Tx,1,8,CD,EF,57,4F,4A,31,21,01,
65735492,00000097,false,Tx,1,8,43,CE,7F,CE,05,02,00,00,
65744931,00000124,false,Tx,1,8,42,E0,57,4F,4A,31,21,01,
65745210,00000097,false,Tx,1,8,01,CF,7F,CE,05,02,00,00,
65755888,00000097,false,Tx,1,8,9A,C0,7F,CE,05,FE,01,00,
65766576,00000097,false,Tx,1,8,B6,C1,7F,CE,05,FA,01,00,
65766881,00000124,false,Tx,1,8,58,E1,57,4F,4A,31,21,01,
65775188,00000097,false,Tx,1,8,71,C2,7F,CE,05,FA,01,00,
65781400,000003A6,false,Tx,1,8,7A,04,00,00,00,01,00,00,
65786532,00000097,false,Tx,1,8,F2,C3,7F,CE,05,02,00,00,
65786774,00000124,false,Tx,1,8,1B,E2,57,4F,4A,31,21,01,
65792626,00000566,false,Rx,1,8,A9,28,FE,01,FB,07,19,00,
65795993,00000097,false,Tx,1,8,CC,C4,7F,CE,05,02,00,00,
65797435,0000038B,false,Rx,1,8,FE,01,00,BC,F2,CA,AB,7F,
65797734,12DD5472,true,Rx,1,8,00,00,00,00,00,00,00,00,
65797974,00000565,false,Rx,1,8,00,20,00,15,0C,08,80,FF,
65798213,0000067E,false,Rx,1,8,14,05,16,00,3B,00,00,04,
65798483,1A555457,true,Rx,1,8,00,35,51,45,36,00,00,00,
65798765,1A555490,true,Rx,1,8,AA,02,08,80,82,2A,A2,02,
65799048,1A555491,true,Rx,1,8,AA,58,A8,02,00,00,00,80,
65805361,00000097,false,Tx,1,8,58,C5,7F,CE,05,02,00,00,
65805618,00000124,false,Tx,1,8,52,E3,57,4F,4A,31,21,01,
65810419,000003AF,false,Tx,1,8,1A,DE,F7,1F,E0,01,00,00,
65815142,00000097,false,Tx,1,8,EE,C6,7F,CE,05,02,00,00,
65825624,00000097,false,Tx,1,8,64,C7,7F,CE,05,02,00,00,
65825859,00000124,false,Tx,1,8,ED,E4,57,4F,4A,31,21,01,
65835208,00000097,false,Tx,1,8,86,C8,7F,CE,05,02,00,00,
65845704,00000097,false,Tx,1,8,A8,C9,7F,CE,05,FE,01,00,
65845860,00000124,false,Tx,1,8,10,E5,57,4F,4A,31,21,01,
65856374,00000097,false,Tx,1,8,FA,CA,7F,CE,05,FA,01,00,
65865708,00000097,false,Tx,1,8,7C,CB,7F,CE,05,02,00,00,
65865907,00000124,false,Tx,1,8,93,E6,57,4F,4A,31,21,01,
65874666,00000097,false,Tx,1,8,0C,CC,7F,CE,05,02,00,00,
65881342,000003A6,false,Tx,1,8,8A,05,00,00,00,01,00,00,
65885884,00000124,false,Tx,1,8,EF,E7,57,4F,4A,31,21,01,
65885981,00000097,false,Tx,1,8,D5,CD,7F,CE,05,02,00,00,
65892627,00000566,false,Rx,1,8,51,29,FE,01,FB,07,19,00,
65894697,00000097,false,Tx,1,8,43,CE,7F,CE,05,02,00,00,
65897459,0000038B,false,Rx,1,8,FE,01,00,BC,F2,CA,AB,7F,
65904656,00000097,false,Tx,1,8,12,CF,7F,CE,05,FE,01,00,
65904921,00000124,false,Tx,1,8,D4,E8,57,4F,4A,31,21,01,
65909618,000003AF,false,Tx,1,8,CD,DF,F7,1F,E0,01,00,00,
65916713,00000097,false,Tx,1,8,89,C0,7F,CE,05,02,00,00,
65924954,00000097,false,Tx,1,8,2F,C1,7F,CE,05,02,00,00,
65925217,00000124,false,Tx,1,8,26,E9,57,4F,4A,31,21,01,
65935666,00000097,false,Tx,1,8,E8,C2,7F,CE,05,02,00,00,
65946142,00000097,false,Tx,1,8,F2,C3,7F,CE,05,02,00,00,
65946383,00000124,false,Tx,1,8,54,EA,57,4F,4A,31,21,01,
65955757,00000097,false,Tx,1,8,CC,C4,7F,CE,05,02,00,00,
65966340,00000097,false,Tx,1,8,58,C5,7F,CE,05,02,00,00,
65966685,00000124,false,Tx,1,8,7F,EB,57,4F,4A,31,21,01,
65976234,00000097,false,Tx,1,8,EE,C6,7F,CE,05,02,00,00,
65981089,000003A6,false,Tx,1,8,08,06,00,00,00,01,00,00,
65984809,00000124,false,Tx,1,8,51,EC,57,4F,4A,31,21,01,
65985053,00000097,false,Tx,1,8,64,C7,7F,CE,05,02,00,00,
65992648,00000566,false,Rx,1,8,97,2A,FE,21,FB,07,19,00,
65995664,00000097,false,Tx,1,8,86,C8,7F,CE,05,02,00,00,
65997479,0000038B,false,Rx,1,8,FE,01,00,BC,F2,CA,AB,7F,
66006024,00000124,false,Tx,1,8,E0,ED,57,4F,4A,31,21,01,
66006186,00000097,false,Tx,1,8,BB,C9,7F,CE,05,02,00,00,
66010769,000003AF,false,Tx,1,8,66,D0,F7,1F,E0,01,00,00,
66010922,000006A4,false,Tx,1,8,C0,0A,45,3D,40,03,00,00,
66015678,00000097,false,Tx,1,8,63,CA,7F,CE,05,02,00,00,
66024950,00000097,false,Tx,1,8,6F,CB,7F,CE,05,FE,01,00,
66025103,00000124,false,Tx,1,8,20,EE,57,4F,4A,31,21,01,
66036570,00000097,false,Tx,1,8,0C,CC,7F,CE,05,02,00,00,
66044802,00000124,false,Tx,1,8,CD,EF,57,4F,4A,31,21,01,
66044953,00000097,false,Tx,1,8,D5,CD,7F,CE,05,02,00,00,
66055436,00000097,false,Tx,1,8,43,CE,7F,CE,05,02,00,00,
66065861,00000097,false,Tx,1,8,01,CF,7F,CE,05,02,00,00,
66066017,00000124,false,Tx,1,8,42,E0,57,4F,4A,31,21,01,
66075222,00000097,false,Tx,1,8,DD,C0,7F,CF,05,02,00,00,
66081108,000003A6,false,Tx,1,8,E0,07,00,00,00,01,00,00,
66085870,00000097,false,Tx,1,8,68,C1,7F,CF,05,FE,01,00,
66086092,00000124,false,Tx,1,8,58,E1,57,4F,4A,31,21,01,
66092677,00000566,false,Rx,1,8,1A,2B,FE,21,FB,07,19,00,
66096504,00000097,false,Tx,1,8,BC,C2,7F,CF,05,02,00,00,
66097511,0000038B,false,Rx,1,8,FE,01,00,BC,F2,CA,AB,7F,
66105842,00000097,false,Tx,1,8,A6,C3,7F,CF,05,02,00,00,
66106062,00000124,false,Tx,1,8,1B,E2,57,4F,4A,31,21,01,
66110721,000003AF,false,Tx,1,8,6F,D1,F7,1F,E0,01,00,00,
66115444,00000097,false,Tx,1,8,98,C4,7F,CF,05,02,00,00,
66126583,00000124,false,Tx,1,8,52,E3,57,4F,4A,31,21,01,
66126659,00000097,false,Tx,1,8,0C,C5,7F,CF,05,02,00,00,
66136533,00000097,false,Tx,1,8,A9,C6,7F,CF,05,FE,01,00,
66145451,00000097,false,Tx,1,8,64,C7,7F,CE,05,02,00,00,
66145692,00000124,false,Tx,1,8,ED,E4,57,4F,4A,31,21,01,
66156750,00000097,false,Tx,1,8,86,C8,7F,CE,05,02,00,00,
66165058,00000097,false,Tx,1,8,A8,C9,7F,CE,05,FE,01,00,
66165336,00000124,false,Tx,1,8,10,E5,57,4F,4A,31,21,01,
66175726,00000097,false,Tx,1,8,63,CA,7F,CE,05,02,00,00,
66181640,000003A6,false,Tx,1,8,4F,08,00,00,00,01,00,00,
66186546,00000097,false,Tx,1,8,3B,CB,7F,CF,05,FE,01,00,
66186722,00000124,false,Tx,1,8,93,E6,57,4F,4A,31,21,01,
66192704,00000566,false,Rx,1,8,DB,2C,FE,21,FB,07,19,00,
66195923,00000097,false,Tx,1,8,58,CC,7F,CF,05,02,00,00,
66197526,0000038B,false,Rx,1,8,FE,01,00,BC,F2,CA,AB,7F,
66206505,00000097,false,Tx,1,8,81,CD,7F,CF,05,02,00,00,
66206736,00000124,false,Tx,1,8,EF,E7,57,4F,4A,31,21,01,
66206850,000006A3,false,Tx,1,8,A1,0A,99,3E,6C,66,03,00,
66210457,000003AF,false,Tx,1,8,F2,D2,F7,1F,E0,01,00,00,
66216489,00000097,false,Tx,1,8,17,CE,7F,CF,05,02,00,00,
66225916,00000124,false,Tx,1,8,D4,E8,57,4F,4A,31,21,01,
66226177,00000097,false,Tx,1,8,55,CF,7F,CF,05,02,00,00,
66235659,00000097,false,Tx,1,8,DD,C0,7F,CF,05,02,00,00,
66246207,00000097,false,Tx,1,8,2F,C1,7F,CE,05,02,00,00,
66246455,00000124,false,Tx,1,8,26,E9,57,4F,4A,31,21,01,
66247548,00000564,false,Rx,1,8,15,05,72,71,F9,27,34,00,
66255950,00000097,false,Tx,1,8,E8,C2,7F,CE,05,02,00,00,
66266532,00000124,false,Tx,1,8,54,EA,57,4F,4A,31,21,01,
66266778,00000097,false,Tx,1,8,F2,C3,7F,CE,05,02,00,00,
66276313,00000097,false,Tx,1,8,55,C4,7F,CE,05,FA,01,00,
66281168,000003A6,false,Tx,1,8,22,09,00,00,00,01,00,00,
66284871,00000097,false,Tx,1,8,58,C5,7F,CE,05,02,00,00,
66285130,00000124,false,Tx,1,8,7F,EB,57,4F,4A,31,21,01,
66292722,00000566,false,Rx,1,8,7C,2D,FE,21,FB,07,19,00,
66295618,00000097,false,Tx,1,8,EE,C6,7F,CE,05,02,00,00,
66297544,0000038B,false,Rx,1,8,FE,01,00,BC,F2,CA,AB,7F,
66297831,12DD5472,true,Rx,1,8,00,00,00,00,00,00,00,00,
66298072,00000565,false,Rx,1,8,00,20,00,15,0C,08,80,FF,
66298353,1A555490,true,Rx,1,8,AA,00,00,80,02,2A,20,00,
66298634,1A555491,true,Rx,1,8,AA,58,A8,02,00,00,00,80,
66306137,00000097,false,Tx,1,8,64,C7,7F,CE,05,02,00,00,
66306382,00000124,false,Tx,1,8,51,EC,57,4F,4A,31,21,01,
66310035,000003AF,false,Tx,1,8,B1,D3,F7,1F,E0,01,00,00,
66315995,00000097,false,Tx,1,8,86,C8,7F,CE,05,02,00,00,
66326548,00000097,false,Tx,1,8,A8,C9,7F,CE,05,FE,01,00,
66326798,00000124,false,Tx,1,8,E0,ED,57,4F,4A,31,21,01,
66336215,00000097,false,Tx,1,8,37,CA,7F,CF,05,02,00,00,
66345753,00000097,false,Tx,1,8,28,CB,7F,CF,05,02,00,00,
66346072,00000124,false,Tx,1,8,20,EE,57,4F,4A,31,21,01,
66356709,00000097,false,Tx,1,8,4B,CC,7F,CF,05,FE,01,00,
66366084,00000097,false,Tx,1,8,18,CD,7F,CF,05,FA,01,00,
66366364,00000124,false,Tx,1,8,CD,EF,57,4F,4A,31,21,01,
66375186,00000097,false,Tx,1,8,17,CE,7F,CF,05,02,00,00,
66381835,000003A6,false,Tx,1,8,C2,0A,00,00,00,01,00,00,
66386369,00000097,false,Tx,1,8,46,CF,7F,CF,05,FE,01,00,
66386599,00000124,false,Tx,1,8,42,E0,57,4F,4A,31,21,01,
66392730,00000566,false,Rx,1,8,E2,2E,FE,21,FB,07,19,00,
66396599,00000097,false,Tx,1,8,DD,C0,7F,CF,05,02,00,00,
66397573,0000038B,false,Rx,1,8,FE,01,00,BC,F2,CA,AB,7F,
66405425,00000097,false,Tx,1,8,7B,C1,7F,CF,05,02,00,00,
66405547,00000124,false,Tx,1,8,58,E1,57,4F,4A,31,21,01,
66410082,000003AF,false,Tx,1,8,C2,D4,F7,1F,E0,01,00,00,
66416032,00000097,false,Tx,1,8,BC,C2,7F,CF,05,02,00,00,
66426702,00000097,false,Tx,1,8,F2,C3,7F,CE,05,02,00,00,
66426840,00000124,false,Tx,1,8,1B,E2,57,4F,4A,31,21,01,
66436186,00000097,false,Tx,1,8,CC,C4,7F,CE,05,02,00,00,
66445631,00000097,false,Tx,1,8,4B,C5,7F,CE,05,FE,01,00,
66445895,00000124,false,Tx,1,8,52,E3,57,4F,4A,31,21,01,
66456410,00000097,false,Tx,1,8,EE,C6,7F,CE,05,02,00,00,
66465943,00000097,false,Tx,1,8,64,C7,7F,CE,05,02,00,00,
66466251,00000124,false,Tx,1,8,ED,E4,57,4F,4A,31,21,01,
66475777,00000097,false,Tx,1,8,86,C8,7F,CE,05,02,00,00,
66481753,000003A6,false,Tx,1,8,AE,0B,00,00,00,01,00,00,
66486616,00000097,false,Tx,1,8,BB,C9,7F,CE,05,02,00,00,
66486847,00000124,false,Tx,1,8,10,E5,57,4F,4A,31,21,01,
66492766,00000566,false,Rx,1,8,1F,2F,FE,21,FB,07,19,00,
66495219,00000097,false,Tx,1,8,63,CA,7F,CE,05,02,00,00,
66497588,0000038B,false,Rx,1,8,FE,01,00,BC,F2,CA,AB,7F,
66505799,00000097,false,Tx,1,8,6F,CB,7F,CE,05,FE,01,00,
66506061,00000124,false,Tx,1,8,93,E6,57,4F,4A,31,21,01,
66511018,000003AF,false,Tx,1,8,CE,D5,F7,1F,E0,01,00,00,
66511331,000006A4,false,Tx,1,8,86,0B,45,3D,40,03,00,00,
66516228,00000097,false,Tx,1,8,0C,CC,7F,CE,05,02,00,00,
66525629,00000097,false,Tx,1,8,D5,CD,7F,CE,05,02,00,00,
66525868,00000124,false,Tx,1,8,EF,E7,57,4F,4A,31,21,01,
66535289,00000097,false,Tx,1,8,43,CE,7F,CE,05,02,00,00,
66547041,00000097,false,Tx,1,8,01,CF,7F,CE,05,02,00,00,
66547307,00000124,false,Tx,1,8,D4,E8,57,4F,4A,31,21,01,
66555849,00000097,false,Tx,1,8,89,C0,7F,CE,05,02,00,00,
66566442,00000124,false,Tx,1,8,26,E9,57,4F,4A,31,21,01,
66566689,00000097,false,Tx,1,8,3C,C1,7F,CE,05,FE,01,00,
66576081,00000097,false,Tx,1,8,E8,C2,7F,CE,05,02,00,00,
66582097,000003A6,false,Tx,1,8,3D,0C,00,00,00,01,00,00,
66585757,00000097,false,Tx,1,8,F2,C3,7F,CE,05,02,00,00,
66585962,00000124,false,Tx,1,8,54,EA,57,4F,4A,31,21,01,
66592792,00000566,false,Rx,1,8,95,20,FE,21,FB,07,19,00,
66595192,00000097,false,Tx,1,8,CC,C4,7F,CE,05,02,00,00,
66597613,0000038B,false,Rx,1,8,FE,01,00,BC,F2,CA,AB,7F,
66606847,00000097,false,Tx,1,8,58,C5,7F,CE,05,02,00,00,
66607035,00000124,false,Tx,1,8,7F,EB,57,4F,4A,31,21,01,
66610655,000003AF,false,Tx,1,8,56,D6,F7,1F,E0,01,00,00,
66615331,00000097,false,Tx,1,8,EE,C6,7F,CE,05,02,00,00,
66625131,00000097,false,Tx,1,8,77,C7,7F,CE,05,FE,01,00,
66625252,00000124,false,Tx,1,8,51,EC,57,4F,4A,31,21,01,
66636215,00000097,false,Tx,1,8,95,C8,7F,CE,05,FE,01,00,
66645356,00000124,false,Tx,1,8,E0,ED,57,4F,4A,31,21,01,
66645592,00000097,false,Tx,1,8,BB,C9,7F,CE,05,02,00,00,
66655811,00000097,false,Tx,1,8,63,CA,7F,CE,05,02,00,00,
66667184,00000124,false,Tx,1,8,20,EE,57,4F,4A,31,21,01,
66667607,00000097,false,Tx,1,8,E5,CB,7F,CE,05,FA,01,00,
66675859,00000097,false,Tx,1,8,0C,CC,7F,CE,05,02,00,00,
66681821,000003A6,false,Tx,1,8,CA,0D,00,00,00,01,00,00,
66686770,00000097,false,Tx,1,8,C6,CD,7F,CE,05,FE,01,00,
66687077,00000124,false,Tx,1,8,CD,EF,57,4F,4A,31,21,01,
66692800,00000566,false,Rx,1,8,CB,21,FE,21,FB,07,19,00,
66696486,00000097,false,Tx,1,8,43,CE,7F,CE,05,02,00,00,
66697633,0000038B,false,Rx,1,8,FE,01,00,BC,F2,CA,AB,7F,
66705853,000006A3,false,Tx,1,8,99,0B,99,3E,6C,66,03,00,
66706005,00000097,false,Tx,1,8,01,CF,7F,CE,05,02,00,00,
66706114,00000124,false,Tx,1,8,42,E0,57,4F,4A,31,21,01,
66710770,000003AF,false,Tx,1,8,3A,D7,F7,1F,E0,01,00,00,
66715490,00000097,false,Tx,1,8,89,C0,7F,CE,05,02,00,00,
66727174,00000124,false,Tx,1,8,58,E1,57,4F,4A,31,21,01,
66727418,00000097,false,Tx,1,8,2F,C1,7F,CE,05,02,00,00,
66735804,00000097,false,Tx,1,8,E8,C2,7F,CE,05,02,00,00,
66746316,00000097,false,Tx,1,8,6B,C3,7F,CE,05,FA,01,00,
66746577,00000124,false,Tx,1,8,1B,E2,57,4F,4A,31,21,01,
66757254,00000097,false,Tx,1,8,55,C4,7F,CE,05,FA,01,00,
66765638,00000097,false,Tx,1,8,58,C5,7F,CE,05,02,00,00,
66765961,00000124,false,Tx,1,8,52,E3,57,4F,4A,31,21,01,
66775354,00000097,false,Tx,1,8,FD,C6,7F,CE,05,FE,01,00,
66781418,000003A6,false,Tx,1,8,9E,0E,00,00,00,01,00,00,
66786403,00000097,false,Tx,1,8,64,C7,7F,CE,05,02,00,00,
66786712,00000124,false,Tx,1,8,ED,E4,57,4F,4A,31,21,01,
66792814,00000566,false,Rx,1,8,4F,22,FE,21,FB,07,19,00,
66795964,00000097,false,Tx,1,8,86,C8,7F,CE,05,02,00,00,
66797658,0000038B,false,Rx,1,8,FE,01,00,BC,F2,CA,AB,7F,
66797946,12DD5472,true,Rx,1,8,00,00,00,00,00,00,00,00,
66798185,00000565,false,Rx,1,8,00,20,00,15,0C,08,80,FF,
66798425,0000067E,false,Rx,1,8,B8,06,16,00,3B,00,00,04,
66798695,1A555457,true,Rx,1,8,01,38,32,41,4B,00,00,00,
66798977,1A555490,true,Rx,1,8,AA,00,00,80,02,2A,20,00,
66799259,1A555491,true,Rx,1,8,AA,58,A8,02,00,00,00,80,
66806473,00000124,false,Tx,1,8,10,E5,57,4F,4A,31,21,01,
66806736,00000097,false,Tx,1,8,A8,C9,7F,CE,05,FE,01,00,
66810300,000003AF,false,Tx,1,8,E5,D8,F7,1F,E0,01,00,00,
66816381,00000097,false,Tx,1,8,63,CA,7F,CE,05,02,00,00,
66825924,00000097,false,Tx,1,8,7C,CB,7F,CE,05,02,00,00,
66826223,00000124,false,Tx,1,8,93,E6,57,4F,4A,31,21,01,
66835561,00000097,false,Tx,1,8,0C,CC,7F,CE,05,02,00,00,
66846121,00000097,false,Tx,1,8,D5,CD,7F,CE,05,02,00,00,
66847537,00000124,false,Tx,1,8,EF,E7,57,4F,4A,31,21,01,
66854709,00000097,false,Tx,1,8,50,CE,7F,CE,05,FE,01,00,
66866231,00000097,false,Tx,1,8,12,CF,7F,CE,05,FE,01,00,
66867460,00000124,false,Tx,1,8,D4,E8,57,4F,4A,31,21,01,
66876213,00000097,false,Tx,1,8,89,C0,7F,CE,05,02,00,00,
66881837,000003A6,false,Tx,1,8,88,0F,00,00,00,01,00,00,
66885258,00000097,false,Tx,1,8,2F,C1,7F,CE,05,02,00,00,
66886470,00000124,false,Tx,1,8,26,E9,57,4F,4A,31,21,01,
66892846,00000566,false,Rx,1,8,89,23,FE,21,FB,07,19,00,
66895306,00000097,false,Tx,1,8,E8,C2,7F,CE,05,02,00,00,
66897667,0000038B,false,Rx,1,8,FE,01,00,BC,F2,CA,AB,7F,
66905393,00000097,false,Tx,1,8,F2,C3,7F,CE,05,02,00,00,
66906646,00000124,false,Tx,1,8,54,EA,57,4F,4A,31,21,01,
66911303,000003AF,false,Tx,1,8,8F,D9,F7,1F,E0,01,00,00,
66914867,00000097,false,Tx,1,8,CC,C4,7F,CE,05,02,00,00,
66925325,00000097,false,Tx,1,8,4B,C5,7F,CE,05,FE,01,00,
66925480,00000124,false,Tx,1,8,7F,EB,57,4F,4A,31,21,01,
66935886,00000097,false,Tx,1,8,EE,C6,7F,CE,05,02,00,00,
66945100,00000097,false,Tx,1,8,64,C7,7F,CE,05,02,00,00,
66946471,00000124,false,Tx,1,8,51,EC,57,4F,4A,31,21,01,
66954550,00000097,false,Tx,1,8,86,C8,7F,CE,05,02,00,00,
66966287,00000097,false,Tx,1,8,22,C9,7F,CE,05,FA,01,00,
66966516,00000124,false,Tx,1,8,E0,ED,57,4F,4A,31,21,01,
66974590,00000097,false,Tx,1,8,63,CA,7F,CE,05,02,00,00,
66981601,000003A6,false,Tx,1,8,48,00,00,00,00,01,00,00,
66986331,00000097,false,Tx,1,8,6F,CB,7F,CE,05,FE,01,00,
66986513,00000124,false,Tx,1,8,20,EE,57,4F,4A,31,21,01,
66992879,00000566,false,Rx,1,8,04,24,FE,21,FB,07,19,00,
66995894,00000097,false,Tx,1,8,0C,CC,7F,CE,05,02,00,00,
66997688,0000038B,false,Rx,1,8,FE,01,00,BC,F2,CA,AB,7F,
67005377,00000097,false,Tx,1,8,D5,CD,7F,CE,05,02,00,00,
67005669,00000124,false,Tx,1,8,CD,EF,57,4F,4A,31,21,01,
67009454,000003AF,false,Tx,1,8,BA,DA,F7,1F,E0,01,00,00,
67011011,000006A4,false,Tx,1,8,98,0C,44,3D,40,03,00,00,
67014718,00000097,false,Tx,1,8,43,CE,7F,CE,05,02,00,00,
67026489,00000097,false,Tx,1,8,01,CF,7F,CE,05,02,00,00,
67026782,00000124,false,Tx,1,8,42,E0,57,4F,4A,31,21,01,
67034902,00000097,false,Tx,1,8,89,C0,7F,CE,05,02,00,00,
67045462,00000097,false,Tx,1,8,B6,C1,7F,CE,05,FA,01,00,
67045742,00000124,false,Tx,1,8,58,E1,57,4F,4A,31,21,01,
67056347,00000097,false,Tx,1,8,E8,C2,7F,CE,05,02,00,00,
67064704,00000097,false,Tx,1,8,F2,C3,7F,CE,05,02,00,00,
67066172,00000124,false,Tx,1,8,1B,E2,57,4F,4A,31,21,01,
67075524,00000097,false,Tx,1,8,CC,C4,7F,CE,05,02,00,00,
67081518,000003A6,false,Tx,1,8,B5,01,00,00,00,01,00,00,
67086406,00000097,false,Tx,1,8,58,C5,7F,CE,05,02,00,00,
67087811,00000124,false,Tx,1,8,52,E3,57,4F,4A,31,21,01,
67092886,00000566,false,Rx,1,8,FA,25,FE,21,FB,07,19,00,
67094889,00000097,false,Tx,1,8,EE,C6,7F,CE,05,02,00,00,
67097717,0000038B,false,Rx,1,8,FE,01,00,BC,F2,CA,AB,7F,
67105513,00000097,false,Tx,1,8,77,C7,7F,CE,05,FE,01,00,
67105767,00000124,false,Tx,1,8,ED,E4,57,4F,4A,31,21,01,
67110528,000003AF,false,Tx,1,8,86,DB,F7,1F,E0,01,00,00,
67116366,00000097,false,Tx,1,8,86,C8,7F,CE,05,02,00,00,
67125096,00000097,false,Tx,1,8,BB,C9,7F,CE,05,02,00,00,
67126290,00000124,false,Tx,1,8,10,E5,57,4F,4A,31,21,01,
67136244,00000097,false,Tx,1,8,63,CA,7F,CE,05,02,00,00,
67146265,00000097,false,Tx,1,8,6F,CB,7F,CE,05,FE,01,00,
67147491,00000124,false,Tx,1,8,93,E6,57,4F,4A,31,21,01,
67155222,00000097,false,Tx,1,8,1F,CC,7F,CE,05,FE,01,00,
67165569,00000097,false,Tx,1,8,D5,CD,7F,CE,05,02,00,00,
67166997,00000124,false,Tx,1,8,EF,E7,57,4F,4A,31,21,01,
67176273,00000097,false,Tx,1,8,43,CE,7F,CE,05,02,00,00,
67182477,000003A6,false,Tx,1,8,76,02,00,00,00,01,00,00,
67185100,00000097,false,Tx,1,8,01,CF,7F,CE,05,02,00,00,
67186466,00000124,false,Tx,1,8,D4,E8,57,4F,4A,31,21,01,
67192905,00000566,false,Rx,1,8,01,26,FE,21,FB,07,19,00,
67194622,00000097,false,Tx,1,8,89,C0,7F,CE,05,02,00,00,
67197736,0000038B,false,Rx,1,8,FE,01,00,BC,F2,CA,AB,7F,
67206226,00000097,false,Tx,1,8,B6,C1,7F,CE,05,FA,01,00,
67207665,00000124,false,Tx,1,8,26,E9,57,4F,4A,31,21,01,
67207889,000006A3,false,Tx,1,8,37,0C,99,3E,6C,66,03,00,
67210335,000003AF,false,Tx,1,8,98,DC,F7,1F,E0,01,00,00,
67215168,00000097,false,Tx,1,8,E8,C2,7F,CE,05,02,00,00,
67225634,00000097,false,Tx,1,8,E1,C3,7F,CE,05,FE,01,00,
67225962,00000124,false,Tx,1,8,54,EA,57,4F,4A,31,21,01,
67236509,00000097,false,Tx,1,8,CC,C4,7F,CE,05,02,00,00,
67245062,00000097,false,Tx,1,8,58,C5,7F,CE,05,02,00,00,
67246473,00000124,false,Tx,1,8,7F,EB,57,4F,4A,31,21,01,
67247758,00000564,false,Rx,1,8,B9,06,72,71,F9,27,34,00,
67255801,00000097,false,Tx,1,8,EE,C6,7F,CE,05,02,00,00,
67266285,00000097,false,Tx,1,8,64,C7,7F,CE,05,02,00,00,
67266524,00000124,false,Tx,1,8,51,EC,57,4F,4A,31,21,01,
67274813,00000097,false,Tx,1,8,D2,C8,7F,CF,05,02,00,00,
67282138,000003A6,false,Tx,1,8,3A,03,00,00,00,01,00,00,
67284783,00000097,false,Tx,1,8,FC,C9,7F,CF,05,FE,01,00,
67286251,00000124,false,Tx,1,8,E0,ED,57,4F,4A,31,21,01,
67292927,00000566,false,Rx,1,8,F5,27,FE,21,FB,07,19,00,
67295621,00000097,false,Tx,1,8,37,CA,7F,CF,05,02,00,00,
67297758,0000038B,false,Rx,1,8,FE,01,00,BC,F2,CA,AB,7F,
67298046,12DD5472,true,Rx,1,8,00,00,00,00,00,00,00,00,
67298285,00000565,false,Rx,1,8,00,20,00,15,0C,08,80,FF,
67298577,1A555490,true,Rx,1,8,2A,00,00,80,02,00,20,00,
67298858,1A555491,true,Rx,1,8,00,58,A8,02,00,00,00,80,
67305036,00000124,false,Tx,1,8,20,EE,57,4F,4A,31,21,01,
67305260,00000097,false,Tx,1,8,28,CB,7F,CF,05,02,00,00,
67311079,000003AF,false,Tx,1,8,44,DD,F7,1F,E0,01,00,00,
67314824,00000097,false,Tx,1,8,58,CC,7F,CF,05,02,00,00,
67326749,00000124,false,Tx,1,8,CD,EF,57,4F,4A,31,21,01,
67326996,00000097,false,Tx,1,8,18,CD,7F,CF,05,FA,01,00,
67335146,00000097,false,Tx,1,8,17,CE,7F,CF,05,02,00,00,
67345614,00000097,false,Tx,1,8,CC,CF,7F,CF,05,FA,01,00,
67345767,00000124,false,Tx,1,8,42,E0,57,4F,4A,31,21,01,
67356364,00000097,false,Tx,1,8,44,C0,7F,CF,05,FA,01,00,
67365396,00000124,false,Tx,1,8,58,E1,57,4F,4A,31,21,01,
67365539,00000097,false,Tx,1,8,7B,C1,7F,CF,05,02,00,00,
67375285,00000097,false,Tx,1,8,BC,C2,7F,CF,05,02,00,00,
67380909,000003A6,false,Tx,1,8,7A,04,00,00,00,01,00,00,
67386407,00000097,false,Tx,1,8,F2,C3,7F,CE,05,02,00,00,
67386498,00000124,false,Tx,1,8,1B,E2,57,4F,4A,31,21,01,
67392962,00000566,false,Rx,1,8,20,28,FE,21,FB,07,19,00,
67395414,00000097,false,Tx,1,8,CC,C4,7F,CE,05,02,00,00,
67397831,0000038B,false,Rx,1,8,FE,01,00,BC,F2,CA,AB,7F,
67405619,00000124,false,Tx,1,8,52,E3,57,4F,4A,31,21,01,
67405864,00000097,false,Tx,1,8,4B,C5,7F,CE,05,FE,01,00,
67410536,000003AF,false,Tx,1,8,1A,DE,F7,1F,E0,01,00,00,
67416597,00000097,false,Tx,1,8,EE,C6,7F,CE,05,02,00,00,
67424891,00000097,false,Tx,1,8,30,C7,7F,CF,05,02,00,00,
67425078,00000124,false,Tx,1,8,ED,E4,57,4F,4A,31,21,01,
67435441,00000097,false,Tx,1,8,D2,C8,7F,CF,05,02,00,00,
67445947,00000097,false,Tx,1,8,BB,C9,7F,CE,05,02,00,00,
67446210,00000124,false,Tx,1,8,10,E5,57,4F,4A,31,21,01,
67455656,00000097,false,Tx,1,8,70,CA,7F,CE,05,FE,01,00,
67466266,00000097,false,Tx,1,8,6F,CB,7F,CE,05,FE,01,00,
67466507,00000124,false,Tx,1,8,93,E6,57,4F,4A,31,21,01,
67475943,00000097,false,Tx,1,8,0C,CC,7F,CE,05,02,00,00,
67480844,000003A6,false,Tx,1,8,8A,05,00,00,00,01,00,00,
67485739,00000097,false,Tx,1,8,D5,CD,7F,CE,05,02,00,00,
67486050,00000124,false,Tx,1,8,EF,E7,57,4F,4A,31,21,01,
67492972,00000566,false,Rx,1,8,D8,29,FE,21,FB,07,19,00,
67495782,00000097,false,Tx,1,8,43,CE,7F,CE,05,02,00,00,
67497801,0000038B,false,Rx,1,8,FE,01,00,BC,F2,CA,AB,7F,
67506239,00000097,false,Tx,1,8,01,CF,7F,CE,05,02,00,00,
67506403,00000124,false,Tx,1,8,D4,E8,57,4F,4A,31,21,01,
67509891,000003AF,false,Tx,1,8,CD,DF,F7,1F,E0,01,00,00,
67511280,000006A4,false,Tx,1,8,2A,0D,44,3D,40,03,00,00,
67514869,00000097,false,Tx,1,8,89,C0,7F,CE,05,02,00,00,
67525303,00000097,false,Tx,1,8,3C,C1,7F,CE,05,FE,01,00,
67525479,00000124,false,Tx,1,8,26,E9,57,4F,4A,31,21,01,
67535839,00000097,false,Tx,1,8,BC,C2,7F,CF,05,02,00,00,
67545160,00000097,false,Tx,1,8,A6,C3,7F,CF,05,02,00,00,
67545313,00000124,false,Tx,1,8,54,EA,57,4F,4A,31,21,01,
67555848,00000097,false,Tx,1,8,98,C4,7F,CF,05,02,00,00,
67566341,00000097,false,Tx,1,8,0C,C5,7F,CF,05,02,00,00,
67566502,00000124,false,Tx,1,8,7F,EB,57,4F,4A,31,21,01,
67575762,00000097,false,Tx,1,8,BA,C6,7F,CF,05,02,00,00,
67581654,000003A6,false,Tx,1,8,08,06,00,00,00,01,00,00,
67586528,00000097,false,Tx,1,8,23,C7,7F,CF,05,FE,01,00,
67586759,00000124,false,Tx,1,8,51,EC,57,4F,4A,31,21,01,
67592989,00000566,false,Rx,1,8,97,2A,FE,21,FB,07,19,00,
67596073,00000097,false,Tx,1,8,D2,C8,7F,CF,05,02,00,00,
67597829,0000038B,false,Rx,1,8,FE,01,00,BC,F2,CA,AB,7F,
67605350,00000097,false,Tx,1,8,BB,C9,7F,CE,05,02,00,00,
67605500,00000124,false,Tx,1,8,E0,ED,57,4F,4A,31,21,01,
67611317,000003AF,false,Tx,1,8,66,D0,F7,1F,E0,01,00,00,
67614814,00000097,false,Tx,1,8,63,CA,7F,CE,05,02,00,00,
67626802,00000097,false,Tx,1,8,7C,CB,7F,CE,05,02,00,00,
67626923,00000124,false,Tx,1,8,20,EE,57,4F,4A,31,21,01,
67635906,00000097,false,Tx,1,8,0C,CC,7F,CE,05,02,00,00,
67644818,00000124,false,Tx,1,8,E6,EF,97,4F,4A,31,21,01,
67644947,00000097,false,Tx,1,8,D5,CD,7F,CE,05,02,00,00,
67656146,00000097,false,Tx,1,8,43,CE,7F,CE,05,02,00,00,
67665568,00000097,false,Tx,1,8,01,CF,7F,CE,05,02,00,00,
67665805,00000124,false,Tx,1,8,69,E0,97,4F,4A,31,21,01,
67675146,00000097,false,Tx,1,8,89,C0,7F,CE,05,02,00,00,
67681103,000003A6,false,Tx,1,8,E0,07,00,00,00,01,00,00,
67685978,00000097,false,Tx,1,8,2F,C1,7F,CE,05,02,00,00,
67686200,00000124,false,Tx,1,8,73,E1,97,4F,4A,31,21,01,
67693024,00000566,false,Rx,1,8,1A,2B,FE,21,FB,07,19,00,
67695442,00000097,false,Tx,1,8,E8,C2,7F,CE,05,02,00,00,
67697844,0000038B,false,Rx,1,8,FE,01,00,BC,F2,CA,AB,7F,
67705920,00000124,false,Tx,1,8,30,E2,97,4F,4A,31,21,01,
67706080,00000097,false,Tx,1,8,E1,C3,7F,CE,05,FE,01,00,
67707347,000006A3,false,Tx,1,8,E3,0D,99,3E,6C,66,03,00,
67710934,000003AF,false,Tx,1,8,6F,D1,F7,1F,E0,01,00,00,
67716952,00000097,false,Tx,1,8,CC,C4,7F,CE,05,02,00,00,
67725090,00000097,false,Tx,1,8,58,C5,7F,CE,05,02,00,00,
67725243,00000124,false,Tx,1,8,79,E3,97,4F,4A,31,21,01,
67735690,00000097,false,Tx,1,8,EE,C6,7F,CE,05,02,00,00,
67746110,00000097,false,Tx,1,8,64,C7,7F,CE,05,02,00,00,
67746258,00000124,false,Tx,1,8,ED,E4,57,4F,4A,31,21,01,
67755470,00000097,false,Tx,1,8,95,C8,7F,CE,05,FE,01,00,
67765956,00000097,false,Tx,1,8,A8,C9,7F,CE,05,FE,01,00,
67766115,00000124,false,Tx,1,8,10,E5,57,4F,4A,31,21,01,
67776538,00000097,false,Tx,1,8,63,CA,7F,CE,05,02,00,00,
67781278,000003A6,false,Tx,1,8,4F,08,00,00,00,01,00,00,
67786020,00000124,false,Tx,1,8,93,E6,57,4F,4A,31,21,01,
67786222,00000097,false,Tx,1,8,28,CB,7F,CF,05,02,00,00,
67793053,00000566,false,Rx,1,8,DB,2C,FE,21,FB,07,19,00,
67795364,00000097,false,Tx,1,8,58,CC,7F,CF,05,02,00,00,
67797862,0000038B,false,Rx,1,8,FE,01,00,BC,F2,CA,AB,7F,
67798150,12DD5472,true,Rx,1,8,00,00,00,00,00,00,00,00,
67798390,00000565,false,Rx,1,8,00,20,00,15,0C,08,80,FF,
67798630,0000067E,false,Rx,1,8,F4,07,16,00,3B,00,00,02,
67798911,1A555457,true,Rx,1,8,02,30,33,30,30,00,00,00,
67799202,1A555490,true,Rx,1,8,2A,00,00,80,02,00,20,00,
67799484,1A555491,true,Rx,1,8,00,58,A8,02,00,00,00,80,
67807089,00000097,false,Tx,1,8,81,CD,7F,CF,05,02,00,00,
67807254,00000124,false,Tx,1,8,EF,E7,57,4F,4A,31,21,01,
67810883,000003AF,false,Tx,1,8,F2,D2,F7,1F,E0,01,00,00,
67815688,00000097,false,Tx,1,8,43,CE,7F,CE,05,02,00,00,
67824977,00000124,false,Tx,1,8,D4,E8,57,4F,4A,31,21,01,
67825114,00000097,false,Tx,1,8,46,CF,7F,CF,05,FE,01,00,
67836653,00000097,false,Tx,1,8,89,C0,7F,CE,05,02,00,00,
67845952,00000097,false,Tx,1,8,2F,C1,7F,CE,05,02,00,00,
67846113,00000124,false,Tx,1,8,0D,E9,97,4F,4A,31,21,01,
67855347,00000097,false,Tx,1,8,E8,C2,7F,CE,05,02,00,00,
67866982,00000097,false,Tx,1,8,F2,C3,7F,CE,05,02,00,00,
67867166,00000124,false,Tx,1,8,7F,EA,97,4F,4A,31,21,01,
67875797,00000097,false,Tx,1,8,CC,C4,7F,CE,05,02,00,00,
67881370,000003A6,false,Tx,1,8,22,09,00,00,00,01,00,00,
67885974,00000097,false,Tx,1,8,4B,C5,7F,CE,05,FE,01,00,
67886111,00000124,false,Tx,1,8,54,EB,97,4F,4A,31,21,01,
67893060,00000566,false,Rx,1,8,7C,2D,FE,21,FB,07,19,00,
67896986,00000097,false,Tx,1,8,EE,C6,7F,CE,05,02,00,00,
67897891,0000038B,false,Rx,1,8,FE,01,00,BC,F2,CA,AB,7F,
67905980,00000097,false,Tx,1,8,64,C7,7F,CE,05,02,00,00,
67906242,00000124,false,Tx,1,8,7A,EC,97,4F,4A,31,21,01,
67911195,000003AF,false,Tx,1,8,B1,D3,F7,1F,E0,01,00,00,
67916139,00000097,false,Tx,1,8,86,C8,7F,CE,05,02,00,00,
67926639,00000097,false,Tx,1,8,BB,C9,7F,CE,05,02,00,00,
67926995,00000124,false,Tx,1,8,CB,ED,97,4F,4A,31,21,01,
67935141,00000097,false,Tx,1,8,63,CA,7F,CE,05,02,00,00,
67945761,00000124,false,Tx,1,8,20,EE,57,4F,4A,31,21,01,
67946057,00000097,false,Tx,1,8,E5,CB,7F,CE,05,FA,01,00,
67956528,00000097,false,Tx,1,8,58,CC,7F,CF,05,02,00,00,
67965976,00000097,false,Tx,1,8,81,CD,7F,CF,05,02,00,00,
67966267,00000124,false,Tx,1,8,CD,EF,57,4F,4A,31,21,01,
67975690,00000097,false,Tx,1,8,17,CE,7F,CF,05,02,00,00,
67981677,000003A6,false,Tx,1,8,C2,0A,00,00,00,01,00,00,
67986670,00000097,false,Tx,1,8,55,CF,7F,CF,05,02,00,00,
67986932,00000124,false,Tx,1,8,42,E0,57,4F,4A,31,21,01,
67993077,00000566,false,Rx,1,8,E2,2E,FE,21,FB,07,19,00,
67995227,00000097,false,Tx,1,8,89,C0,7F,CE,05,02,00,00,
67997907,0000038B,false,Rx,1,8,FE,01,00,BC,F2,CA,AB,7F,
68006097,00000097,false,Tx,1,8,3C,C1,7F,CE,05,FE,01,00,
68006393,00000124,false,Tx,1,8,58,E1,57,4F,4A,31,21,01,
68010175,000003AF,false,Tx,1,8,C2,D4,F7,1F,E0,01,00,00,
68011665,000006A4,false,Tx,1,8,83,0E,44,3D,40,03,00,00,
68016507,00000097,false,Tx,1,8,E8,C2,7F,CE,05,02,00,00,
68025977,00000124,false,Tx,1,8,1B,E2,57,4F,4A,31,21,01,
68026272,00000097,false,Tx,1,8,F2,C3,7F,CE,05,02,00,00,
68035662,00000097,false,Tx,1,8,CC,C4,7F,CE,05,02,00,00,
68046249,00000124,false,Tx,1,8,52,E3,57,4F,4A,31,21,01,
68046538,00000097,false,Tx,1,8,58,C5,7F,CE,05,02,00,00,
68056014,00000097,false,Tx,1,8,FD,C6,7F,CE,05,FE,01,00,
68066526,00000124,false,Tx,1,8,ED,E4,57,4F,4A,31,21,01,
68066757,00000097,false,Tx,1,8,77,C7,7F,CE,05,FE,01,00,
68076174,00000097,false,Tx,1,8,86,C8,7F,CE,05,02,00,00,
68081213,000003A6,false,Tx,1,8,AE,0B,00,00,00,01,00,00,
68085967,00000097,false,Tx,1,8,BB,C9,7F,CE,05,02,00,00,
68086177,00000124,false,Tx,1,8,10,E5,57,4F,4A,31,21,01,
68093107,00000566,false,Rx,1,8,1F,2F,FE,21,FB,07,19,00,
68095611,00000097,false,Tx,1,8,63,CA,7F,CE,05,02,00,00,
68097928,0000038B,false,Rx,1,8,FE,01,00,BC,F2,CA,AB,7F,
68107243,00000097,false,Tx,1,8,7C,CB,7F,CE,05,02,00,00,
68107465,00000124,false,Tx,1,8,93,E6,57,4F,4A,31,21,01,
68111029,000003AF,false,Tx,1,8,CE,D5,F7,1F,E0,01,00,00,
68115812,00000097,false,Tx,1,8,0C,CC,7F,CE,05,02,00,00,
68125998,00000097,false,Tx,1,8,C6,CD,7F,CE,05,FE,01,00,
68126145,00000124,false,Tx,1,8,EF,E7,57,4F,4A,31,21,01,
68137127,00000097,false,Tx,1,8,43,CE,7F,CE,05,02,00,00,
68145285,00000097,false,Tx,1,8,01,CF,7F,CE,05,02,00,00,
68145579,00000124,false,Tx,1,8,D4,E8,57,4F,4A,31,21,01,
68155427,00000097,false,Tx,1,8,89,C0,7F,CE,05,02,00,00,
68166643,00000097,false,Tx,1,8,3C,C1,7F,CE,05,FE,01,00,
68166945,00000124,false,Tx,1,8,26,E9,57,4F,4A,31,21,01,
68176269,00000097,false,Tx,1,8,E8,C2,7F,CE,05,02,00,00,
68182251,000003A6,false,Tx,1,8,3D,0C,00,00,00,01,00,00,
68186996,00000097,false,Tx,1,8,E1,C3,7F,CE,05,FE,01,00,
68187217,00000124,false,Tx,1,8,54,EA,57,4F,4A,31,21,01,
68193138,00000566,false,Rx,1,8,95,20,FE,21,FB,07,19,00,
68196616,00000097,false,Tx,1,8,CC,C4,7F,CE,05,02,00,00,
68197948,0000038B,false,Rx,1,8,FE,01,00,BC,F2,CA,AB,7F,
68206153,00000097,false,Tx,1,8,58,C5,7F,CE,05,02,00,00,
68206413,00000124,false,Tx,1,8,7F,EB,57,4F,4A,31,21,01,
68206649,000006A3,false,Tx,1,8,B9,0E,99,3E,6C,66,03,00,
68210271,000003AF,false,Tx,1,8,56,D6,F7,1F,E0,01,00,00,
68216257,00000097,false,Tx,1,8,BA,C6,7F,CF,05,02,00,00,
68226743,00000097,false,Tx,1,8,30,C7,7F,CF,05,02,00,00,
68226939,00000124,false,Tx,1,8,51,EC,57,4F,4A,31,21,01,
68236198,00000097,false,Tx,1,8,D2,C8,7F,CF,05,02,00,00,
68245512,00000097,false,Tx,1,8,FC,C9,7F,CF,05,FE,01,00,
68245675,00000124,false,Tx,1,8,E0,ED,57,4F,4A,31,21,01,
68247962,00000564,false,Rx,1,8,DD,07,72,71,F9,27,34,00,
68257372,00000097,false,Tx,1,8,AE,CA,7F,CF,05,FA,01,00,
68265690,00000097,false,Tx,1,8,28,CB,7F,CF,05,02,00,00,
68265872,00000124,false,Tx,1,8,20,EE,57,4F,4A,31,21,01,
68277403,00000097,false,Tx,1,8,58,CC,7F,CF,05,02,00,00,
68282169,000003A6,false,Tx,1,8,CA,0D,00,00,00,01,00,00,
68286888,00000097,false,Tx,1,8,81,CD,7F,CF,05,02,00,00,
68287102,00000124,false,Tx,1,8,CD,EF,57,4F,4A,31,21,01,
68293144,00000566,false,Rx,1,8,CB,21,FE,21,FB,07,19,00,
68296345,00000097,false,Tx,1,8,17,CE,7F,CF,05,02,00,00,
68297975,0000038B,false,Rx,1,8,FE,01,00,BC,F2,CA,AB,7F,
68298263,12DD5472,true,Rx,1,8,00,00,00,00,00,00,00,00,
68298503,00000565,false,Rx,1,8,00,20,00,15,0C,08,80,FF,
68298783,1A555490,true,Rx,1,8,2A,00,00,80,02,00,20,00,
68299066,1A555491,true,Rx,1,8,00,58,A8,02,00,00,00,80,
68305587,00000124,false,Tx,1,8,42,E0,57,4F,4A,31,21,01,
68305756,00000097,false,Tx,1,8,46,CF,7F,CF,05,FE,01,00,
68310517,000003AF,false,Tx,1,8,3A,D7,F7,1F,E0,01,00,00,
68316574,00000097,false,Tx,1,8,10,C0,7F,CE,05,FA,01,00,
68326099,00000097,false,Tx,1,8,2F,C1,7F,CE,05,02,00,00,
68326399,00000124,false,Tx,1,8,58,E1,57,4F,4A,31,21,01,
68335940,00000097,false,Tx,1,8,E8,C2,7F,CE,05,02,00,00,
68346549,00000124,false,Tx,1,8,30,E2,97,4F,4A,31,21,01,
68346830,00000097,false,Tx,1,8,F2,C3,7F,CE,05,02,00,00,
68356267,00000097,false,Tx,1,8,DF,C4,7F,CE,05,FE,01,00,
68366610,00000097,false,Tx,1,8,4B,C5,7F,CE,05,FE,01,00,
68366781,00000124,false,Tx,1,8,79,E3,97,4F,4A,31,21,01,
68376725,00000097,false,Tx,1,8,EE,C6,7F,CE,05,02,00,00,
68382214,000003A6,false,Tx,1,8,9E,0E,00,00,00,01,00,00,
68385557,00000097,false,Tx,1,8,30,C7,7F,CF,05,02,00,00,
68385662,00000124,false,Tx,1,8,C6,E4,97,4F,4A,31,21,01,
68393158,00000566,false,Rx,1,8,4F,22,FE,21,FB,07,19,00,
68396128,00000097,false,Tx,1,8,D2,C8,7F,CF,05,02,00,00,
68397991,0000038B,false,Rx,1,8,FE,01,00,BC,F2,CA,AB,7F,
68407070,00000097,false,Tx,1,8,BB,C9,7F,CE,05,02,00,00,
68407228,00000124,false,Tx,1,8,3B,E5,97,4F,4A,31,21,01,
68410613,000003AF,false,Tx,1,8,E5,D8,F7,1F,E0,01,00,00,
68416196,00000097,false,Tx,1,8,63,CA,7F,CE,05,02,00,00,
68425674,00000097,false,Tx,1,8,6F,CB,7F,CE,05,FE,01,00,
68426002,00000124,false,Tx,1,8,B8,E6,97,4F,4A,31,21,01,
68436437,00000097,false,Tx,1,8,0C,CC,7F,CE,05,02,00,00,
68446108,00000097,false,Tx,1,8,D5,CD,7F,CE,05,02,00,00,
68446365,00000124,false,Tx,1,8,EF,E7,57,4F,4A,31,21,01,
68455979,00000097,false,Tx,1,8,17,CE,7F,CF,05,02,00,00,
68466515,00000124,false,Tx,1,8,D4,E8,57,4F,4A,31,21,01,
68466769,00000097,false,Tx,1,8,CC,CF,7F,CF,05,FA,01,00,
68476371,00000097,false,Tx,1,8,DD,C0,7F,CF,05,02,00,00,
68482611,000003A6,false,Tx,1,8,88,0F,00,00,00,01,00,00,
68486401,00000097,false,Tx,1,8,68,C1,7F,CF,05,FE,01,00,
68486555,00000124,false,Tx,1,8,26,E9,57,4F,4A,31,21,01,
68493185,00000566,false,Rx,1,8,89,23,FE,21,FB,07,19,00,
68496993,00000097,false,Tx,1,8,E8,C2,7F,CE,05,02,00,00,
68498007,0000038B,false,Rx,1,8,FE,01,00,BC,F2,CA,AB,7F,
68506457,00000124,false,Tx,1,8,54,EA,57,4F,4A,31,21,01,
68506725,00000097,false,Tx,1,8,F2,C3,7F,CE,05,02,00,00,
68511495,000003AF,false,Tx,1,8,8F,D9,F7,1F,E0,01,00,00,
68511792,000006A4,false,Tx,1,8,7B,0F,44,3D,40,03,00,00,
68515462,00000097,false,Tx,1,8,CC,C4,7F,CE,05,02,00,00,
68527063,00000124,false,Tx,1,8,7F,EB,57,4F,4A,31,21,01,
68527310,00000097,false,Tx,1,8,58,C5,7F,CE,05,02,00,00,
68535589,00000097,false,Tx,1,8,EE,C6,7F,CE,05,02,00,00,
68546108,00000097,false,Tx,1,8,FD,C7,7F,CE,05,FA,01,00,
68546359,00000124,false,Tx,1,8,51,EC,57,4F,4A,31,21,01,
68557005,00000097,false,Tx,1,8,86,C8,7F,CE,05,02,00,00,
68566471,00000097,false,Tx,1,8,BB,C9,7F,CE,05,02,00,00,
68566750,00000124,false,Tx,1,8,E0,ED,57,4F,4A,31,21,01,
68576031,00000097,false,Tx,1,8,37,CA,7F,CF,05,02,00,00,
68582123,000003A6,false,Tx,1,8,48,00,00,00,00,01,00,00,
68587059,00000124,false,Tx,1,8,20,EE,57,4F,4A,31,21,01,
68587325,00000097,false,Tx,1,8,7C,CB,7F,CE,05,02,00,00,
68593211,00000566,false,Rx,1,8,04,24,FE,21,FB,07,19,00,
68595667,00000097,false,Tx,1,8,0C,CC,7F,CE,05,02,00,00,
68598032,0000038B,false,Rx,1,8,FE,01,00,BC,F2,CA,AB,7F,
68606171,00000097,false,Tx,1,8,C6,CD,7F,CE,05,FE,01,00,
68606368,00000124,false,Tx,1,8,CD,EF,57,4F,4A,31,21,01,
68609981,000003AF,false,Tx,1,8,BA,DA,F7,1F,E0,01,00,00,
68616945,00000097,false,Tx,1,8,43,CE,7F,CE,05,02,00,00,
68625649,00000097,false,Tx,1,8,01,CF,7F,CE,05,02,00,00,
68625758,00000124,false,Tx,1,8,42,E0,57,4F,4A,31,21,01,
68636831,00000097,false,Tx,1,8,89,C0,7F,CE,05,02,00,00,
68646984,00000124,false,Tx,1,8,73,E1,97,4F,4A,31,21,01,
68647114,00000097,false,Tx,1,8,3C,C1,7F,CE,05,FE,01,00,
68655792,00000097,false,Tx,1,8,FB,C2,7F,CE,05,FE,01,00,
68667440,00000097,false,Tx,1,8,E1,C3,7F,CE,05,FE,01,00,
68667713,00000124,false,Tx,1,8,30,E2,97,4F,4A,31,21,01,
68677231,00000097,false,Tx,1,8,CC,C4,7F,CE,05,02,00,00,
68682104,000003A6,false,Tx,1,8,B5,01,00,00,00,01,00,00,
68684702,00000097,false,Tx,1,8,58,C5,7F,CE,05,02,00,00,
68686121,00000124,false,Tx,1,8,79,E3,97,4F,4A,31,21,01,
68693229,00000566,false,Rx,1,8,FA,25,FE,21,FB,07,19,00,
68696540,00000097,false,Tx,1,8,EE,C6,7F,CE,05,02,00,00,
68698059,0000038B,false,Rx,1,8,FE,01,00,BC,F2,CA,AB,7F,
68707083,00000097,false,Tx,1,8,FD,C7,7F,CE,05,FA,01,00,
68707342,00000124,false,Tx,1,8,C6,E4,97,4F,4A,31,21,01,
68707603,000006A3,false,Tx,1,8,63,0F,99,3E,6C,66,03,00,
68711341,000003AF,false,Tx,1,8,86,DB,F7,1F,E0,01,00,00,
68715053,00000097,false,Tx,1,8,86,C8,7F,CE,05,02,00,00,
68726754,00000097,false,Tx,1,8,FC,C9,7F,CF,05,FE,01,00,
68726976,00000124,false,Tx,1,8,3B,E5,97,4F,4A,31,21,01,
68736389,00000097,false,Tx,1,8,37,CA,7F,CF,05,02,00,00,
68745662,00000097,false,Tx,1,8,28,CB,7F,CF,05,02,00,00,
68745863,00000124,false,Tx,1,8,93,E6,57,4F,4A,31,21,01,
68756333,00000097,false,Tx,1,8,58,CC,7F,CF,05,02,00,00,
68765777,00000097,false,Tx,1,8,81,CD,7F,CF,05,02,00,00,
68767146,00000124,false,Tx,1,8,EF,E7,57,4F,4A,31,21,01,
68775295,00000097,false,Tx,1,8,04,CE,7F,CF,05,FE,01,00,
68782622,000003A6,false,Tx,1,8,76,02,00,00,00,01,00,00,
68786320,00000097,false,Tx,1,8,46,CF,7F,CF,05,FE,01,00,
68787598,00000124,false,Tx,1,8,D4,E8,57,4F,4A,31,21,01,
68793244,00000566,false,Rx,1,8,01,26,FE,21,FB,07,19,00,
68796775,00000097,false,Tx,1,8,DD,C0,7F,CF,05,02,00,00,
68798075,0000038B,false,Rx,1,8,FE,01,00,BC,F2,CA,AB,7F,
68798372,12DD5472,true,Rx,1,8,00,00,00,00,00,00,00,00,
68798602,00000565,false,Rx,1,8,00,20,00,15,0C,08,80,FF,
68798841,0000067E,false,Rx,1,8,B6,08,16,00,3B,00,00,02,
68799123,1A555457,true,Rx,1,8,03,4B,59,46,41,00,00,00,
68799405,1A555490,true,Rx,1,8,2A,00,00,80,02,00,20,00,
68799695,1A555491,true,Rx,1,8,00,58,A8,02,00,00,00,80,
68805064,00000097,false,Tx,1,8,7B,C1,7F,CF,05,02,00,00,
68806458,00000124,false,Tx,1,8,26,E9,57,4F,4A,31,21,01,
68810022,000003AF,false,Tx,1,8,98,DC,F7,1F,E0,01,00,00,
68814831,00000097,false,Tx,1,8,BC,C2,7F,CF,05,02,00,00,
68825707,00000097,false,Tx,1,8,F2,C3,7F,CE,05,02,00,00,
68827226,00000124,false,Tx,1,8,54,EA,57,4F,4A,31,21,01,
68835610,00000097,false,Tx,1,8,CC,C4,7F,CE,05,02,00,00,
68845146,00000097,false,Tx,1,8,4B,C5,7F,CE,05,FE,01,00,
68846527,00000124,false,Tx,1,8,7F,EB,57,4F,4A,31,21,01,
68855949,00000097,false,Tx,1,8,EE,C6,7F,CE,05,02,00,00,
68865098,00000097,false,Tx,1,8,64,C7,7F,CE,05,02,00,00,
68866342,00000124,false,Tx,1,8,51,EC,57,4F,4A,31,21,01,
68875112,00000097,false,Tx,1,8,86,C8,7F,CE,05,02,00,00,
68881830,000003A6,false,Tx,1,8,3A,03,00,00,00,01,00,00,
68886468,00000097,false,Tx,1,8,22,C9,7F,CE,05,FA,01,00,
68887736,00000124,false,Tx,1,8,E0,ED,57,4F,4A,31,21,01,
68893264,00000566,false,Rx,1,8,F5,27,FE,21,FB,07,19,00,
68895547,00000097,false,Tx,1,8,63,CA,7F,CE,05,02,00,00,
68898094,0000038B,false,Rx,1,8,FE,01,00,BC,F2,CA,AB,7F,
68905333,00000097,false,Tx,1,8,6F,CB,7F,CE,05,FE,01,00,
68906506,00000124,false,Tx,1,8,20,EE,57,4F,4A,31,21,01,
68910094,000003AF,false,Tx,1,8,44,DD,F7,1F,E0,01,00,00,
68916152,00000097,false,Tx,1,8,0C,CC,7F,CE,05,02,00,00,
68925583,00000097,false,Tx,1,8,D5,CD,7F,CE,05,02,00,00,
68927104,00000124,false,Tx,1,8,CD,EF,57,4F,4A,31,21,01,
68935346,00000097,false,Tx,1,8,43,CE,7F,CE,05,02,00,00,
68945909,00000097,false,Tx,1,8,01,CF,7F,CE,05,02,00,00,
68947254,00000124,false,Tx,1,8,42,E0,57,4F,4A,31,21,01,
68955539,00000097,false,Tx,1,8,10,C0,7F,CE,05,FA,01,00,
68966021,00000097,false,Tx,1,8,3C,C1,7F,CE,05,FE,01,00,
68967400,00000124,false,Tx,1,8,58,E1,57,4F,4A,31,21,01,
68976817,00000097,false,Tx,1,8,E8,C2,7F,CE,05,02,00,00,
68982717,000003A6,false,Tx,1,8,7A,04,00,00,00,01,00,00,
68985166,00000097,false,Tx,1,8,F2,C3,7F,CE,05,02,00,00,
68986497,00000124,false,Tx,1,8,1B,E2,57,4F,4A,31,21,01,
68993298,00000566,false,Rx,1,8,20,28,FE,21,FB,07,19,00,
68995832,00000097,false,Tx,1,8,CC,C4,7F,CE,05,02,00,00,
68998109,0000038B,false,Rx,1,8,FE,01,00,BC,F2,CA,AB,7F,
69006329,00000097,false,Tx,1,8,58,C5,7F,CE,05,02,00,00,
69007660,00000124,false,Tx,1,8,52,E3,57,4F,4A,31,21,01,
69010106,000003AF,false,Tx,1,8,1A,DE,F7,1F,E0,01,00,00,
69011384,000006A4,false,Tx,1,8,3B,00,44,3D,40,03,00,00,
69015003,00000097,false,Tx,1,8,EE,C6,7F,CE,05,02,00,00,
69025442,00000097,false,Tx,1,8,23,C7,7F,CF,05,FE,01,00,
69026742,00000124,false,Tx,1,8,ED,E4,57,4F,4A,31,21,01,
69036016,00000097,false,Tx,1,8,D2,C8,7F,CF,05,02,00,00,
69045343,00000097,false,Tx,1,8,EF,C9,7F,CF,05,02,00,00,
69046684,00000124,false,Tx,1,8,3B,E5,97,4F,4A,31,21,01,
69054875,00000097,false,Tx,1,8,37,CA,7F,CF,05,02,00,00,
69066531,00000097,false,Tx,1,8,B1,CB,7F,CF,05,FA,01,00,
69067987,00000124,false,Tx,1,8,B8,E6,97,4F,4A,31,21,01,
69075155,00000097,false,Tx,1,8,58,CC,7F,CF,05,02,00,00,
69082327,000003A6,false,Tx,1,8,8A,05,00,00,00,01,00,00,
69084876,00000097,false,Tx,1,8,92,CD,7F,CF,05,FE,01,00,
69086276,00000124,false,Tx,1,8,C4,E7,97,4F,4A,31,21,01,
69093309,00000566,false,Rx,1,8,D8,29,FE,21,FB,07,19,00,
69096828,00000097,false,Tx,1,8,17,CE,7F,CF,05,02,00,00,
69098141,0000038B,false,Rx,1,8,FE,01,00,BC,F2,CA,AB,7F,
69105133,00000097,false,Tx,1,8,55,CF,7F,CF,05,02,00,00,
69106590,00000124,false,Tx,1,8,FF,E8,97,4F,4A,31,21,01,
69110143,000003AF,false,Tx,1,8,CD,DF,F7,1F,E0,01,00,00,
69114933,00000097,false,Tx,1,8,DD,C0,7F,CF,05,02,00,00,
69125874,00000097,false,Tx,1,8,2F,C1,7F,CE,05,02,00,00,
69127068,00000124,false,Tx,1,8,0D,E9,97,4F,4A,31,21,01,
69135955,00000097,false,Tx,1,8,FB,C2,7F,CE,05,FE,01,00,
69145923,00000097,false,Tx,1,8,F2,C3,7F,CE,05,02,00,00,
69146015,00000124,false,Tx,1,8,54,EA,57,4F,4A,31,21,01,
69156164,00000097,false,Tx,1,8,CC,C4,7F,CE,05,02,00,00,
69165483,00000097,false,Tx,1,8,0C,C5,7F,CF,05,02,00,00,
69166792,00000124,false,Tx,1,8,7F,EB,57,4F,4A,31,21,01,
69175101,00000097,false,Tx,1,8,BA,C6,7F,CF,05,02,00,00,
69182470,000003A6,false,Tx,1,8,08,06,00,00,00,01,00,00,
69186215,00000097,false,Tx,1,8,30,C7,7F,CF,05,02,00,00,
69186514,00000124,false,Tx,1,8,51,EC,57,4F,4A,31,21,01,
69193326,00000566,false,Rx,1,8,97,2A,FE,21,FB,07,19,00,
69195854,00000097,false,Tx,1,8,D2,C8,7F,CF,05,02,00,00,
69198158,0000038B,false,Rx,1,8,FE,01,00,BC,F2,CA,AB,7F,
69206307,00000124,false,Tx,1,8,E0,ED,57,4F,4A,31,21,01,
69206554,00000097,false,Tx,1,8,FC,C9,7F,CF,05,FE,01,00,
69207834,000006A3,false,Tx,1,8,56,00,99,3E,6C,66,03,00,
69210472,000003AF,false,Tx,1,8,66,D0,F7,1F,E0,01,00,00,
69216378,00000097,false,Tx,1,8,37,CA,7F,CF,05,02,00,00,
69225883,00000097,false,Tx,1,8,B1,CB,7F,CF,05,FA,01,00,
69226194,00000124,false,Tx,1,8,20,EE,57,4F,4A,31,21,01,
69235648,00000097,false,Tx,1,8,58,CC,7F,CF,05,02,00,00,
69246209,00000124,false,Tx,1,8,CD,EF,57,4F,4A,31,21,01,
69246456,00000097,false,Tx,1,8,D5,CD,7F,CE,05,02,00,00,
69248175,00000564,false,Rx,1,8,1C,88,72,71,F9,27,34,00,
69255899,00000097,false,Tx,1,8,43,CE,7F,CE,05,02,00,00,
69266512,00000097,false,Tx,1,8,46,CF,7F,CF,05,FE,01,00,
69266764,00000124,false,Tx,1,8,42,E0,57,4F,4A,31,21,01,
69276211,00000097,false,Tx,1,8,44,C0,7F,CF,05,FA,01,00,
69282041,000003A6,false,Tx,1,8,E0,07,00,00,00,01,00,00,
69285614,00000097,false,Tx,1,8,7B,C1,7F,CF,05,02,00,00,
69285775,00000124,false,Tx,1,8,58,E1,57,4F,4A,31,21,01,
69293355,00000566,false,Rx,1,8,1A,2B,FE,21,FB,07,19,00,
69295075,00000097,false,Tx,1,8,BC,C2,7F,CF,05,02,00,00,
69298177,0000038B,false,Rx,1,8,FE,01,00,BC,F2,CA,AB,7F,
69298474,12DD5472,true,Rx,1,8,00,00,00,00,00,00,00,00,
69298704,00000565,false,Rx,1,8,00,20,00,15,0C,08,80,FF,
69298996,1A555490,true,Rx,1,8,0A,00,00,80,02,00,20,00,
69299276,1A555491,true,Rx,1,8,00,58,A8,02,00,00,00,80,
69306648,00000124,false,Tx,1,8,1B,E2,57,4F,4A,31,21,01,
69306808,00000097,false,Tx,1,8,F2,C3,7F,CE,05,02,00,00,
69310398,000003AF,false,Tx,1,8,6F,D1,F7,1F,E0,01,00,00,
69315147,00000097,false,Tx,1,8,CC,C4,7F,CE,05,02,00,00,
69326807,00000124,false,Tx,1,8,52,E3,57,4F,4A,31,21,01,
69327036,00000097,false,Tx,1,8,4B,C5,7F,CE,05,FE,01,00,
69336293,00000097,false,Tx,1,8,BA,C6,7F,CF,05,02,00,00,
69345618,00000124,false,Tx,1,8,ED,E4,57,4F,4A,31,21,01,
69345777,00000097,false,Tx,1,8,30,C7,7F,CF,05,02,00,00,
69356236,00000097,false,Tx,1,8,C1,C8,7F,CF,05,FE,01,00,
69366664,00000124,false,Tx,1,8,10,E5,57,4F,4A,31,21,01,
69366842,00000097,false,Tx,1,8,76,C9,7F,CF,05,FA,01,00,
69375588,00000097,false,Tx,1,8,AE,CA,7F,CF,05,FA,01,00,
69382316,000003A6,false,Tx,1,8,4F,08,00,00,00,01,00,00,
69385711,00000097,false,Tx,1,8,3B,CB,7F,CF,05,FE,01,00,
69385806,00000124,false,Tx,1,8,93,E6,57,4F,4A,31,21,01,
69393379,00000566,false,Rx,1,8,DB,2C,FE,21,FB,07,19,00,
69396789,00000097,false,Tx,1,8,0C,CC,7F,CE,05,02,00,00,
69398199,0000038B,false,Rx,1,8,FE,01,00,BC,F2,CA,AB,7F,
69405659,00000097,false,Tx,1,8,D5,CD,7F,CE,05,02,00,00,
69405767,00000124,false,Tx,1,8,EF,E7,57,4F,4A,31,21,01,
69410249,000003AF,false,Tx,1,8,F2,D2,F7,1F,E0,01,00,00,
69415758,00000097,false,Tx,1,8,17,CE,7F,CF,05,02,00,00,
69427022,00000097,false,Tx,1,8,55,CF,7F,CF,05,02,00,00,
69427331,00000124,false,Tx,1,8,D4,E8,57,4F,4A,31,21,01,
69435748,00000097,false,Tx,1,8,44,C0,7F,CF,05,FA,01,00,
69446215,00000097,false,Tx,1,8,E2,C1,7F,CF,05,FA,01,00,
69446496,00000124,false,Tx,1,8,26,E9,57,4F,4A,31,21,01,
69457027,00000097,false,Tx,1,8,E8,C2,7F,CE,05,02,00,00,
69465322,00000097,false,Tx,1,8,F2,C3,7F,CE,05,02,00,00,
69465577,00000124,false,Tx,1,8,54,EA,57,4F,4A,31,21,01,
69476165,00000097,false,Tx,1,8,CC,C4,7F,CE,05,02,00,00,
69482255,000003A6,false,Tx,1,8,22,09,00,00,00,01,00,00,
69487135,00000097,false,Tx,1,8,58,C5,7F,CE,05,02,00,00,
69487339,00000124,false,Tx,1,8,7F,EB,57,4F,4A,31,21,01,
69493389,00000566,false,Rx,1,8,7C,2D,FE,21,FB,07,19,00,
69495470,00000097,false,Tx,1,8,EE,C6,7F,CE,05,02,00,00,
69498220,0000038B,false,Rx,1,8,FE,01,00,BC,F2,CA,AB,7F,
69506016,00000124,false,Tx,1,8,51,EC,57,4F,4A,31,21,01,
69506292,00000097,false,Tx,1,8,77,C7,7F,CE,05,FE,01,00,
69511118,000003AF,false,Tx,1,8,B1,D3,F7,1F,E0,01,00,00,
69512580,000006A4,false,Tx,1,8,6B,01,44,3D,40,03,00,00,
69516199,00000097,false,Tx,1,8,86,C8,7F,CE,05,02,00,00,
69525653,00000124,false,Tx,1,8,E0,ED,57,4F,4A,31,21,01,
69525933,00000097,false,Tx,1,8,BB,C9,7F,CE,05,02,00,00,
69535233,00000097,false,Tx,1,8,63,CA,7F,CE,05,02,00,00,
69547171,00000097,false,Tx,1,8,7C,CB,7F,CE,05,02,00,00,
69547481,00000124,false,Tx,1,8,20,EE,57,4F,4A,31,21,01,
69555903,00000097,false,Tx,1,8,0C,CC,7F,CE,05,02,00,00,
69565333,00000097,false,Tx,1,8,C6,CD,7F,CE,05,FE,01,00,
69565591,00000124,false,Tx,1,8,CD,EF,57,4F,4A,31,21,01,
69576257,00000097,false,Tx,1,8,43,CE,7F,CE,05,02,00,00,
69582279,000003A6,false,Tx,1,8,C2,0A,00,00,00,01,00,00,
69585962,00000097,false,Tx,1,8,01,CF,7F,CE,05,02,00,00,
69586198,00000124,false,Tx,1,8,42,E0,57,4F,4A,31,21,01,
69593404,00000566,false,Rx,1,8,E2,2E,FE,21,FB,07,19,00,
69595383,00000097,false,Tx,1,8,89,C0,7F,CE,05,02,00,00,
69598236,0000038B,false,Rx,1,8,FE,01,00,BC,F2,CA,AB,7F,
69607012,00000097,false,Tx,1,8,2F,C1,7F,CE,05,02,00,00,
69607179,00000124,false,Tx,1,8,58,E1,57,4F,4A,31,21,01,
69610684,000003AF,false,Tx,1,8,C2,D4,F7,1F,E0,01,00,00,
69615459,00000097,false,Tx,1,8,71,C2,7F,CE,05,FA,01,00,
69626250,00000097,false,Tx,1,8,E1,C3,7F,CE,05,FE,01,00,
69626366,00000124,false,Tx,1,8,1B,E2,57,4F,4A,31,21,01,
69636257,00000097,false,Tx,1,8,DF,C4,7F,CE,05,FE,01,00,
69646267,00000097,false,Tx,1,8,58,C5,7F,CE,05,02,00,00,
69646358,00000124,false,Tx,1,8,52,E3,57,4F,4A,31,21,01,
69655340,00000097,false,Tx,1,8,EE,C6,7F,CE,05,02,00,00,
69667065,00000097,false,Tx,1,8,FD,C7,7F,CE,05,FA,01,00,
69667278,00000124,false,Tx,1,8,ED,E4,57,4F,4A,31,21,01,
69675322,00000097,false,Tx,1,8,86,C8,7F,CE,05,02,00,00,
69682528,000003A6,false,Tx,1,8,AE,0B,00,00,00,01,00,00,
69686330,00000097,false,Tx,1,8,A8,C9,7F,CE,05,FE,01,00,
69686616,00000124,false,Tx,1,8,10,E5,57,4F,4A,31,21,01,
69693434,00000566,false,Rx,1,8,1F,2F,FE,21,FB,07,19,00,
69697063,00000097,false,Tx,1,8,63,CA,7F,CE,05,02,00,00,
69698265,0000038B,false,Rx,1,8,FE,01,00,BC,F2,CA,AB,7F,
69705333,00000097,false,Tx,1,8,E5,CB,7F,CE,05,FA,01,00,
69705594,00000124,false,Tx,1,8,93,E6,57,4F,4A,31,21,01,
69707032,000006A3,false,Tx,1,8,DD,01,99,3E,6C,66,03,00,
69710740,000003AF,false,Tx,1,8,CE,D5,F7,1F,E0,01,00,00,
69715620,00000097,false,Tx,1,8,0C,CC,7F,CE,05,02,00,00,
69727289,00000097,false,Tx,1,8,D5,CD,7F,CE,05,02,00,00,
69727538,00000124,false,Tx,1,8,EF,E7,57,4F,4A,31,21,01,
69735874,00000097,false,Tx,1,8,DA,CE,7F,CE,05,FA,01,00,
69745374,00000097,false,Tx,1,8,12,CF,7F,CE,05,FE,01,00,
69745620,00000124,false,Tx,1,8,D4,E8,57,4F,4A,31,21,01,
69756367,00000097,false,Tx,1,8,89,C0,7F,CE,05,02,00,00,
69765934,00000097,false,Tx,1,8,B6,C1,7F,CE,05,FA,01,00,
69766210,00000124,false,Tx,1,8,26,E9,57,4F,4A,31,21,01,
69775718,00000097,false,Tx,1,8,E8,C2,7F,CE,05,02,00,00,
69781620,000003A6,false,Tx,1,8,3D,0C,00,00,00,01,00,00,
69786353,00000097,false,Tx,1,8,F2,C3,7F,CE,05,02,00,00,
69786492,00000124,false,Tx,1,8,54,EA,57,4F,4A,31,21,01,
69793463,00000566,false,Rx,1,8,95,20,FE,21,FB,07,19,00,
69795586,00000097,false,Tx,1,8,CC,C4,7F,CE,05,02,00,00,
69798283,0000038B,false,Rx,1,8,FE,01,00,BC,F2,CA,AB,7F,
69798569,12DD5472,true,Rx,1,8,00,00,00,00,00,00,00,00,
69798810,00000565,false,Rx,1,8,00,20,00,15,0C,08,80,FF,
69799051,0000067E,false,Rx,1,8,D2,09,16,00,3B,00,00,02,
69799321,1A555457,true,Rx,1,8,00,35,51,45,36,00,00,00,
69799613,1A555490,true,Rx,1,8,0A,00,00,80,02,00,20,00,
69799893,1A555491,true,Rx,1,8,00,58,A8,02,00,00,00,80,
69805965,00000097,false,Tx,1,8,1F,C5,7F,CF,05,FE,01,00,
69806121,00000124,false,Tx,1,8,7F,EB,57,4F,4A,31,21,01,
69810792,000003AF,false,Tx,1,8,56,D6,F7,1F,E0,01,00,00,
69816676,00000097,false,Tx,1,8,BA,C6,7F,CF,05,02,00,00,
69826085,00000097,false,Tx,1,8,23,C7,7F,CF,05,FE,01,00,
69826352,00000124,false,Tx,1,8,51,EC,57,4F,4A,31,21,01,
69835809,00000097,false,Tx,1,8,D2,C8,7F,CF,05,02,00,00,
69846360,00000097,false,Tx,1,8,EF,C9,7F,CF,05,02,00,00,
69846647,00000124,false,Tx,1,8,E0,ED,57,4F,4A,31,21,01,
69856062,00000097,false,Tx,1,8,24,CA,7F,CF,05,FE,01,00,
69866533,00000097,false,Tx,1,8,3B,CB,7F,CF,05,FE,01,00,
69866791,00000124,false,Tx,1,8,20,EE,57,4F,4A,31,21,01,
69876686,00000097,false,Tx,1,8,58,CC,7F,CF,05,02,00,00,
69882360,000003A6,false,Tx,1,8,CA,0D,00,00,00,01,00,00,
69885921,00000124,false,Tx,1,8,CD,EF,57,4F,4A,31,21,01,
69886039,00000097,false,Tx,1,8,81,CD,7F,CF,05,02,00,00,
69893465,00000566,false,Rx,1,8,CB,21,FE,21,FB,07,19,00,
69895864,00000097,false,Tx,1,8,17,CE,7F,CF,05,02,00,00,
69898296,0000038B,false,Rx,1,8,FE,01,00,BC,F2,CA,AB,7F,
69907085,00000097,false,Tx,1,8,55,CF,7F,CF,05,02,00,00,
69907318,00000124,false,Tx,1,8,42,E0,57,4F,4A,31,21,01,
69911003,000003AF,false,Tx,1,8,3A,D7,F7,1F,E0,01,00,00,
69915901,00000097,false,Tx,1,8,CE,C0,7F,CF,05,FE,01,00,
69926408,00000097,false,Tx,1,8,68,C1,7F,CF,05,FE,01,00,
69926680,00000124,false,Tx,1,8,58,E1,57,4F,4A,31,21,01,
69937283,00000097,false,Tx,1,8,E8,C2,7F,CE,05,02,00,00,
69945586,00000097,false,Tx,1,8,E1,C3,7F,CE,05,FE,01,00,
69945828,00000124,false,Tx,1,8,1B,E2,57,4F,4A,31,21,01,
69956298,00000097,false,Tx,1,8,CC,C4,7F,CE,05,02,00,00,
69967023,00000097,false,Tx,1,8,C1,C5,7F,CE,05,FA,01,00,
69967324,00000124,false,Tx,1,8,52,E3,57,4F,4A,31,21,01,
69975643,00000097,false,Tx,1,8,FD,C6,7F,CE,05,FE,01,00,
69981698,000003A6,false,Tx,1,8,9E,0E,00,00,00,01,00,00,
69986513,00000097,false,Tx,1,8,23,C7,7F,CF,05,FE,01,00,
69986756,00000124,false,Tx,1,8,ED,E4,57,4F,4A,31,21,01,
69993482,00000566,false,Rx,1,8,4F,22,FE,21,FB,07,19,00,
69997365,00000097,false,Tx,1,8,D2,C8,7F,CF,05,02,00,00,
69998324,0000038B,false,Rx,1,8,FE,01,00,BC,F2,CA,AB,7F,
70005793,00000124,false,Tx,1,8,10,E5,57,4F,4A,31,21,01,
70006110,00000097,false,Tx,1,8,FC,C9,7F,CF,05,FE,01,00,
70010935,000003AF,false,Tx,1,8,E5,D8,F7,1F,E0,01,00,00,
70012395,000006A4,false,Tx,1,8,CC,02,44,3D,40,03,00,00,
70016158,00000097,false,Tx,1,8,37,CA,7F,CF,05,02,00,00,
70026755,00000124,false,Tx,1,8,93,E6,57,4F,4A,31,21,01,
70027097,00000097,false,Tx,1,8,28,CB,7F,CF,05,02,00,00,
70036510,00000097,false,Tx,1,8,4B,CC,7F,CF,05,FE,01,00,
70046018,00000097,false,Tx,1,8,18,CD,7F,CF,05,FA,01,00,
70046303,00000124,false,Tx,1,8,C4,E7,97,4F,4A,31,21,01,
70056830,00000097,false,Tx,1,8,17,CE,7F,CF,05,02,00,00,
70066237,00000097,false,Tx,1,8,46,CF,7F,CF,05,FE,01,00,
70066492,00000124,false,Tx,1,8,FF,E8,97,4F,4A,31,21,01,
70075801,00000097,false,Tx,1,8,DD,C0,7F,CF,05,02,00,00,
70081751,000003A6,false,Tx,1,8,88,0F,00,00,00,01,00,00,
70086614,00000097,false,Tx,1,8,7B,C1,7F,CF,05,02,00,00,
70086869,00000124,false,Tx,1,8,0D,E9,97,4F,4A,31,21,01,
70093508,00000566,false,Rx,1,8,89,23,FE,21,FB,07,19,00,
70096210,00000097,false,Tx,1,8,AF,C2,7F,CF,05,FE,01,00,
70098339,0000038B,false,Rx,1,8,FE,01,00,BC,F2,CA,AB,7F,
70105714,00000124,false,Tx,1,8,7F,EA,97,4F,4A,31,21,01,
70105986,00000097,false,Tx,1,8,B5,C3,7F,CF,05,FE,01,00,
70110761,000003AF,false,Tx,1,8,8F,D9,F7,1F,E0,01,00,00,
70116568,00000097,false,Tx,1,8,CC,C4,7F,CE,05,02,00,00,
70126529,00000097,false,Tx,1,8,4B,C5,7F,CE,05,FE,01,00,
70126620,00000124,false,Tx,1,8,54,EB,97,4F,4A,31,21,01,
70137838,00000097,false,Tx,1,8,EE,C6,7F,CE,05,02,00,00,
70146767,00000124,false,Tx,1,8,7A,EC,97,4F,4A,31,21,01,
70146887,00000097,false,Tx,1,8,23,C7,7F,CF,05,FE,01,00,
70155655,00000097,false,Tx,1,8,C1,C8,7F,CF,05,FE,01,00,
70167288,00000097,false,Tx,1,8,EF,C9,7F,CF,05,02,00,00,
70167467,00000124,false,Tx,1,8,CB,ED,97,4F,4A,31,21,01,
70176719,00000097,false,Tx,1,8,37,CA,7F,CF,05,02,00,00,
70181605,000003A6,false,Tx,1,8,48,00,00,00,00,01,00,00,
70186368,00000097,false,Tx,1,8,3B,CB,7F,CF,05,FE,01,00,
70186528,00000124,false,Tx,1,8,0B,EE,97,4F,4A,31,21,01,
70193544,00000566,false,Rx,1,8,04,24,FE,21,FB,07,19,00,
70195884,00000097,false,Tx,1,8,58,CC,7F,CF,05,02,00,00,
70198366,0000038B,false,Rx,1,8,FE,01,00,BC,F2,CA,AB,7F,
70207500,00000097,false,Tx,1,8,18,CD,7F,CF,05,FA,01,00,
70207654,00000124,false,Tx,1,8,E6,EF,97,4F,4A,31,21,01,
70208914,000006A3,false,Tx,1,8,3E,02,99,3E,6C,66,03,00,
70211354,000003AF,false,Tx,1,8,BA,DA,F7,1F,E0,01,00,00,
70216158,00000097,false,Tx,1,8,04,CE,7F,CF,05,FE,01,00,
70226591,00000097,false,Tx,1,8,46,CF,7F,CF,05,FE,01,00,
70226746,00000124,false,Tx,1,8,69,E0,97,4F,4A,31,21,01,
70237192,00000097,false,Tx,1,8,DD,C0,7F,CF,05,02,00,00,
70246706,00000097,false,Tx,1,8,68,C1,7F,CF,05,FE,01,00,
70247031,00000124,false,Tx,1,8,58,E1,57,4F,4A,31,21,01,
70248383,00000564,false,Rx,1,8,78,89,72,71,F9,27,34,00,
70256419,00000097,false,Tx,1,8,25,C2,7F,CF,05,FA,01,00,
70267180,00000124,false,Tx,1,8,1B,E2,57,4F,4A,31,21,01,
70267508,00000097,false,Tx,1,8,6B,C3,7F,CE,05,FA,01,00,
70275842,00000097,false,Tx,1,8,DF,C4,7F,CE,05,FE,01,00,
70281814,000003A6,false,Tx,1,8,B5,01,00,00,00,01,00,00,
70286617,00000097,false,Tx,1,8,1F,C5,7F,CF,05,FE,01,00,
70286840,00000124,false,Tx,1,8,52,E3,57,4F,4A,31,21,01,
70293554,00000566,false,Rx,1,8,FA,25,FE,21,FB,07,19,00,
70297307,00000097,false,Tx,1,8,BA,C6,7F,CF,05,02,00,00,
70298386,0000038B,false,Rx,1,8,FE,01,00,BC,F2,CA,AB,7F,
70298683,12DD5472,true,Rx,1,8,00,00,00,00,00,00,00,00,
70298912,00000565,false,Rx,1,8,00,20,00,15,0C,08,80,FF,
70299205,1A555490,true,Rx,1,8,0A,00,00,80,02,00,20,00,
70299486,1A555491,true,Rx,1,8,00,58,A8,02,00,00,00,80,
70306736,00000124,false,Tx,1,8,ED,E4,57,4F,4A,31,21,01,
70306950,00000097,false,Tx,1,8,23,C7,7F,CF,05,FE,01,00,
70311698,000003AF,false,Tx,1,8,86,DB,F7,1F,E0,01,00,00,
70316482,00000097,false,Tx,1,8,D2,C8,7F,CF,05,02,00,00,
70327068,00000097,false,Tx,1,8,22,C9,7F,CE,05,FA,01,00,
70327323,00000124,false,Tx,1,8,10,E5,57,4F,4A,31,21,01,
70336764,00000097,false,Tx,1,8,70,CA,7F,CE,05,FE,01,00,
70346171,00000097,false,Tx,1,8,3B,CB,7F,CF,05,FE,01,00,
70346447,00000124,false,Tx,1,8,93,E6,57,4F,4A,31,21,01,
70356907,00000097,false,Tx,1,8,C1,CC,7F,CF,05,FA,01,00,
70366202,00000097,false,Tx,1,8,92,CD,7F,CF,05,FE,01,00,
70366386,00000124,false,Tx,1,8,EF,E7,57,4F,4A,31,21,01,
70376213,00000097,false,Tx,1,8,17,CE,7F,CF,05,02,00,00,
70382884,000003A6,false,Tx,1,8,76,02,00,00,00,01,00,00,
70387712,00000097,false,Tx,1,8,01,CF,7F,CE,05,02,00,00,
70387853,00000124,false,Tx,1,8,D4,E8,57,4F,4A,31,21,01,
70393578,00000566,false,Rx,1,8,01,26,FE,21,FB,07,19,00,
70396503,00000097,false,Tx,1,8,9A,C0,7F,CE,05,FE,01,00,
70398400,0000038B,false,Rx,1,8,FE,01,00,BC,F2,CA,AB,7F,
70406680,00000097,false,Tx,1,8,3C,C1,7F,CE,05,FE,01,00,
70406934,00000124,false,Tx,1,8,26,E9,57,4F,4A,31,21,01,
70411659,000003AF,false,Tx,1,8,98,DC,F7,1F,E0,01,00,00,
70417883,00000097,false,Tx,1,8,E8,C2,7F,CE,05,02,00,00,
70426230,00000097,false,Tx,1,8,E1,C3,7F,CE,05,FE,01,00,
70426539,00000124,false,Tx,1,8,54,EA,57,4F,4A,31,21,01,
70435832,00000097,false,Tx,1,8,98,C4,7F,CF,05,02,00,00,
70447503,00000097,false,Tx,1,8,0C,C5,7F,CF,05,02,00,00,
70447776,00000124,false,Tx,1,8,54,EB,97,4F,4A,31,21,01,
70456113,00000097,false,Tx,1,8,A9,C6,7F,CF,05,FE,01,00,
70467791,00000097,false,Tx,1,8,23,C7,7F,CF,05,FE,01,00,
70468024,00000124,false,Tx,1,8,7A,EC,97,4F,4A,31,21,01,
70477366,00000097,false,Tx,1,8,D2,C8,7F,CF,05,02,00,00,
70482256,000003A6,false,Tx,1,8,3A,03,00,00,00,01,00,00,
70486008,00000097,false,Tx,1,8,FC,C9,7F,CF,05,FE,01,00,
70486267,00000124,false,Tx,1,8,CB,ED,97,4F,4A,31,21,01,
70493602,00000566,false,Rx,1,8,F5,27,FE,21,FB,07,19,00,
70496716,00000097,false,Tx,1,8,37,CA,7F,CF,05,02,00,00,
70498422,0000038B,false,Rx,1,8,FE,01,00,BC,F2,CA,AB,7F,
70507249,00000097,false,Tx,1,8,28,CB,7F,CF,05,02,00,00,
70507512,00000124,false,Tx,1,8,0B,EE,97,4F,4A,31,21,01,
70511301,000003AF,false,Tx,1,8,44,DD,F7,1F,E0,01,00,00,
70512740,000006A4,false,Tx,1,8,7E,03,44,3D,3F,03,00,00,
70516454,00000097,false,Tx,1,8,4B,CC,7F,CF,05,FE,01,00,
70525945,00000097,false,Tx,1,8,92,CD,7F,CF,05,FE,01,00,
70526206,00000124,false,Tx,1,8,E6,EF,97,4F,4A,31,21,01,
70537880,00000097,false,Tx,1,8,17,CE,7F,CF,05,02,00,00,
70544987,00000097,false,Tx,1,8,46,CF,7F,CF,05,FE,01,00,
70546430,00000124,false,Tx,1,8,42,E0,57,4F,4A,31,21,01,
70557017,00000097,false,Tx,1,8,CE,C0,7F,CF,05,FE,01,00,
70566626,00000097,false,Tx,1,8,7B,C1,7F,CF,05,02,00,00,
70568041,00000124,false,Tx,1,8,58,E1,57,4F,4A,31,21,01,
70576339,00000097,false,Tx,1,8,AF,C2,7F,CF,05,FE,01,00,
70582457,000003A6,false,Tx,1,8,7A,04,00,00,00,01,00,00,
70586270,00000097,false,Tx,1,8,B5,C3,7F,CF,05,FE,01,00,
70586587,00000124,false,Tx,1,8,1B,E2,57,4F,4A,31,21,01,
70593631,00000566,false,Rx,1,8,20,28,FE,21,FB,07,19,00,
70595994,00000097,false,Tx,1,8,98,C4,7F,CF,05,02,00,00,
70598441,0000038B,false,Rx,1,8,FE,01,00,BC,F2,CA,AB,7F,
70605358,00000097,false,Tx,1,8,1F,C5,7F,CF,05,FE,01,00,
70606747,00000124,false,Tx,1,8,52,E3,57,4F,4A,31,21,01,
70611456,000003AF,false,Tx,1,8,1A,DE,F7,1F,E0,01,00,00,
70615120,00000097,false,Tx,1,8,BA,C6,7F,CF,05,02,00,00,
70626035,00000097,false,Tx,1,8,64,C7,7F,CE,05,02,00,00,
70627238,00000124,false,Tx,1,8,ED,E4,57,4F,4A,31,21,01,
70636119,00000097,false,Tx,1,8,86,C8,7F,CE,05,02,00,00,
70646045,00000097,false,Tx,1,8,BB,C9,7F,CE,05,02,00,00,
70646170,00000124,false,Tx,1,8,3B,E5,97,4F,4A,31,21,01,
70656371,00000097,false,Tx,1,8,63,CA,7F,CE,05,02,00,00,
70665759,00000097,false,Tx,1,8,6F,CB,7F,CE,05,FE,01,00,
70667054,00000124,false,Tx,1,8,B8,E6,97,4F,4A,31,21,01,
70675058,00000097,false,Tx,1,8,58,CC,7F,CF,05,02,00,00,
70682093,000003A6,false,Tx,1,8,8A,05,00,00,00,01,00,00,
70686916,00000097,false,Tx,1,8,D5,CD,7F,CE,05,02,00,00,
70687189,00000124,false,Tx,1,8,C4,E7,97,4F,4A,31,21,01,
70693639,00000566,false,Rx,1,8,D8,29,FE,21,FB,07,19,00,
70695545,00000097,false,Tx,1,8,50,CE,7F,CE,05,FE,01,00,
70698460,0000038B,false,Rx,1,8,FE,01,00,BC,F2,CA,AB,7F,
70706102,00000097,false,Tx,1,8,12,CF,7F,CE,05,FE,01,00,
70707527,00000124,false,Tx,1,8,FF,E8,97,4F,4A,31,21,01,
70707812,000006A3,false,Tx,1,8,17,03,99,3E,6C,66,03,00,
70710347,000003AF,false,Tx,1,8,CD,DF,F7,1F,E0,01,00,00,
70716303,00000097,false,Tx,1,8,89,C0,7F,CE,05,02,00,00,
70725754,00000097,false,Tx,1,8,68,C1,7F,CF,05,FE,01,00,
70727173,00000124,false,Tx,1,8,0D,E9,97,4F,4A,31,21,01,
70735424,00000097,false,Tx,1,8,BC,C2,7F,CF,05,02,00,00,
70747062,00000097,false,Tx,1,8,A6,C3,7F,CF,05,02,00,00,
70747314,00000124,false,Tx,1,8,7F,EA,97,4F,4A,31,21,01,
70755795,00000097,false,Tx,1,8,DF,C4,7F,CE,05,FE,01,00,
70766363,00000097,false,Tx,1,8,1F,C5,7F,CF,05,FE,01,00,
70767825,00000124,false,Tx,1,8,54,EB,97,4F,4A,31,21,01,
70776124,00000097,false,Tx,1,8,BA,C6,7F,CF,05,02,00,00,
70783114,000003A6,false,Tx,1,8,08,06,00,00,00,01,00,00,
70785668,00000097,false,Tx,1,8,77,C7,7F,CE,05,FE,01,00,
70787019,00000124,false,Tx,1,8,7A,EC,97,4F,4A,31,21,01,
70793650,00000566,false,Rx,1,8,97,2A,FE,21,FB,07,19,00,
70795163,00000097,false,Tx,1,8,D2,C8,7F,CF,05,02,00,00,
70798482,0000038B,false,Rx,1,8,FE,01,00,BC,F2,CA,AB,7F,
70798779,12DD5472,true,Rx,1,8,00,00,00,00,00,00,00,00,
70799019,00000565,false,Rx,1,8,00,20,00,15,0C,08,80,FF,
70799260,0000067E,false,Rx,1,8,7E,0A,16,00,3B,00,00,02,
70799530,1A555457,true,Rx,1,8,01,38,32,41,4B,00,00,00,
70799820,1A555490,true,Rx,1,8,0A,00,00,80,02,00,20,00,
70800103,1A555491,true,Rx,1,8,00,58,A8,02,00,00,00,80,
70807028,00000097,false,Tx,1,8,22,C9,7F,CE,05,FA,01,00,
70807219,00000124,false,Tx,1,8,CB,ED,97,4F,4A,31,21,01,
70810738,000003AF,false,Tx,1,8,66,D0,F7,1F,E0,01,00,00,
70815476,00000097,false,Tx,1,8,70,CA,7F,CE,05,FE,01,00,
70825953,00000097,false,Tx,1,8,3B,CB,7F,CF,05,FE,01,00,
70827236,00000124,false,Tx,1,8,0B,EE,97,4F,4A,31,21,01,
70836546,00000097,false,Tx,1,8,0C,CC,7F,CE,05,02,00,00,
70845939,00000097,false,Tx,1,8,C6,CD,7F,CE,05,FE,01,00,
70847219,00000124,false,Tx,1,8,CD,EF,57,4F,4A,31,21,01,
70855376,00000097,false,Tx,1,8,50,CE,7F,CE,05,FE,01,00,
70867038,00000097,false,Tx,1,8,01,CF,7F,CE,05,02,00,00,
70868258,00000124,false,Tx,1,8,42,E0,57,4F,4A,31,21,01,
70875867,00000097,false,Tx,1,8,9A,C0,7F,CE,05,FE,01,00,
70882542,000003A6,false,Tx,1,8,E0,07,00,00,00,01,00,00,
70886123,00000097,false,Tx,1,8,68,C1,7F,CF,05,FE,01,00,
70887440,00000124,false,Tx,1,8,58,E1,57,4F,4A,31,21,01,
70893676,00000566,false,Rx,1,8,1A,2B,FE,21,FB,07,19,00,
70896349,00000097,false,Tx,1,8,BC,C2,7F,CF,05,02,00,00,
70898508,0000038B,false,Rx,1,8,FE,01,00,BC,F2,CA,AB,7F,
70906150,00000097,false,Tx,1,8,B5,C3,7F,CF,05,FE,01,00,
70907355,00000124,false,Tx,1,8,1B,E2,57,4F,4A,31,21,01,
70911047,000003AF,false,Tx,1,8,6F,D1,F7,1F,E0,01,00,00,
70915890,00000097,false,Tx,1,8,98,C4,7F,CF,05,02,00,00,
70926359,00000097,false,Tx,1,8,0C,C5,7F,CF,05,02,00,00,
70927777,00000124,false,Tx,1,8,52,E3,57,4F,4A,31,21,01,
70936015,00000097,false,Tx,1,8,A9,C6,7F,CF,05,FE,01,00,
70945438,00000097,false,Tx,1,8,23,C7,7F,CF,05,FE,01,00,
70946891,00000124,false,Tx,1,8,C6,E4,97,4F,4A,31,21,01,
70956292,00000097,false,Tx,1,8,86,C8,7F,CE,05,02,00,00,
70965740,00000097,false,Tx,1,8,A8,C9,7F,CE,05,FE,01,00,
70967146,00000124,false,Tx,1,8,3B,E5,97,4F,4A,31,21,01,
70975382,00000097,false,Tx,1,8,63,CA,7F,CE,05,02,00,00,
70981349,000003A6,false,Tx,1,8,4F,08,00,00,00,01,00,00,
70987244,00000097,false,Tx,1,8,6F,CB,7F,CE,05,FE,01,00,
70987391,00000124,false,Tx,1,8,B8,E6,97,4F,4A,31,21,01,
70993711,00000566,false,Rx,1,8,DB,2C,FE,21,FB,07,19,00,
70995487,00000097,false,Tx,1,8,1F,CC,7F,CE,05,FE,01,00,
70998522,0000038B,false,Rx,1,8,FE,01,00,BC,F2,CA,AB,7F,
71005971,00000097,false,Tx,1,8,C6,CD,7F,CE,05,FE,01,00,
71007255,00000124,false,Tx,1,8,C4,E7,97,4F,4A,31,21,01,
71010882,000003AF,false,Tx,1,8,F2,D2,F7,1F,E0,01,00,00,
71012228,000006A4,false,Tx,1,8,D3,04,44,3D,3F,03,00,00,
71016988,00000097,false,Tx,1,8,43,CE,7F,CE,05,02,00,00,
71026270,00000097,false,Tx,1,8,12,CF,7F,CE,05,FE,01,00,
71026424,00000124,false,Tx,1,8,FF,E8,97,4F,4A,31,21,01,
71035730,00000097,false,Tx,1,8,89,C0,7F,CE,05,02,00,00,
71047307,00000097,false,Tx,1,8,2F,C1,7F,CE,05,02,00,00,
71047470,00000124,false,Tx,1,8,0D,E9,97,4F,4A,31,21,01,
71055654,00000097,false,Tx,1,8,FB,C2,7F,CE,05,FE,01,00,
71066095,00000097,false,Tx,1,8,B5,C3,7F,CF,05,FE,01,00,
71067388,00000124,false,Tx,1,8,7F,EA,97,4F,4A,31,21,01,
71076774,00000097,false,Tx,1,8,98,C4,7F,CF,05,02,00,00,
71081485,000003A6,false,Tx,1,8,22,09,00,00,00,01,00,00,
71086343,00000097,false,Tx,1,8,1F,C5,7F,CF,05,FE,01,00,
71086557,00000124,false,Tx,1,8,54,EB,97,4F,4A,31,21,01,
71093723,00000566,false,Rx,1,8,7C,2D,FE,21,FB,07,19,00,
71095821,00000097,false,Tx,1,8,BA,C6,7F,CF,05,02,00,00,
71098554,0000038B,false,Rx,1,8,FE,01,00,BC,F2,CA,AB,7F,
71107396,00000097,false,Tx,1,8,30,C7,7F,CF,05,02,00,00,
71107617,00000124,false,Tx,1,8,7A,EC,97,4F,4A,31,21,01,
71111243,000003AF,false,Tx,1,8,B1,D3,F7,1F,E0,01,00,00,
71115750,00000097,false,Tx,1,8,C1,C8,7F,CF,05,FE,01,00,
71125631,00000124,false,Tx,1,8,CB,ED,97,4F,4A,31,21,01,
71125740,00000097,false,Tx,1,8,FC,C9,7F,CF,05,FE,01,00,
71136824,00000097,false,Tx,1,8,37,CA,7F,CF,05,02,00,00,
71145960,00000124,false,Tx,1,8,0B,EE,97,4F,4A,31,21,01,
71146081,00000097,false,Tx,1,8,3B,CB,7F,CF,05,FE,01,00,
71156085,00000097,false,Tx,1,8,4B,CC,7F,CF,05,FE,01,00,
71166701,00000097,false,Tx,1,8,81,CD,7F,CF,05,02,00,00,
71166928,00000124,false,Tx,1,8,E6,EF,97,4F,4A,31,21,01,
71176134,00000097,false,Tx,1,8,50,CE,7F,CE,05,FE,01,00,
71182097,000003A6,false,Tx,1,8,C2,0A,00,00,00,01,00,00,
71185683,00000097,false,Tx,1,8,12,CF,7F,CE,05,FE,01,00,
71185940,00000124,false,Tx,1,8,69,E0,97,4F,4A,31,21,01,
71193736,00000566,false,Rx,1,8,E2,2E,FE,21,FB,07,19,00,
71196500,00000097,false,Tx,1,8,89,C0,7F,CE,05,02,00,00,
71198567,0000038B,false,Rx,1,8,FE,01,00,BC,F2,CA,AB,7F,
71205799,00000124,false,Tx,1,8,73,E1,97,4F,4A,31,21,01,
71205949,00000097,false,Tx,1,8,3C,C1,7F,CE,05,FE,01,00,
71207150,000006A3,false,Tx,1,8,EF,04,99,3E,6C,66,03,00,
71210762,000003AF,false,Tx,1,8,C2,D4,F7,1F,E0,01,00,00,
71215617,00000097,false,Tx,1,8,E8,C2,7F,CE,05,02,00,00,
71227204,00000097,false,Tx,1,8,F2,C3,7F,CE,05,02,00,00,
71227355,00000124,false,Tx,1,8,30,E2,97,4F,4A,31,21,01,
71235528,00000097,false,Tx,1,8,DF,C4,7F,CE,05,FE,01,00,
71246116,00000097,false,Tx,1,8,95,C5,7F,CF,05,FA,01,00,
71246366,00000124,false,Tx,1,8,79,E3,97,4F,4A,31,21,01,
71248582,00000564,false,Rx,1,8,D4,8A,72,71,F9,27,34,00,
71256934,00000097,false,Tx,1,8,23,C6,7F,CF,05,FA,01,00,
71266505,00000097,false,Tx,1,8,23,C7,7F,CF,05,FE,01,00,
71266809,00000124,false,Tx,1,8,C6,E4,97,4F,4A,31,21,01,
71276592,00000097,false,Tx,1,8,D2,C8,7F,CF,05,02,00,00,
71281440,000003A6,false,Tx,1,8,AE,0B,00,00,00,01,00,00,
71287414,00000124,false,Tx,1,8,3B,E5,97,4F,4A,31,21,01,
71287664,00000097,false,Tx,1,8,76,C9,7F,CF,05,FA,01,00,
71293776,00000566,false,Rx,1,8,1F,2F,FE,21,FB,07,19,00,
71295875,00000097,false,Tx,1,8,24,CA,7F,CF,05,FE,01,00,
71298587,0000038B,false,Rx,1,8,FE,01,00,BC,F2,CA,AB,7F,
71298885,12DD5472,true,Rx,1,8,00,00,00,00,00,00,00,00,
71299114,00000565,false,Rx,1,8,00,20,00,15,0C,08,80,FF,
71299407,1A555490,true,Rx,1,8,0A,00,00,80,02,00,20,00,
71299688,1A555491,true,Rx,1,8,00,58,A8,02,00,00,00,80,
71306487,00000124,false,Tx,1,8,B8,E6,97,4F,4A,31,21,01,
71306639,00000097,false,Tx,1,8,3B,CB,7F,CF,05,FE,01,00,
71311345,000003AF,false,Tx,1,8,CE,D5,F7,1F,E0,01,00,00,
71317250,00000097,false,Tx,1,8,C1,CC,7F,CF,05,FA,01,00,
71326501,00000097,false,Tx,1,8,92,CD,7F,CF,05,FE,01,00,
71326658,00000124,false,Tx,1,8,C4,E7,97,4F,4A,31,21,01,
71336064,00000097,false,Tx,1,8,17,CE,7F,CF,05,02,00,00,
71346642,00000097,false,Tx,1,8,55,CF,7F,CF,05,02,00,00,
71346818,00000124,false,Tx,1,8,FF,E8,97,4F,4A,31,21,01,
71356122,00000097,false,Tx,1,8,CE,C0,7F,CF,05,FE,01,00,
71367521,00000097,false,Tx,1,8,68,C1,7F,CF,05,FE,01,00,
71367656,00000124,false,Tx,1,8,0D,E9,97,4F,4A,31,21,01,
71377410,00000097,false,Tx,1,8,BC,C2,7F,CF,05,02,00,00,
71381921,000003A6,false,Tx,1,8,3D,0C,00,00,00,01,00,00,
71386570,00000097,false,Tx,1,8,B5,C3,7F,CF,05,FE,01,00,
71386826,00000124,false,Tx,1,8,7F,EA,97,4F,4A,31,21,01,
71393789,00000566,false,Rx,1,8,95,20,FE,21,FB,07,19,00,
71395616,00000097,false,Tx,1,8,98,C4,7F,CF,05,02,00,00,
71398611,0000038B,false,Rx,1,8,FE,01,00,BC,F2,CA,AB,7F,
71406833,00000124,false,Tx,1,8,54,EB,97,4F,4A,31,21,01,
71407148,00000097,false,Tx,1,8,0C,C5,7F,CF,05,02,00,00,
71410733,000003AF,false,Tx,1,8,56,D6,F7,1F,E0,01,00,00,
71416548,00000097,false,Tx,1,8,A9,C6,7F,CF,05,FE,01,00,
71425951,00000097,false,Tx,1,8,23,C7,7F,CF,05,FE,01,00,
71426237,00000124,false,Tx,1,8,7A,EC,97,4F,4A,31,21,01,
71436926,00000097,false,Tx,1,8,D2,C8,7F,CF,05,02,00,00,
71446638,00000097,false,Tx,1,8,FC,C9,7F,CF,05,FE,01,00,
71446895,00000124,false,Tx,1,8,CB,ED,97,4F,4A,31,21,01,
71456368,00000097,false,Tx,1,8,24,CA,7F,CF,05,FE,01,00,
71466858,00000097,false,Tx,1,8,28,CB,7F,CF,05,02,00,00,
71467098,00000124,false,Tx,1,8,0B,EE,97,4F,4A,31,21,01,
71476379,00000097,false,Tx,1,8,4B,CC,7F,CF,05,FE,01,00,
71482464,000003A6,false,Tx,1,8,CA,0D,00,00,00,01,00,00,
71486249,00000097,false,Tx,1,8,92,CD,7F,CF,05,FE,01,00,
71486496,00000124,false,Tx,1,8,E6,EF,97,4F,4A,31,21,01,
71493805,00000566,false,Rx,1,8,CB,21,FE,21,FB,07,19,00,
71497145,00000097,false,Tx,1,8,17,CE,7F,CF,05,02,00,00,
71498626,0000038B,false,Rx,1,8,FE,01,00,BC,F2,CA,AB,7F,
71505628,00000097,false,Tx,1,8,CC,CF,7F,CF,05,FA,01,00,
71505910,00000124,false,Tx,1,8,69,E0,97,4F,4A,31,21,01,
71510732,000003AF,false,Tx,1,8,3A,D7,F7,1F,E0,01,00,00,
71512086,000006A4,false,Tx,1,8,4D,05,44,3D,3F,03,00,00,
71515813,00000097,false,Tx,1,8,DD,C0,7F,CF,05,02,00,00,
71527516,00000097,false,Tx,1,8,7B,C1,7F,CF,05,02,00,00,
71527771,00000124,false,Tx,1,8,73,E1,97,4F,4A,31,21,01,
71536087,00000097,false,Tx,1,8,BC,C2,7F,CF,05,02,00,00,
71546622,00000097,false,Tx,1,8,B5,C3,7F,CF,05,FE,01,00,
71546841,00000124,false,Tx,1,8,30,E2,97,4F,4A,31,21,01,
71557358,00000097,false,Tx,1,8,98,C4,7F,CF,05,02,00,00,
71566735,00000124,false,Tx,1,8,79,E3,97,4F,4A,31,21,01,
71566997,00000097,false,Tx,1,8,1F,C5,7F,CF,05,FE,01,00,
71576237,00000097,false,Tx,1,8,BA,C6,7F,CF,05,02,00,00,
71582154,000003A6,false,Tx,1,8,9E,0E,00,00,00,01,00,00,
71586849,00000097,false,Tx,1,8,30,C7,7F,CF,05,02,00,00,
71587049,00000124,false,Tx,1,8,C6,E4,97,4F,4A,31,21,01,
71593823,00000566,false,Rx,1,8,4F,22,FE,21,FB,07,19,00,
71596398,00000097,false,Tx,1,8,4B,C8,7F,CF,05,FA,01,00,
71598655,0000038B,false,Rx,1,8,FE,01,00,BC,F2,CA,AB,7F,
71605730,00000124,false,Tx,1,8,3B,E5,97,4F,4A,31,21,01,
71605879,00000097,false,Tx,1,8,FC,C9,7F,CF,05,FE,01,00,
71611745,000003AF,false,Tx,1,8,E5,D8,F7,1F,E0,01,00,00,
71617460,00000097,false,Tx,1,8,37,CA,7F,CF,05,02,00,00,
71626160,00000097,false,Tx,1,8,B1,CB,7F,CF,05,FA,01,00,
71626242,00000124,false,Tx,1,8,B8,E6,97,4F,4A,31,21,01,
71637490,00000097,false,Tx,1,8,58,CC,7F,CF,05,02,00,00,
71647518,00000097,false,Tx,1,8,92,CD,7F,CF,05,FE,01,00,
71647663,00000124,false,Tx,1,8,EF,E7,57,4F,4A,31,21,01,
71656446,00000097,false,Tx,1,8,04,CE,7F,CF,05,FE,01,00,
71667133,00000097,false,Tx,1,8,46,CF,7F,CF,05,FE,01,00,
71667381,00000124,false,Tx,1,8,D4,E8,57,4F,4A,31,21,01,
71676778,00000097,false,Tx,1,8,DD,C0,7F,CF,05,02,00,00,
71682774,000003A6,false,Tx,1,8,88,0F,00,00,00,01,00,00,
71686492,00000097,false,Tx,1,8,68,C1,7F,CF,05,FE,01,00,
71686654,00000124,false,Tx,1,8,26,E9,57,4F,4A,31,21,01,
71693850,00000566,false,Rx,1,8,89,23,FE,21,FB,07,19,00,
71695970,00000097,false,Tx,1,8,BC,C2,7F,CF,05,02,00,00,
71698673,0000038B,false,Rx,1,8,FE,01,00,BC,F2,CA,AB,7F,
71707680,00000124,false,Tx,1,8,54,EA,57,4F,4A,31,21,01,
71707928,00000097,false,Tx,1,8,A6,C3,7F,CF,05,02,00,00,
71709389,000006A3,false,Tx,1,8,19,05,99,3E,6C,66,03,00,
71710804,000003AF,false,Tx,1,8,8F,D9,F7,1F,E0,01,00,00,
71716845,00000097,false,Tx,1,8,01,C4,7F,CF,05,FA,01,00,
71726202,00000097,false,Tx,1,8,1F,C5,7F,CF,05,FE,01,00,
71726459,00000124,false,Tx,1,8,7F,EB,57,4F,4A,31,21,01,
71737130,00000097,false,Tx,1,8,BA,C6,7F,CF,05,02,00,00,
71746570,00000097,false,Tx,1,8,23,C7,7F,CF,05,FE,01,00,
71746806,00000124,false,Tx,1,8,7A,EC,97,4F,4A,31,21,01,
71756205,00000097,false,Tx,1,8,C1,C8,7F,CF,05,FE,01,00,
71767836,00000097,false,Tx,1,8,76,C9,7F,CF,05,FA,01,00,
71768051,00000124,false,Tx,1,8,CB,ED,97,4F,4A,31,21,01,
71776214,00000097,false,Tx,1,8,AE,CA,7F,CF,05,FA,01,00,
71782124,000003A6,false,Tx,1,8,48,00,00,00,00,01,00,00,
71786864,00000097,false,Tx,1,8,3B,CB,7F,CF,05,FE,01,00,
71787076,00000124,false,Tx,1,8,0B,EE,97,4F,4A,31,21,01,
71793877,00000566,false,Rx,1,8,04,24,FE,21,FB,07,19,00,
71797614,00000097,false,Tx,1,8,58,CC,7F,CF,05,02,00,00,
71798688,0000038B,false,Rx,1,8,FE,01,00,BC,F2,CA,AB,7F,
71798988,12DD5472,true,Rx,1,8,00,00,00,00,00,00,00,00,
71799227,00000565,false,Rx,1,8,00,20,00,15,0C,08,80,FF,
71799465,0000067E,false,Rx,1,8,32,0B,16,00,3B,00,00,04,
71799748,1A555457,true,Rx,1,8,02,30,33,30,30,00,00,00,
71800029,1A555490,true,Rx,1,8,0A,00,00,80,02,00,20,00,
71800310,1A555491,true,Rx,1,8,00,58,A8,02,00,00,00,80,
71806000,00000124,false,Tx,1,8,E6,EF,97,4F,4A,31,21,01,
71806238,00000097,false,Tx,1,8,18,CD,7F,CF,05,FA,01,00,
71811089,000003AF,false,Tx,1,8,BA,DA,F7,1F,E0,01,00,00,
71816008,00000097,false,Tx,1,8,17,CE,7F,CF,05,02,00,00,
71827882,00000124,false,Tx,1,8,69,E0,97,4F,4A,31,21,01,
71828180,00000097,false,Tx,1,8,55,CF,7F,CF,05,02,00,00,
71836398,00000097,false,Tx,1,8,44,C0,7F,CF,05,FA,01,00,
71846870,00000097,false,Tx,1,8,68,C1,7F,CF,05,FE,01,00,
71847106,00000124,false,Tx,1,8,73,E1,97,4F,4A,31,21,01,
71857708,00000097,false,Tx,1,8,BC,C2,7F,CF,05,02,00,00,
71865861,00000097,false,Tx,1,8,3F,C3,7F,CF,05,FA,01,00,
71866115,00000124,false,Tx,1,8,30,E2,97,4F,4A,31,21,01,
71875946,00000097,false,Tx,1,8,98,C4,7F,CF,05,02,00,00,
71882669,000003A6,false,Tx,1,8,B5,01,00,00,00,01,00,00,
71887214,00000097,false,Tx,1,8,95,C5,7F,CF,05,FA,01,00,
71887532,00000124,false,Tx,1,8,79,E3,97,4F,4A,31,21,01,
71893885,00000566,false,Rx,1,8,FA,25,FE,21,FB,07,19,00,
71896665,00000097,false,Tx,1,8,BA,C6,7F,CF,05,02,00,00,
71898707,0000038B,false,Rx,1,8,FE,01,00,BC,F2,CA,AB,7F,
71906652,00000097,false,Tx,1,8,23,C7,7F,CF,05,FE,01,00,
71906739,00000124,false,Tx,1,8,C6,E4,97,4F,4A,31,21,01,
71911130,000003AF,false,Tx,1,8,86,DB,F7,1F,E0,01,00,00,
71917005,00000097,false,Tx,1,8,D2,C8,7F,CF,05,02,00,00,
71926505,00000124,false,Tx,1,8,3B,E5,97,4F,4A,31,21,01,
71926736,00000097,false,Tx,1,8,22,C9,7F,CE,05,FA,01,00,
71936168,00000097,false,Tx,1,8,37,CA,7F,CF,05,02,00,00,
71947868,00000097,false,Tx,1,8,B1,CB,7F,CF,05,FA,01,00,
71948055,00000124,false,Tx,1,8,B8,E6,97,4F,4A,31,21,01,
71956236,00000097,false,Tx,1,8,C1,CC,7F,CF,05,FA,01,00,
71967854,00000097,false,Tx,1,8,81,CD,7F,CF,05,02,00,00,
71968027,00000124,false,Tx,1,8,C4,E7,97,4F,4A,31,21,01,
71977331,00000097,false,Tx,1,8,17,CE,7F,CF,05,02,00,00,
71982146,000003A6,false,Tx,1,8,76,02,00,00,00,01,00,00,
71986993,00000097,false,Tx,1,8,CC,CF,7F,CF,05,FA,01,00,
71987168,00000124,false,Tx,1,8,FF,E8,97,4F,4A,31,21,01,
71993901,00000566,false,Rx,1,8,01,26,FE,21,FB,07,19,00,
71996438,00000097,false,Tx,1,8,DD,C0,7F,CF,05,02,00,00,
71998733,0000038B,false,Rx,1,8,FE,01,00,BC,F2,CA,AB,7F,
72006950,00000097,false,Tx,1,8,7B,C1,7F,CF,05,02,00,00,
72007166,00000124,false,Tx,1,8,0D,E9,97,4F,4A,31,21,01,
72011868,000003AF,false,Tx,1,8,98,DC,F7,1F,E0,01,00,00,
72013217,000006A4,false,Tx,1,8,58,06,44,3D,3F,03,00,00,
72016826,00000097,false,Tx,1,8,25,C2,7F,CF,05,FA,01,00,
72026202,00000097,false,Tx,1,8,B5,C3,7F,CF,05,FE,01,00,
72026434,00000124,false,Tx,1,8,7F,EA,97,4F,4A,31,21,01,
72038016,00000097,false,Tx,1,8,98,C4,7F,CF,05,02,00,00,
72046453,00000097,false,Tx,1,8,1F,C5,7F,CF,05,FE,01,00,
72046620,00000124,false,Tx,1,8,54,EB,97,4F,4A,31,21,01,
72057003,00000097,false,Tx,1,8,A9,C6,7F,CF,05,FE,01,00,
72067423,00000097,false,Tx,1,8,A9,C7,7F,CF,05,FA,01,00,
72067574,00000124,false,Tx,1,8,7A,EC,97,4F,4A,31,21,01,
72076783,00000097,false,Tx,1,8,4B,C8,7F,CF,05,FA,01,00,
72082646,000003A6,false,Tx,1,8,3A,03,00,00,00,01,00,00,
72087366,00000097,false,Tx,1,8,FC,C9,7F,CF,05,FE,01,00,
72087549,00000124,false,Tx,1,8,CB,ED,97,4F,4A,31,21,01,
72093926,00000566,false,Rx,1,8,F5,27,FE,21,FB,07,19,00,
72098098,00000097,false,Tx,1,8,37,CA,7F,CF,05,02,00,00,
72098767,0000038B,false,Rx,1,8,FE,01,00,BC,F2,CA,AB,7F,
72106260,00000097,false,Tx,1,8,B1,CB,7F,CF,05,FA,01,00,
72106487,00000124,false,Tx,1,8,0B,EE,97,4F,4A,31,21,01,
72111296,000003AF,false,Tx,1,8,44,DD,F7,1F,E0,01,00,00,
72116099,00000097,false,Tx,1,8,58,CC,7F,CF,05,02,00,00,
72128060,00000097,false,Tx,1,8,81,CD,7F,CF,05,02,00,00,
72128183,00000124,false,Tx,1,8,E6,EF,97,4F,4A,31,21,01,
72137287,00000097,false,Tx,1,8,04,CE,7F,CF,05,FE,01,00,
72147081,00000097,false,Tx,1,8,55,CF,7F,CF,05,02,00,00,
72147160,00000124,false,Tx,1,8,69,E0,97,4F,4A,31,21,01,
72157344,00000097,false,Tx,1,8,DD,C0,7F,CF,05,02,00,00,
72166753,00000097,false,Tx,1,8,7B,C1,7F,CF,05,02,00,00,
72166999,00000124,false,Tx,1,8,73,E1,97,4F,4A,31,21,01,
72176636,00000097,false,Tx,1,8,BC,C2,7F,CF,05,02,00,00,
72182731,000003A6,false,Tx,1,8,7A,04,00,00,00,01,00,00,
72187623,00000124,false,Tx,1,8,30,E2,97,4F,4A,31,21,01,
72187984,00000097,false,Tx,1,8,3F,C3,7F,CF,05,FA,01,00,
72193961,00000566,false,Rx,1,8,20,28,FE,21,FB,07,19,00,
72196329,00000097,false,Tx,1,8,98,C4,7F,CF,05,02,00,00,
72198773,0000038B,false,Rx,1,8,FE,01,00,BC,F2,CA,AB,7F,
72207973,00000124,false,Tx,1,8,79,E3,97,4F,4A,31,21,01,
72208162,000006A3,false,Tx,1,8,5B,06,99,3E,6C,66,03,00,
72208266,00000097,false,Tx,1,8,1F,C5,7F,CF,05,FE,01,00,
72211884,000003AF,false,Tx,1,8,1A,DE,F7,1F,E0,01,00,00,
72217713,00000097,false,Tx,1,8,BA,C6,7F,CF,05,02,00,00,
72227181,00000097,false,Tx,1,8,A9,C7,7F,CF,05,FA,01,00,
72227367,00000124,false,Tx,1,8,C6,E4,97,4F,4A,31,21,01,
72236936,00000097,false,Tx,1,8,D2,C8,7F,CF,05,02,00,00,
72247411,00000097,false,Tx,1,8,76,C9,7F,CF,05,FA,01,00,
72247573,00000124,false,Tx,1,8,3B,E5,97,4F,4A,31,21,01,
72248790,00000564,false,Rx,1,8,B0,8B,72,71,F9,27,34,00,
72256788,00000097,false,Tx,1,8,37,CA,7F,CF,05,02,00,00,
72267211,00000124,false,Tx,1,8,B8,E6,97,4F,4A,31,21,01,
72267358,00000097,false,Tx,1,8,B1,CB,7F,CF,05,FA,01,00,
72277720,00000097,false,Tx,1,8,C1,CC,7F,CF,05,FA,01,00,
72282559,000003A6,false,Tx,1,8,8A,05,00,00,00,01,00,00,
72286263,00000097,false,Tx,1,8,81,CD,7F,CF,05,02,00,00,
72286523,00000124,false,Tx,1,8,C4,E7,97,4F,4A,31,21,01,
72293963,00000566,false,Rx,1,8,D8,29,FE,21,FB,07,19,00,
72297145,00000097,false,Tx,1,8,17,CE,7F,CF,05,02,00,00,
72298794,0000038B,false,Rx,1,8,FE,01,00,BC,F2,CA,AB,7F,
72299083,12DD5472,true,Rx,1,8,00,00,00,00,00,00,00,00,
72299323,00000565,false,Rx,1,8,00,20,00,15,0C,08,80,FF,
72299613,1A555490,true,Rx,1,8,0A,00,00,80,02,00,20,00,
72299895,1A555491,true,Rx,1,8,00,58,A8,02,00,00,00,80,
72307617,00000097,false,Tx,1,8,55,CF,7F,CF,05,02,00,00,
72307863,00000124,false,Tx,1,8,FF,E8,97,4F,4A,31,21,01,
72311424,000003AF,false,Tx,1,8,CD,DF,F7,1F,E0,01,00,00,
72316283,00000097,false,Tx,1,8,DD,C0,7F,CF,05,02,00,00,
72327852,00000097,false,Tx,1,8,68,C1,7F,CF,05,FE,01,00,
72328100,00000124,false,Tx,1,8,0D,E9,97,4F,4A,31,21,01,
72337632,00000097,false,Tx,1,8,BC,C2,7F,CF,05,02,00,00,
72347066,00000097,false,Tx,1,8,3F,C3,7F,CF,05,FA,01,00,
72347368,00000124,false,Tx,1,8,7F,EA,97,4F,4A,31,21,01,
72357879,00000097,false,Tx,1,8,8B,C4,7F,CF,05,FE,01,00,
72368093,00000097,false,Tx,1,8,1F,C5,7F,CF,05,FE,01,00,
72368211,00000124,false,Tx,1,8,54,EB,97,4F,4A,31,21,01,
72376959,00000097,false,Tx,1,8,BA,C6,7F,CF,05,02,00,00,
72382604,000003A6,false,Tx,1,8,08,06,00,00,00,01,00,00,
72387322,00000097,false,Tx,1,8,23,C7,7F,CF,05,FE,01,00,
72387502,00000124,false,Tx,1,8,7A,EC,97,4F,4A,31,21,01,
72393981,00000566,false,Rx,1,8,97,2A,FE,21,FB,07,19,00,
72397357,00000097,false,Tx,1,8,D2,C8,7F,CF,05,02,00,00,
72398812,0000038B,false,Rx,1,8,FE,01,00,BC,F2,CA,AB,7F,
72406331,00000097,false,Tx,1,8,BB,C9,7F,CE,05,02,00,00,
72406591,00000124,false,Tx,1,8,CB,ED,97,4F,4A,31,21,01,
72411259,000003AF,false,Tx,1,8,66,D0,F7,1F,E0,01,00,00,
72416995,00000097,false,Tx,1,8,37,CA,7F,CF,05,02,00,00,
72427528,00000097,false,Tx,1,8,E5,CB,7F,CE,05,FA,01,00,
72427681,00000124,false,Tx,1,8,0B,EE,97,4F,4A,31,21,01,
72435749,00000097,false,Tx,1,8,0C,CC,7F,CE,05,02,00,00,
72447317,00000097,false,Tx,1,8,C6,CD,7F,CE,05,FE,01,00,
72447471,00000124,false,Tx,1,8,E6,EF,97,4F,4A,31,21,01,
72456863,00000097,false,Tx,1,8,17,CE,7F,CF,05,02,00,00,
72467311,00000097,false,Tx,1,8,CC,CF,7F,CF,05,FA,01,00,
72467472,00000124,false,Tx,1,8,69,E0,97,4F,4A,31,21,01,
72476858,00000097,false,Tx,1,8,DD,C0,7F,CF,05,02,00,00,
72482814,000003A6,false,Tx,1,8,E0,07,00,00,00,01,00,00,
72486405,00000097,false,Tx,1,8,7B,C1,7F,CF,05,02,00,00,
72487703,00000124,false,Tx,1,8,73,E1,97,4F,4A,31,21,01,
72494006,00000566,false,Rx,1,8,1A,2B,FE,21,FB,07,19,00,
72495849,00000097,false,Tx,1,8,BC,C2,7F,CF,05,02,00,00,
72498836,0000038B,false,Rx,1,8,FE,01,00,BC,F2,CA,AB,7F,
72507352,00000097,false,Tx,1,8,B5,C3,7F,CF,05,FE,01,00,
72507499,00000124,false,Tx,1,8,30,E2,97,4F,4A,31,21,01,
72512212,000003AF,false,Tx,1,8,6F,D1,F7,1F,E0,01,00,00,
72513518,000006A4,false,Tx,1,8,50,07,44,3D,3F,03,00,00,
72517131,00000097,false,Tx,1,8,98,C4,7F,CF,05,02,00,00,
72525350,00000097,false,Tx,1,8,0C,C5,7F,CF,05,02,00,00,
72526662,00000124,false,Tx,1,8,79,E3,97,4F,4A,31,21,01,
72536050,00000097,false,Tx,1,8,BA,C6,7F,CF,05,02,00,00,
72546624,00000097,false,Tx,1,8,A9,C7,7F,CF,05,FA,01,00,
72547957,00000124,false,Tx,1,8,C6,E4,97,4F,4A,31,21,01,
72556197,00000097,false,Tx,1,8,D2,C8,7F,CF,05,02,00,00,
72566794,00000097,false,Tx,1,8,FC,C9,7F,CF,05,FE,01,00,
72568263,00000124,false,Tx,1,8,3B,E5,97,4F,4A,31,21,01,
72576446,00000097,false,Tx,1,8,37,CA,7F,CF,05,02,00,00,
72582340,000003A6,false,Tx,1,8,4F,08,00,00,00,01,00,00,
72585938,00000097,false,Tx,1,8,28,CB,7F,CF,05,02,00,00,
72587214,00000124,false,Tx,1,8,B8,E6,97,4F,4A,31,21,01,
72594042,00000566,false,Rx,1,8,DB,2C,FE,21,FB,07,19,00,
72595407,00000097,false,Tx,1,8,58,CC,7F,CF,05,02,00,00,
72598853,0000038B,false,Rx,1,8,FE,01,00,BC,F2,CA,AB,7F,
72606994,00000097,false,Tx,1,8,81,CD,7F,CF,05,02,00,00,
72608436,00000124,false,Tx,1,8,C4,E7,97,4F,4A,31,21,01,
72610894,000003AF,false,Tx,1,8,F2,D2,F7,1F,E0,01,00,00,
72615520,00000097,false,Tx,1,8,17,CE,7F,CF,05,02,00,00,
72625390,00000097,false,Tx,1,8,46,CF,7F,CF,05,FE,01,00,
72626618,00000124,false,Tx,1,8,FF,E8,97,4F,4A,31,21,01,
72636608,00000097,false,Tx,1,8,CE,C0,7F,CF,05,FE,01,00,
72646022,00000097,false,Tx,1,8,E2,C1,7F,CF,05,FA,01,00,
72647328,00000124,false,Tx,1,8,0D,E9,97,4F,4A,31,21,01,
72656134,00000097,false,Tx,1,8,25,C2,7F,CF,05,FA,01,00,
72667336,00000097,false,Tx,1,8,A6,C3,7F,CF,05,02,00,00,
72667630,00000124,false,Tx,1,8,7F,EA,97,4F,4A,31,21,01,
72675845,00000097,false,Tx,1,8,98,C4,7F,CF,05,02,00,00,
72682890,000003A6,false,Tx,1,8,22,09,00,00,00,01,00,00,
72685447,00000097,false,Tx,1,8,1F,C5,7F,CF,05,FE,01,00,
72686855,00000124,false,Tx,1,8,54,EB,97,4F,4A,31,21,01,
72694046,00000566,false,Rx,1,8,7C,2D,FE,21,FB,07,19,00,
72697199,00000097,false,Tx,1,8,BA,C6,7F,CF,05,02,00,00,
72698867,0000038B,false,Rx,1,8,FE,01,00,BC,F2,CA,AB,7F,
72706285,00000097,false,Tx,1,8,30,C7,7F,CF,05,02,00,00,
72707602,00000124,false,Tx,1,8,7A,EC,97,4F,4A,31,21,01,
72707819,000006A3,false,Tx,1,8,3D,07,99,3E,6C,66,03,00,
72712360,000003AF,false,Tx,1,8,B1,D3,F7,1F,E0,01,00,00,
72715845,00000097,false,Tx,1,8,D2,C8,7F,CF,05,02,00,00,
72727116,00000097,false,Tx,1,8,EF,C9,7F,CF,05,02,00,00,
72728450,00000124,false,Tx,1,8,CB,ED,97,4F,4A,31,21,01,
72736360,00000097,false,Tx,1,8,37,CA,7F,CF,05,02,00,00,
72746650,00000097,false,Tx,1,8,3B,CB,7F,CF,05,FE,01,00,
72748051,00000124,false,Tx,1,8,0B,EE,97,4F,4A,31,21,01,
72757471,00000097,false,Tx,1,8,58,CC,7F,CF,05,02,00,00,
72765664,00000097,false,Tx,1,8,81,CD,7F,CF,05,02,00,00,
72767056,00000124,false,Tx,1,8,E6,EF,97,4F,4A,31,21,01,
72776428,00000097,false,Tx,1,8,17,CE,7F,CF,05,02,00,00,
72783534,000003A6,false,Tx,1,8,C2,0A,00,00,00,01,00,00,
72787208,00000097,false,Tx,1,8,55,CF,7F,CF,05,02,00,00,
72787497,00000124,false,Tx,1,8,69,E0,97,4F,4A,31,21,01,
72794061,00000566,false,Rx,1,8,E2,2E,FE,21,FB,07,19,00,
72795627,00000097,false,Tx,1,8,DD,C0,7F,CF,05,02,00,00,
72798891,0000038B,false,Rx,1,8,FE,01,00,BC,F2,CA,AB,7F,
72799179,12DD5472,true,Rx,1,8,00,00,00,00,00,00,00,00,
72799420,00000565,false,Rx,1,8,00,20,00,15,0C,08,80,FF,
72799659,0000067E,false,Rx,1,8,21,0C,16,00,3B,00,00,04,
72799941,1A555457,true,Rx,1,8,03,4B,59,46,41,00,00,00,
72800222,1A555490,true,Rx,1,8,0A,00,00,80,02,00,20,00,
72800503,1A555491,true,Rx,1,8,00,58,A8,02,00,00,00,80,
72807244,00000097,false,Tx,1,8,68,C1,7F,CF,05,FE,01,00,
72807552,00000124,false,Tx,1,8,73,E1,97,4F,4A,31,21,01,
72811185,000003AF,false,Tx,1,8,C2,D4,F7,1F,E0,01,00,00,
72817189,00000097,false,Tx,1,8,BC,C2,7F,CF,05,02,00,00,
72825628,00000097,false,Tx,1,8,3F,C3,7F,CF,05,FA,01,00,
72827058,00000124,false,Tx,1,8,30,E2,97,4F,4A,31,21,01,
72836502,00000097,false,Tx,1,8,98,C4,7F,CF,05,02,00,00,
72847139,00000097,false,Tx,1,8,95,C5,7F,CF,05,FA,01,00,
72847424,00000124,false,Tx,1,8,79,E3,97,4F,4A,31,21,01,
72855762,00000097,false,Tx,1,8,BA,C6,7F,CF,05,02,00,00,
72866407,00000097,false,Tx,1,8,23,C7,7F,CF,05,FE,01,00,
72867686,00000124,false,Tx,1,8,C6,E4,97,4F,4A,31,21,01,
72877444,00000097,false,Tx,1,8,D2,C8,7F,CF,05,02,00,00,
72881972,000003A6,false,Tx,1,8,AE,0B,00,00,00,01,00,00,
72885633,00000097,false,Tx,1,8,EF,C9,7F,CF,05,02,00,00,
72886052,00000124,false,Tx,1,8,3B,E5,97,4F,4A,31,21,01,
72894093,00000566,false,Rx,1,8,1F,2F,FE,21,FB,07,19,00,
72895868,00000097,false,Tx,1,8,37,CA,7F,CF,05,02,00,00,
72898914,0000038B,false,Rx,1,8,FE,01,00,BC,F2,CA,AB,7F,
72907201,00000097,false,Tx,1,8,28,CB,7F,CF,05,02,00,00,
72907412,00000124,false,Tx,1,8,B8,E6,97,4F,4A,31,21,01,
72911141,000003AF,false,Tx,1,8,CE,D5,F7,1F,E0,01,00,00,
72915833,00000097,false,Tx,1,8,58,CC,7F,CF,05,02,00,00,
72926549,00000097,false,Tx,1,8,92,CD,7F,CF,05,FE,01,00,
72927947,00000124,false,Tx,1,8,C4,E7,97,4F,4A,31,21,01,
72937357,00000097,false,Tx,1,8,17,CE,7F,CF,05,02,00,00,
72945630,00000124,false,Tx,1,8,FF,E8,97,4F,4A,31,21,01,
72945873,00000097,false,Tx,1,8,55,CF,7F,CF,05,02,00,00,
72956418,00000097,false,Tx,1,8,DD,C0,7F,CF,05,02,00,00,
72967093,00000097,false,Tx,1,8,68,C1,7F,CF,05,FE,01,00,
72967424,00000124,false,Tx,1,8,0D,E9,97,4F,4A,31,21,01,
72975894,00000097,false,Tx,1,8,AF,C2,7F,CF,05,FE,01,00,
72981963,000003A6,false,Tx,1,8,3D,0C,00,00,00,01,00,00,
72985657,00000097,false,Tx,1,8,B5,C3,7F,CF,05,FE,01,00,
72987058,00000124,false,Tx,1,8,7F,EA,97,4F,4A,31,21,01,
72994118,00000566,false,Rx,1,8,95,20,FE,21,FB,07,19,00,
72997600,00000097,false,Tx,1,8,98,C4,7F,CF,05,02,00,00,
72998940,0000038B,false,Rx,1,8,FE,01,00,BC,F2,CA,AB,7F,
73005851,00000124,false,Tx,1,8,54,EB,97,4F,4A,31,21,01,
73006100,00000097,false,Tx,1,8,1F,C5,7F,CF,05,FE,01,00,
73010919,000003AF,false,Tx,1,8,56,D6,F7,1F,E0,01,00,00,
73012352,000006A4,false,Tx,1,8,85,08,44,3D,3F,03,00,00,
73016037,00000097,false,Tx,1,8,23,C6,7F,CF,05,FA,01,00,
73026735,00000097,false,Tx,1,8,30,C7,7F,CF,05,02,00,00,
73027046,00000124,false,Tx,1,8,7A,EC,97,4F,4A,31,21,01,
73036543,00000097,false,Tx,1,8,C1,C8,7F,CF,05,FE,01,00,
73047258,00000097,false,Tx,1,8,FC,C9,7F,CF,05,FE,01,00,
73047554,00000124,false,Tx,1,8,CB,ED,97,4F,4A,31,21,01,
73056977,00000097,false,Tx,1,8,37,CA,7F,CF,05,02,00,00,
73066467,00000124,false,Tx,1,8,0B,EE,97,4F,4A,31,21,01,
73066758,00000097,false,Tx,1,8,28,CB,7F,CF,05,02,00,00,
73076252,00000097,false,Tx,1,8,C1,CC,7F,CF,05,FA,01,00,
73082363,000003A6,false,Tx,1,8,CA,0D,00,00,00,01,00,00,
73087302,00000097,false,Tx,1,8,92,CD,7F,CF,05,FE,01,00,
73087603,00000124,false,Tx,1,8,E6,EF,97,4F,4A,31,21,01,
73094128,00000566,false,Rx,1,8,CB,21,FE,21,FB,07,19,00,
73095947,00000097,false,Tx,1,8,04,CE,7F,CF,05,FE,01,00,
73098950,0000038B,false,Rx,1,8,FE,01,00,BC,F2,CA,AB,7F,
73106470,00000097,false,Tx,1,8,CC,CF,7F,CF,05,FA,01,00,
73106649,00000124,false,Tx,1,8,69,E0,97,4F,4A,31,21,01,
73111315,000003AF,false,Tx,1,8,3A,D7,F7,1F,E0,01,00,00,
73116903,00000097,false,Tx,1,8,DD,C0,7F,CF,05,02,00,00,
73126756,00000097,false,Tx,1,8,68,C1,7F,CF,05,FE,01,00,
73126868,00000124,false,Tx,1,8,73,E1,97,4F,4A,31,21,01,
73136976,00000097,false,Tx,1,8,BC,C2,7F,CF,05,02,00,00,
73146999,00000124,false,Tx,1,8,30,E2,97,4F,4A,31,21,01,
