Time Stamp,ID,Extended,Dir,Bus,LEN,D1,D2,D3,D4,D5,D6,D7,D8
-1666949215166537,0000038B,false,Rx,0,8,FE,01,FE,BC,F2,CA,AB,7F,
-1666949215166239,12DD5472,true,Rx,0,8,00,00,00,00,00,00,00,00,
-1666949215166025,00000565,false,Rx,0,8,00,00,00,00,0C,08,80,FF,
-1666949215165769,0000067E,false,Rx,0,8,1D,01,FE,01,3B,00,00,38,
-1666949215165513,1A555457,true,Rx,0,8,00,35,51,45,36,00,00,00,
-1666949215165215,1A555490,true,Rx,0,8,AA,AA,08,AA,A2,2A,AA,02,
-1666949215164959,1A555491,true,Rx,0,8,AA,AA,AA,01,00,00,00,80,
-1666949215081333,00000566,false,Rx,0,8,1A,01,FE,01,FA,07,00,00,
-1666949215076512,0000038B,false,Rx,0,8,FE,01,FE,BC,F2,CA,AB,7F,
-1666949214981324,00000566,false,Rx,0,8,9E,02,FE,01,FA,07,00,00,
-1666949214976503,0000038B,false,Rx,0,8,FE,01,FE,BC,F2,CA,AB,7F,
-1666949214881272,00000566,false,Rx,0,8,58,03,FE,01,FA,07,00,00,
-1666949214876451,0000038B,false,Rx,0,8,FE,01,FE,BC,F2,CA,AB,7F,
-1666949214781263,00000566,false,Rx,0,8,D5,04,FE,01,FA,07,00,00,
-1666949214776442,0000038B,false,Rx,0,8,FE,01,FE,BC,F2,CA,AB,7F,
-1666949214726395,00000564,false,Rx,0,8,0A,01,00,00,FC,0F,32,FF,
-1666949214681211,00000566,false,Rx,0,8,2B,05,FE,01,FA,07,00,00,
-1666949214676390,0000038B,false,Rx,0,8,FE,01,00,BC,F2,CA,AB,7F,
-1666949214676091,12DD5472,true,Rx,0,8,00,00,00,00,00,00,00,00,
-1666949214675878,00000565,false,Rx,0,8,00,00,00,00,0C,08,80,FF,
-1666949214675580,1A555490,true,Rx,0,8,AA,AA,08,A8,A2,2A,AA,02,
-1666949214675324,1A555491,true,Rx,0,8,AA,AA,AA,01,00,00,00,80,
-1666949214581202,00000566,false,Rx,0,8,D0,06,FE,01,FA,07,00,00,
-1666949214576381,0000038B,false,Rx,0,8,FE,01,00,BC,F2,CA,AB,7F,
-1666949214481151,00000566,false,Rx,0,8,86,17,FE,01,FA,07,00,00,
-1666949214476329,0000038B,false,Rx,0,8,FE,01,00,BC,F2,CA,AB,7F,
-1666949214381141,00000566,false,Rx,0,8,53,18,FE,01,FA,07,00,00,
-1666949214376320,0000038B,false,Rx,0,8,FE,01,00,BC,F2,CA,AB,7F,
-1666949214281190,00000566,false,Rx,0,8,AB,19,FE,01,FA,07,00,00,
-1666949214276368,0000038B,false,Rx,0,8,FE,01,00,BC,F2,CA,AB,7F,
-1666949214181181,00000565,false,Rx,0,8,00,50,00,00,0C,08,80,FF,
-1666949214180925,00000566,false,Rx,0,8,E4,1A,FE,01,FA,07,00,00,
-1666949214176359,0000038B,false,Rx,0,8,FE,01,00,BC,F2,CA,AB,7F,
-1666949214176061,12DD5472,true,Rx,0,8,00,00,00,00,00,00,00,00,
-1666949214175805,0000067E,false,Rx,0,8,FA,02,00,00,3B,00,00,40,
-1666949214175549,1A555457,true,Rx,0,8,01,38,32,41,4B,00,00,00,
-1666949214175250,1A555490,true,Rx,0,8,AA,AA,08,94,A2,2A,AA,02,
-1666949214174994,1A555491,true,Rx,0,8,AA,AA,AA,01,00,00,00,80,
-1666949214126312,00000565,false,Rx,0,8,00,50,00,00,0C,08,80,FF,
-1666949214081129,00000566,false,Rx,0,8,69,1B,FE,01,FA,07,00,00,
-1666949214076308,0000038B,false,Rx,0,8,FE,01,00,BC,F2,CA,AB,7F,
-1666949213981120,00000566,false,Rx,0,8,A8,1C,FE,01,FA,07,00,00,
-1666949213976298,0000038B,false,Rx,0,8,FE,01,00,BC,F2,CA,AB,7F,
-1666949213881068,00000566,false,Rx,0,8,0F,1D,FE,01,FA,07,00,00,
-1666949213876247,0000038B,false,Rx,0,8,FE,01,00,BC,F2,CA,AB,7F,
-1666949213781059,00000566,false,Rx,0,8,91,1E,FE,01,FA,07,00,00,
-1666949213776238,0000038B,false,Rx,0,8,FE,01,00,BC,F2,CA,AB,7F,
-1666949213726190,00000564,false,Rx,0,8,76,02,00,00,FC,1F,2F,FF,
-1666949213681007,00000566,false,Rx,0,8,6C,1F,FE,01,FA,07,00,00,
-1666949213676186,0000038B,false,Rx,0,8,FE,01,00,BC,F2,CA,AB,7F,
-1666949213675887,12DD5472,true,Rx,0,8,00,00,00,00,00,00,00,00,
-1666949213675674,00000565,false,Rx,0,8,00,50,00,00,0C,08,80,FF,
-1666949213675375,1A555490,true,Rx,0,8,AA,AA,08,94,A2,2A,AA,02,
-1666949213675119,1A555491,true,Rx,0,8,AA,AA,AA,01,00,00,00,80,
-1666949213580998,00000566,false,Rx,0,8,E6,10,FE,01,FA,07,00,00,
-1666949213576177,0000038B,false,Rx,0,8,FE,01,00,BC,F2,CA,AB,7F,
-1666949213480946,00000566,false,Rx,0,8,B8,11,FE,01,FA,07,00,00,
-1666949213476125,0000038B,false,Rx,0,8,FE,01,00,BC,F2,CA,AB,7F,
-1666949213380937,00000566,false,Rx,0,8,3C,12,FE,01,FA,07,00,00,
-1666949213376116,0000038B,false,Rx,0,8,FE,01,00,BC,F2,CA,AB,7F,
-1666949213280910,00000566,false,Rx,0,8,FA,13,FE,01,FA,07,00,00,
-1666949213276089,0000038B,false,Rx,0,8,FE,01,00,BC,F2,CA,AB,7F,
-1666949213180901,00000566,false,Rx,0,8,77,14,FE,01,FA,07,00,00,
-1666949213176080,0000038B,false,Rx,0,8,FE,01,00,BC,F2,CA,AB,7F,
-1666949213175781,12DD5472,true,Rx,0,8,00,00,00,00,00,00,00,00,
-1666949213175525,00000565,false,Rx,0,8,00,50,00,00,0C,08,80,FF,
-1666949213175312,0000067E,false,Rx,0,8,9E,03,00,00,3B,00,00,40,
-1666949213175013,1A555457,true,Rx,0,8,02,30,33,30,30,00,00,00,
-1666949213174757,1A555490,true,Rx,0,8,AA,AA,08,94,A2,2A,AA,02,
-1666949213174459,1A555491,true,Rx,0,8,AA,AA,AA,01,00,00,00,80,
-1666949213080849,00000566,false,Rx,0,8,89,15,FE,01,FA,07,00,00,
-1666949213076028,0000038B,false,Rx,0,8,FE,01,00,BC,F2,CA,AB,7F,
-1666949212980840,00000566,false,Rx,0,8,72,16,FE,01,FA,07,00,00,
-1666949212976019,0000038B,false,Rx,0,8,FE,01,00,BC,F2,CA,AB,7F,
-1666949212880789,00000566,false,Rx,0,8,86,17,FE,01,FA,07,00,00,
-1666949212875967,0000038B,false,Rx,0,8,FE,01,00,BC,F2,CA,AB,7F,
-1666949212780779,00000566,false,Rx,0,8,53,18,FE,01,FA,07,00,00,
-1666949212775958,0000038B,false,Rx,0,8,FE,01,00,BC,F2,CA,AB,7F,
-1666949212725911,00000564,false,Rx,0,8,12,03,00,00,FC,1F,2F,FF,
-1666949212680728,00000566,false,Rx,0,8,AB,19,FE,01,FA,07,00,00,
-1666949212675906,0000038B,false,Rx,0,8,FE,01,00,BC,F2,CA,AB,7F,
-1666949212675608,12DD5472,true,Rx,0,8,00,00,00,00,00,00,00,00,
-1666949212675394,00000565,false,Rx,0,8,00,50,00,00,0C,08,80,FF,
-1666949212675096,1A555490,true,Rx,0,8,AA,0A,08,94,A2,2A,A2,02,
-1666949212674840,1A555491,true,Rx,0,8,AA,AA,AA,01,00,00,00,80,
-1666949212580719,00000566,false,Rx,0,8,E4,1A,FE,01,FA,07,00,00,
-1666949212575897,0000038B,false,Rx,0,8,FE,01,00,BC,F2,CA,AB,7F,
-1666949212480667,00000566,false,Rx,0,8,69,1B,FE,01,FA,07,00,00,
-1666949212475846,0000038B,false,Rx,0,8,FE,01,00,BC,F2,CA,AB,7F,
-1666949212380658,00000566,false,Rx,0,8,A8,1C,FE,01,FA,07,00,00,
-1666949212375836,0000038B,false,Rx,0,8,FE,01,00,BC,F2,CA,AB,7F,
-1666949212280576,00000566,false,Rx,0,8,0F,1D,FE,01,FA,07,00,00,
-1666949212275755,0000038B,false,Rx,0,8,FE,01,00,BC,F2,CA,AB,7F,
-1666949212180567,00000566,false,Rx,0,8,91,1E,FE,01,FA,07,00,00,
-1666949212175746,0000038B,false,Rx,0,8,FE,01,00,BC,F2,CA,AB,7F,
-1666949212175447,12DD5472,true,Rx,0,8,00,00,00,00,00,00,00,00,
-1666949212175191,00000565,false,Rx,0,8,00,50,00,00,0C,08,80,FF,
-1666949212174935,0000067E,false,Rx,0,8,8D,04,00,00,3B,00,00,40,
-1666949212174679,1A555457,true,Rx,0,8,03,4B,59,46,41,00,00,00,
-1666949212174423,1A555490,true,Rx,0,8,AA,0A,08,94,A2,2A,A2,02,
-1666949212174124,1A555491,true,Rx,0,8,AA,AA,AA,01,00,00,00,80,
-1666949212080515,00000566,false,Rx,0,8,6C,1F,FE,01,FA,07,00,00,
-1666949212075694,0000038B,false,Rx,0,8,FE,01,00,BC,F2,CA,AB,7F,
-1666949211980506,00000566,false,Rx,0,8,E6,10,FE,01,FA,07,00,00,
-1666949211975685,0000038B,false,Rx,0,8,FE,01,00,BC,F2,CA,AB,7F,
-1666949211880454,00000566,false,Rx,0,8,B8,11,FE,01,FA,07,00,00,
-1666949211875633,0000038B,false,Rx,0,8,FE,01,00,BC,F2,CA,AB,7F,
-1666949211780445,00000566,false,Rx,0,8,3C,12,FE,01,FA,07,00,00,
-1666949211775624,0000038B,false,Rx,0,8,FE,01,00,BC,F2,CA,AB,7F,
-1666949211725577,00000564,false,Rx,0,8,01,04,00,00,FC,1F,2F,FF,
-1666949211680393,00000566,false,Rx,0,8,FA,13,FE,01,FA,07,00,00,
-1666949211675572,0000038B,false,Rx,0,8,FE,01,00,BC,F2,CA,AB,7F,
-1666949211675273,12DD5472,true,Rx,0,8,00,00,00,00,00,00,00,00,
-1666949211675060,00000565,false,Rx,0,8,00,50,00,00,0C,08,80,FF,
-1666949211674761,1A555490,true,Rx,0,8,AA,0A,08,94,A2,2A,A2,02,
-1666949211674505,1A555491,true,Rx,0,8,AA,AA,AA,01,00,00,00,80,
-1666949211580384,00000566,false,Rx,0,8,77,14,FE,01,FA,07,00,00,
-1666949211575563,0000038B,false,Rx,0,8,FE,01,00,BC,F2,CA,AB,7F,
-1666949211480332,00000566,false,Rx,0,8,89,15,FE,01,FA,07,00,00,
-1666949211475511,0000038B,false,Rx,0,8,FE,01,00,BC,F2,CA,AB,7F,
-1666949211380323,00000566,false,Rx,0,8,72,16,FE,01,FA,07,00,00,
-1666949211375502,0000038B,false,Rx,0,8,FE,01,00,BC,F2,CA,AB,7F,
-1666949211280249,00000566,false,Rx,0,8,86,17,FE,01,FA,07,00,00,
-1666949211275427,0000038B,false,Rx,0,8,FE,01,00,BC,F2,CA,AB,7F,
-1666949211180239,00000566,false,Rx,0,8,53,18,FE,01,FA,07,00,00,
-1666949211175418,0000038B,false,Rx,0,8,FE,01,00,BC,F2,CA,AB,7F,
-1666949211175120,12DD5472,true,Rx,0,8,00,00,00,00,00,00,00,00,
-1666949211174864,00000565,false,Rx,0,8,00,50,00,00,0C,08,80,FF,
-1666949211174650,0000067E,false,Rx,0,8,E9,05,00,00,3B,00,00,40,
-1666949211174352,1A555457,true,Rx,0,8,00,35,51,45,36,00,00,00,
-1666949211174096,1A555490,true,Rx,0,8,AA,0A,08,94,A2,2A,62,02,
-1666949211173797,1A555491,true,Rx,0,8,AA,AA,AA,01,00,00,00,80,
-1666949211080188,00000566,false,Rx,0,8,AB,19,FE,01,FA,07,00,00,
-1666949211075366,0000038B,false,Rx,0,8,FE,01,00,BC,F2,CA,AB,7F,
-1666949210980179,00000566,false,Rx,0,8,E4,1A,FE,01,FA,07,00,00,
-1666949210975357,0000038B,false,Rx,0,8,FE,01,00,BC,F2,CA,AB,7F,
-1666949210880127,00000566,false,Rx,0,8,69,1B,FE,01,FA,07,00,00,
-1666949210875306,0000038B,false,Rx,0,8,FE,01,00,BC,F2,CA,AB,7F,
-1666949210780118,00000566,false,Rx,0,8,A8,1C,FE,01,FA,07,00,00,
-1666949210775296,0000038B,false,Rx,0,8,FE,01,00,BC,F2,CA,AB,7F,
-1666949210725249,00000564,false,Rx,0,8,65,05,00,00,FC,1F,2F,FF,
-1666949210680066,00000566,false,Rx,0,8,0F,1D,FE,01,FA,07,00,00,
-1666949210675245,0000038B,false,Rx,0,8,FE,01,00,BC,F2,CA,AB,7F,
-1666949210674946,12DD5472,true,Rx,0,8,00,00,00,00,00,00,00,00,
-1666949210674733,00000565,false,Rx,0,8,00,50,00,00,0C,08,80,FF,
-1666949210674434,1A555490,true,Rx,0,8,AA,0A,00,94,22,2A,60,00,
-1666949210674178,1A555491,true,Rx,0,8,AA,AA,AA,01,00,00,00,80,
-1666949210580057,00000566,false,Rx,0,8,91,1E,FE,01,FA,07,00,00,
-1666949210575236,0000038B,false,Rx,0,8,FE,01,00,BC,F2,CA,AB,7F,
-1666949210480005,00000566,false,Rx,0,8,6C,1F,FE,01,FA,07,00,00,
-1666949210475184,0000038B,false,Rx,0,8,FE,01,00,BC,F2,CA,AB,7F,
-1666949210379996,00000566,false,Rx,0,8,E6,10,FE,01,FA,07,00,00,
-1666949210375175,0000038B,false,Rx,0,8,FE,01,00,BC,F2,CA,AB,7F,
-1666949210280044,00000566,false,Rx,0,8,B8,11,FE,01,FA,07,00,00,
-1666949210275223,0000038B,false,Rx,0,8,FE,01,00,BC,F2,CA,AB,7F,
-1666949210180035,00000566,false,Rx,0,8,3C,12,FE,01,FA,07,00,00,
-1666949210175214,0000038B,false,Rx,0,8,FE,01,00,BC,F2,CA,AB,7F,
-1666949210174915,12DD5472,true,Rx,0,8,00,00,00,00,00,00,00,00,
-1666949210174659,00000565,false,Rx,0,8,00,50,00,00,0C,08,80,FF,
-1666949210174446,0000067E,false,Rx,0,8,45,06,00,00,3B,00,00,40,
-1666949210174147,1A555457,true,Rx,0,8,01,38,32,41,4B,00,00,00,
-1666949210173891,1A555490,true,Rx,0,8,AA,0A,00,94,22,1A,60,00,
-1666949210173593,1A555491,true,Rx,0,8,AA,AA,AA,01,00,00,00,80,
-1666949210079983,00000566,false,Rx,0,8,FA,13,FE,01,FA,07,00,00,
-1666949210075162,0000038B,false,Rx,0,8,FE,01,00,BC,F2,CA,AB,7F,
-1666949210029979,00000565,false,Rx,0,8,00,50,00,00,04,08,80,FF,
-1666949209979974,00000566,false,Rx,0,8,77,14,FE,01,FA,07,00,00,
-1666949209975153,0000038B,false,Rx,0,8,FE,01,00,BC,F2,CA,AB,7F,
-1666949209879922,00000566,false,Rx,0,8,89,15,FE,01,FA,07,00,00,
-1666949209875101,0000038B,false,Rx,0,8,FE,01,00,BC,F2,CA,AB,7F,
-1666949209779913,00000566,false,Rx,0,8,72,16,FE,01,FA,07,00,00,
-1666949209775092,0000038B,false,Rx,0,8,FE,01,00,BC,F2,CA,AB,7F,
-1666949209725045,00000564,false,Rx,0,8,C9,06,00,00,FC,1F,2F,FF,
-1666949209679862,00000566,false,Rx,0,8,86,17,FE,01,FA,07,00,00,
-1666949209675040,0000038B,false,Rx,0,8,FE,01,00,BC,F2,CA,AB,7F,
-1666949209674784,12DD5472,true,Rx,0,8,00,00,00,00,00,00,00,00,
-1666949209674528,00000565,false,Rx,0,8,00,50,00,00,04,08,80,FF,
-1666949209674230,1A555490,true,Rx,0,8,2A,0A,00,94,22,10,60,00,
-1666949209673974,1A555491,true,Rx,0,8,40,AA,AA,01,00,00,00,80,
-1666949209579852,00000566,false,Rx,0,8,53,18,FE,01,FA,07,00,00,
-1666949209575031,0000038B,false,Rx,0,8,FE,01,00,BC,F2,CA,AB,7F,
-1666949209479801,00000566,false,Rx,0,8,AB,19,FE,01,FA,07,00,00,
-1666949209474979,0000038B,false,Rx,0,8,FE,01,00,BC,F2,CA,AB,7F,
-1666949209379792,00000566,false,Rx,0,8,E4,1A,FE,01,FA,07,00,00,
-1666949209374970,0000038B,false,Rx,0,8,FE,01,00,BC,F2,CA,AB,7F,
-1666949209279725,00000566,false,Rx,0,8,69,1B,FE,01,FA,07,00,00,
-1666949209274904,0000038B,false,Rx,0,8,FE,01,00,BC,F2,CA,AB,7F,
-1666949209179716,00000566,false,Rx,0,8,A8,1C,FE,01,FA,07,00,00,
-1666949209174894,0000038B,false,Rx,0,8,FE,01,00,BC,F2,CA,AB,7F,
-1666949209174596,12DD5472,true,Rx,0,8,00,00,00,00,00,00,00,00,
-1666949209174340,00000565,false,Rx,0,8,00,50,00,00,04,08,80,FF,
-1666949209174126,0000067E,false,Rx,0,8,21,07,00,00,3B,00,00,40,
-1666949209173828,1A555457,true,Rx,0,8,02,30,33,30,30,00,00,00,
-1666949209173572,1A555490,true,Rx,0,8,2A,0A,00,94,22,10,60,00,
-1666949209173273,1A555491,true,Rx,0,8,40,AA,AA,01,00,00,00,80,
-1666949209079707,00000566,false,Rx,0,8,0F,1D,FE,01,FA,07,00,00,
-1666949209074843,0000038B,false,Rx,0,8,FE,01,00,BC,F2,CA,AB,7F,
-1666949208979655,00000566,false,Rx,0,8,91,1E,FE,01,FA,07,00,00,
-1666949208974834,0000038B,false,Rx,0,8,FE,01,00,BC,F2,CA,AB,7F,
-1666949208879646,00000566,false,Rx,0,8,6C,1F,FE,01,FA,07,00,00,
-1666949208874824,0000038B,false,Rx,0,8,FE,01,00,BC,F2,CA,AB,7F,
-1666949208779594,00000566,false,Rx,0,8,E6,10,FE,01,FA,07,00,00,
-1666949208774773,0000038B,false,Rx,0,8,FE,01,00,BC,F2,CA,AB,7F,
-1666949208724725,00000564,false,Rx,0,8,AD,07,00,00,FC,1F,2F,FF,
-1666949208679585,00000566,false,Rx,0,8,B8,11,FE,01,FA,07,00,00,
-1666949208674764,0000038B,false,Rx,0,8,FE,01,00,BC,F2,CA,AB,7F,
-1666949208674465,12DD5472,true,Rx,0,8,00,00,00,00,00,00,00,00,
-1666949208674209,00000565,false,Rx,0,8,00,50,00,00,04,08,80,FF,
-1666949208673953,1A555490,true,Rx,0,8,2A,0A,00,94,22,10,60,00,
-1666949208673654,1A555491,true,Rx,0,8,40,AA,AA,01,00,00,00,80,
-1666949208579533,00000566,false,Rx,0,8,3C,12,FE,01,FA,07,00,00,
-1666949208574712,0000038B,false,Rx,0,8,FE,01,00,BC,F2,CA,AB,7F,
-1666949208479524,00000566,false,Rx,0,8,FA,13,FE,01,FA,07,00,00,
-1666949208474703,0000038B,false,Rx,0,8,FE,01,00,BC,F2,CA,AB,7F,
-1666949208379472,00000566,false,Rx,0,8,77,14,FE,01,FA,07,00,00,
-1666949208374651,0000038B,false,Rx,0,8,FE,01,00,BC,F2,CA,AB,7F,
-1666949208279563,00000566,false,Rx,0,8,89,15,FE,01,FA,07,00,00,
-1666949208274742,0000038B,false,Rx,0,8,FE,01,00,BC,F2,CA,AB,7F,
-1666949208179511,00000566,false,Rx,0,8,72,16,FE,01,FA,07,00,00,
-1666949208174690,0000038B,false,Rx,0,8,FE,01,00,BC,F2,CA,AB,7F,
-1666949208174391,12DD5472,true,Rx,0,8,00,00,00,00,00,00,00,00,
-1666949208174178,00000565,false,Rx,0,8,00,50,00,00,04,08,80,FF,
-1666949208173922,0000067E,false,Rx,0,8,63,08,00,00,3B,00,00,40,
-1666949208173666,1A555457,true,Rx,0,8,03,4B,59,46,41,00,00,00,
-1666949208173367,1A555490,true,Rx,0,8,2A,0A,00,94,22,10,60,00,
-1666949208173111,1A555491,true,Rx,0,8,40,AA,AA,01,00,00,00,80,
-1666949208079502,00000566,false,Rx,0,8,86,17,FE,01,FA,07,00,00,
-1666949208074681,0000038B,false,Rx,0,8,FE,01,00,BC,F2,CA,AB,7F,
-1666949207979450,00000566,false,Rx,0,8,53,18,FE,01,FA,07,00,00,
-1666949207974629,0000038B,false,Rx,0,8,FE,01,00,BC,F2,CA,AB,7F,
-1666949207879441,00000566,false,Rx,0,8,AB,19,FE,01,FA,07,00,00,
-1666949207874620,0000038B,false,Rx,0,8,FE,01,00,BC,F2,CA,AB,7F,
-1666949207778536,00000566,false,Rx,0,8,E4,1A,FE,01,FA,07,00,00,
-1666949207773587,0000038B,false,Rx,0,8,FE,01,00,BC,F2,CA,AB,7F,
-1666949207723540,00000564,false,Rx,0,8,EF,08,00,00,FC,1F,2F,FF,
-1666949207678527,00000566,false,Rx,0,8,69,1B,FE,01,FA,07,00,00,
-1666949207673535,0000038B,false,Rx,0,8,FE,01,00,BC,F2,CA,AB,7F,
-1666949207673279,12DD5472,true,Rx,0,8,00,00,00,00,00,00,00,00,
-1666949207673023,00000565,false,Rx,0,8,00,50,00,00,04,08,80,FF,
-1666949207672725,1A555490,true,Rx,0,8,2A,0A,00,94,22,10,60,00,
-1666949207672469,1A555491,true,Rx,0,8,40,AA,AA,01,00,00,00,80,
-1666949207578475,00000566,false,Rx,0,8,A8,1C,FE,01,FA,07,00,00,
-1666949207573526,0000038B,false,Rx,0,8,FE,01,00,BC,F2,CA,AB,7F,
-1666949207478466,00000566,false,Rx,0,8,0F,1D,FE,01,FA,07,00,00,
-1666949207473474,0000038B,false,Rx,0,8,FE,01,00,BC,F2,CA,AB,7F,
-1666949207378457,00000566,false,Rx,0,8,91,1E,FE,01,FA,07,00,00,
-1666949207373565,0000038B,false,Rx,0,8,FE,01,00,BC,F2,CA,AB,7F,
-1666949207278505,00000566,false,Rx,0,8,6C,1F,FE,01,FA,07,00,00,
-1666949207273514,0000038B,false,Rx,0,8,FE,01,00,BC,F2,CA,AB,7F,
-1666949207178496,00000566,false,Rx,0,8,E6,10,FE,01,FA,07,00,00,
-1666949207173504,0000038B,false,Rx,0,8,FE,01,00,BC,F2,CA,AB,7F,
-1666949207173206,12DD5472,true,Rx,0,8,00,00,00,00,00,00,00,00,
-1666949207172992,00000565,false,Rx,0,8,00,50,00,00,04,08,80,FF,
-1666949207172736,0000067E,false,Rx,0,8,07,09,00,00,3B,00,00,40,
-1666949207172438,1A555457,true,Rx,0,8,00,35,51,45,36,00,00,00,
-1666949207172182,1A555490,true,Rx,0,8,2A,0A,00,94,22,10,60,00,
-1666949207171883,1A555491,true,Rx,0,8,40,AA,AA,01,00,00,00,80,
-1666949207078445,00000566,false,Rx,0,8,B8,11,FE,01,FA,07,00,00,
-1666949207073495,0000038B,false,Rx,0,8,FE,01,00,BC,F2,CA,AB,7F,
-1666949206978435,00000566,false,Rx,0,8,3C,12,FE,01,FA,07,00,00,
-1666949206973444,0000038B,false,Rx,0,8,FE,01,00,BC,F2,CA,AB,7F,
-1666949206878384,00000566,false,Rx,0,8,FA,13,FE,01,FA,07,00,00,
-1666949206873434,0000038B,false,Rx,0,8,FE,01,00,BC,F2,CA,AB,7F,
-1666949206778375,00000566,false,Rx,0,8,77,14,FE,01,FA,07,00,00,
-1666949206773383,0000038B,false,Rx,0,8,FE,01,00,BC,F2,CA,AB,7F,
-1666949206723378,00000564,false,Rx,0,8,8B,09,00,00,FC,1F,2F,FF,
-1666949206678323,00000566,false,Rx,0,8,89,15,FE,01,FA,07,00,00,
-1666949206673374,0000038B,false,Rx,0,8,FE,01,00,BC,F2,CA,AB,7F,
-1666949206673075,12DD5472,true,Rx,0,8,00,00,00,00,00,00,00,00,
-1666949206672819,00000565,false,Rx,0,8,00,50,00,00,04,08,80,FF,
-1666949206672563,1A555490,true,Rx,0,8,2A,0A,00,94,22,10,60,00,
-1666949206672264,1A555491,true,Rx,0,8,40,AA,AA,01,00,00,00,80,
-1666949206578314,00000566,false,Rx,0,8,72,16,FE,01,FA,07,00,00,
-1666949206573322,0000038B,false,Rx,0,8,FE,01,00,BC,F2,CA,AB,7F,
-1666949206478262,00000566,false,Rx,0,8,86,17,FE,01,FA,07,00,00,
-1666949206473313,0000038B,false,Rx,0,8,FE,01,00,BC,F2,CA,AB,7F,
-1666949206378253,00000566,false,Rx,0,8,53,18,FE,01,FA,07,00,00,
-1666949206373278,0000038B,false,Rx,0,8,FE,01,00,BC,F2,CA,AB,7F,
-1666949206278261,00000566,false,Rx,0,8,AB,19,FE,01,FA,07,00,00,
-1666949206273269,0000038B,false,Rx,0,8,FE,01,00,BC,F2,CA,AB,7F,
-1666949206178209,00000566,false,Rx,0,8,E4,1A,FE,01,FA,07,00,00,
-1666949206173217,0000038B,false,Rx,0,8,FE,01,00,BC,F2,CA,AB,7F,
-1666949206172961,12DD5472,true,Rx,0,8,00,00,00,00,00,00,00,00,
-1666949206172705,00000565,false,Rx,0,8,00,50,00,00,04,08,80,FF,
-1666949206172449,0000067E,false,Rx,0,8,AB,0A,00,00,3B,00,00,40,
-1666949206172193,1A555457,true,Rx,0,8,01,38,32,41,4B,00,00,00,
-1666949206171894,1A555490,true,Rx,0,8,2A,0A,00,94,22,10,60,00,
-1666949206171638,1A555491,true,Rx,0,8,40,AA,AA,01,00,00,00,80,
-1666949206078157,00000566,false,Rx,0,8,69,1B,FE,01,FA,07,00,00,
-1666949206073208,0000038B,false,Rx,0,8,FE,01,00,BC,F2,CA,AB,7F,
-1666949205978148,00000566,false,Rx,0,8,A8,1C,FE,01,FA,07,00,00,
-1666949205973156,0000038B,false,Rx,0,8,FE,01,00,BC,F2,CA,AB,7F,
-1666949205878139,00000566,false,Rx,0,8,0F,1D,FE,01,FA,07,00,00,
-1666949205873147,0000038B,false,Rx,0,8,FE,01,00,BC,F2,CA,AB,7F,
-1666949205778087,00000566,false,Rx,0,8,91,1E,FE,01,FA,07,00,00,
-1666949205773138,0000038B,false,Rx,0,8,FE,01,00,BC,F2,CA,AB,7F,
-1666949205723091,00000564,false,Rx,0,8,27,0A,00,00,FC,1F,2F,FF,
-1666949205678078,00000566,false,Rx,0,8,6C,1F,FE,01,FA,07,00,00,
-1666949205673086,0000038B,false,Rx,0,8,FE,01,00,BC,F2,CA,AB,7F,
-1666949205672788,12DD5472,true,Rx,0,8,00,00,00,00,00,00,00,00,
-1666949205672574,00000565,false,Rx,0,8,00,50,00,00,04,08,80,FF,
-1666949205672276,1A555490,true,Rx,0,8,2A,0A,00,94,22,10,60,00,
-1666949205671977,1A555491,true,Rx,0,8,40,AA,AA,01,00,00,00,80,
-1666949205578026,00000566,false,Rx,0,8,E6,10,FE,01,FA,07,00,00,
-1666949205573077,0000038B,false,Rx,0,8,FE,01,00,BC,F2,CA,AB,7F,
-1666949205478017,00000566,false,Rx,0,8,B8,11,FE,01,FA,07,00,00,
-1666949205473025,0000038B,false,Rx,0,8,FE,01,00,BC,F2,CA,AB,7F,
-1666949205377965,00000566,false,Rx,0,8,3C,12,FE,01,FA,07,00,00,
-1666949205372986,0000038B,false,Rx,0,8,FE,01,00,BC,F2,CA,AB,7F,
-1666949205277926,00000566,false,Rx,0,8,FA,13,FE,01,FA,07,00,00,
-1666949205272934,0000038B,false,Rx,0,8,FE,01,00,BC,F2,CA,AB,7F,
-1666949205177875,00000566,false,Rx,0,8,77,14,FE,01,FA,07,00,00,
-1666949205172925,0000038B,false,Rx,0,8,FE,01,00,BC,F2,CA,AB,7F,
-1666949205172627,12DD5472,true,Rx,0,8,00,00,00,00,00,00,00,00,
-1666949205172371,00000565,false,Rx,0,8,00,50,00,00,04,08,80,FF,
-1666949205172157,0000067E,false,Rx,0,8,CF,0B,00,00,3B,00,00,40,
-1666949205171859,1A555457,true,Rx,0,8,02,30,33,30,30,00,00,00,
-1666949205171603,1A555490,true,Rx,0,8,2A,0A,00,94,22,10,60,00,
-1666949205171304,1A555491,true,Rx,0,8,40,AA,AA,01,00,00,00,80,
-1666949205077865,00000566,false,Rx,0,8,89,15,FE,01,FA,07,00,00,
-1666949205072874,0000038B,false,Rx,0,8,FE,01,00,BC,F2,CA,AB,7F,
-1666949204977814,00000566,false,Rx,0,8,72,16,FE,01,FA,07,00,00,
-1666949204972864,0000038B,false,Rx,0,8,FE,01,00,BC,F2,CA,AB,7F,
-1666949204877805,00000566,false,Rx,0,8,86,17,FE,01,FA,07,00,00,
-1666949204872813,0000038B,false,Rx,0,8,FE,01,00,BC,F2,CA,AB,7F,
-1666949204777795,00000566,false,Rx,0,8,53,18,FE,01,FA,07,00,00,
-1666949204772804,0000038B,false,Rx,0,8,FE,01,00,BC,F2,CA,AB,7F,
-1666949204722756,00000564,false,Rx,0,8,43,0B,00,00,FC,1F,2F,FF,
-1666949204677744,00000566,false,Rx,0,8,AB,19,FE,01,FA,07,00,00,
-1666949204672752,0000038B,false,Rx,0,8,FE,01,00,BC,F2,CA,AB,7F,
-1666949204672496,12DD5472,true,Rx,0,8,00,00,00,00,00,00,00,00,
-1666949204672240,00000565,false,Rx,0,8,00,50,00,00,04,08,80,FF,
-1666949204671941,1A555490,true,Rx,0,8,2A,0A,00,94,22,10,60,00,
-1666949204671685,1A555491,true,Rx,0,8,40,AA,AA,01,00,00,00,80,
-1666949204577735,00000566,false,Rx,0,8,E4,1A,FE,01,FA,07,00,00,
-1666949204572743,0000038B,false,Rx,0,8,FE,01,00,BC,F2,CA,AB,7F,
-1666949204477683,00000566,false,Rx,0,8,69,1B,FE,01,FA,07,00,00,
-1666949204472734,0000038B,false,Rx,0,8,FE,01,00,BC,F2,CA,AB,7F,
-1666949204377674,00000566,false,Rx,0,8,A8,1C,FE,01,FA,07,00,00,
-1666949204372782,0000038B,false,Rx,0,8,FE,01,00,BC,F2,CA,AB,7F,
-1666949204277722,00000566,false,Rx,0,8,0F,1D,FE,01,FA,07,00,00,
-1666949204272773,0000038B,false,Rx,0,8,FE,01,00,BC,F2,CA,AB,7F,
-1666949204177713,00000566,false,Rx,0,8,91,1E,FE,01,FA,07,00,00,
-1666949204172721,0000038B,false,Rx,0,8,FE,01,00,BC,F2,CA,AB,7F,
-1666949204172422,12DD5472,true,Rx,0,8,00,00,00,00,00,00,00,00,
-1666949204172209,00000565,false,Rx,0,8,00,50,00,00,04,08,80,FF,
-1666949204171953,0000067E,false,Rx,0,8,DC,0C,00,00,3B,00,00,40,
-1666949204171697,1A555457,true,Rx,0,8,03,4B,59,46,41,00,00,00,
-1666949204171398,1A555490,true,Rx,0,8,2A,0A,00,94,22,10,60,00,
-1666949204171100,1A555491,true,Rx,0,8,40,AA,AA,01,00,00,00,80,
-1666949204077661,00000566,false,Rx,0,8,6C,1F,FE,01,FA,07,00,00,
-1666949204072712,0000038B,false,Rx,0,8,FE,01,00,BC,F2,CA,AB,7F,
-1666949203977652,00000566,false,Rx,0,8,E6,10,FE,01,FA,07,00,00,
-1666949203972660,0000038B,false,Rx,0,8,FE,01,00,BC,F2,CA,AB,7F,
-1666949203877600,00000566,false,Rx,0,8,B8,11,FE,01,FA,07,00,00,
-1666949203872651,0000038B,false,Rx,0,8,FE,01,00,BC,F2,CA,AB,7F,
-1666949203777591,00000566,false,Rx,0,8,3C,12,FE,01,FA,07,00,00,
-1666949203772599,0000038B,false,Rx,0,8,FE,01,00,BC,F2,CA,AB,7F,
-1666949203722595,00000564,false,Rx,0,8,50,0C,00,00,FC,1F,2F,FF,
-1666949203677539,00000566,false,Rx,0,8,FA,13,FE,01,FA,07,00,00,
-1666949203672590,0000038B,false,Rx,0,8,FE,01,00,BC,F2,CA,AB,7F,
-1666949203672291,12DD5472,true,Rx,0,8,00,00,00,00,00,00,00,00,
-1666949203672035,00000565,false,Rx,0,8,00,50,00,00,04,08,80,FF,
-1666949203671779,1A555490,true,Rx,0,8,2A,0A,00,94,22,10,60,00,
-1666949203671481,1A555491,true,Rx,0,8,40,AA,AA,01,00,00,00,80,
-1666949203577530,00000566,false,Rx,0,8,77,14,FE,01,FA,07,00,00,
-1666949203572538,0000038B,false,Rx,0,8,FE,01,00,BC,F2,CA,AB,7F,
-1666949203477521,00000566,false,Rx,0,8,89,15,FE,01,FA,07,00,00,
-1666949203472529,0000038B,false,Rx,0,8,FE,01,00,BC,F2,CA,AB,7F,
-1666949203377469,00000566,false,Rx,0,8,72,16,FE,01,FA,07,00,00,
-1666949203372537,0000038B,false,Rx,0,8,FE,01,00,BC,F2,CA,AB,7F,
-1666949203277477,00000566,false,Rx,0,8,86,17,FE,01,FA,07,00,00,
-1666949203272485,0000038B,false,Rx,0,8,FE,01,00,BC,F2,CA,AB,7F,
-1666949203177426,00000566,false,Rx,0,8,53,18,FE,01,FA,07,00,00,
-1666949203172476,0000038B,false,Rx,0,8,FE,01,00,BC,F2,CA,AB,7F,
-1666949203172178,12DD5472,true,Rx,0,8,00,00,00,00,00,00,00,00,
-1666949203171922,00000565,false,Rx,0,8,00,50,00,00,04,08,80,FF,
-1666949203171666,0000067E,false,Rx,0,8,B8,0D,00,00,3B,00,00,40,
-1666949203171410,1A555457,true,Rx,0,8,00,35,51,45,36,00,00,00,
-1666949203171154,1A555490,true,Rx,0,8,2A,0A,00,94,22,10,60,00,
-1666949203170855,1A555491,true,Rx,0,8,40,AA,AA,01,00,00,00,80,
-1666949203077416,00000566,false,Rx,0,8,AB,19,FE,01,FA,07,00,00,
-1666949203072424,0000038B,false,Rx,0,8,FE,01,00,BC,F2,CA,AB,7F,
-1666949202977365,00000566,false,Rx,0,8,E4,1A,FE,01,FA,07,00,00,
-1666949202972415,0000038B,false,Rx,0,8,FE,01,00,BC,F2,CA,AB,7F,
-1666949202877356,00000566,false,Rx,0,8,69,1B,FE,01,FA,07,00,00,
-1666949202872364,0000038B,false,Rx,0,8,FE,01,00,BC,F2,CA,AB,7F,
-1666949202777304,00000566,false,Rx,0,8,A8,1C,FE,01,FA,07,00,00,
-1666949202772355,0000038B,false,Rx,0,8,FE,01,00,BC,F2,CA,AB,7F,
-1666949202722307,00000564,false,Rx,0,8,34,0D,00,00,FC,1F,2F,FF,
-1666949202677295,00000566,false,Rx,0,8,0F,1D,FE,01,FA,07,00,00,
-1666949202672303,0000038B,false,Rx,0,8,FE,01,00,BC,F2,CA,AB,7F,
-1666949202672004,12DD5472,true,Rx,0,8,00,00,00,00,00,00,00,00,
-1666949202671791,00000565,false,Rx,0,8,00,50,00,00,04,08,80,FF,
-1666949202671492,1A555490,true,Rx,0,8,2A,0A,00,94,22,10,60,00,
-1666949202671236,1A555491,true,Rx,0,8,40,AA,AA,01,00,00,00,80,
-1666949202577286,00000566,false,Rx,0,8,91,1E,FE,01,FA,07,00,00,
-1666949202572294,0000038B,false,Rx,0,8,FE,01,00,BC,F2,CA,AB,7F,
-1666949202477234,00000566,false,Rx,0,8,6C,1F,FE,01,FA,07,00,00,
-1666949202472242,0000038B,false,Rx,0,8,FE,01,00,BC,F2,CA,AB,7F,
-1666949202377225,00000566,false,Rx,0,8,E6,10,FE,01,FA,07,00,00,
-1666949202372333,0000038B,false,Rx,0,8,FE,01,00,BC,F2,CA,AB,7F,
-1666949202277273,00000566,false,Rx,0,8,B8,11,FE,01,FA,07,00,00,
-1666949202272324,0000038B,false,Rx,0,8,FE,01,00,BC,F2,CA,AB,7F,
-1666949202177264,00000566,false,Rx,0,8,3C,12,FE,01,FA,07,00,00,
-1666949202172272,0000038B,false,Rx,0,8,FE,01,00,BC,F2,CA,AB,7F,
-1666949202171973,12DD5472,true,Rx,0,8,00,00,00,00,00,00,00,00,
-1666949202171760,00000565,false,Rx,0,8,00,50,00,00,04,08,80,FF,
-1666949202171504,0000067E,false,Rx,0,8,14,0E,00,00,3B,00,00,40,
-1666949202171205,1A555457,true,Rx,0,8,01,38,32,41,4B,00,00,00,
-1666949202170949,1A555490,true,Rx,0,8,2A,0A,00,94,22,10,60,00,
-1666949202170651,1A555491,true,Rx,0,8,40,AA,AA,01,00,00,00,80,
-1666949202077212,00000566,false,Rx,0,8,FA,13,FE,01,FA,07,00,00,
-1666949202072263,0000038B,false,Rx,0,8,FE,01,00,BC,F2,CA,AB,7F,
-1666949201977203,00000566,false,Rx,0,8,77,14,FE,01,FA,07,00,00,
-1666949201972211,0000038B,false,Rx,0,8,FE,01,00,BC,F2,CA,AB,7F,
-1666949201877151,00000566,false,Rx,0,8,89,15,FE,01,FA,07,00,00,
-1666949201872202,0000038B,false,Rx,0,8,FE,01,00,BC,F2,CA,AB,7F,
-1666949201777142,00000566,false,Rx,0,8,72,16,FE,01,FA,07,00,00,
-1666949201772150,0000038B,false,Rx,0,8,FE,01,00,BC,F2,CA,AB,7F,
-1666949201722146,00000564,false,Rx,0,8,98,0E,00,00,FC,1F,2F,FF,
-1666949201677090,00000566,false,Rx,0,8,86,17,FE,01,FA,07,00,00,
-1666949201672141,0000038B,false,Rx,0,8,FE,01,00,BC,F2,CA,AB,7F,
-1666949201671842,12DD5472,true,Rx,0,8,00,00,00,00,00,00,00,00,
-1666949201671586,00000565,false,Rx,0,8,00,50,00,00,04,08,80,FF,
-1666949201671330,1A555490,true,Rx,0,8,6A,0A,00,94,22,10,60,00,
-1666949201671032,1A555491,true,Rx,0,8,40,AA,AA,01,00,00,00,80,
-1666949201577081,00000566,false,Rx,0,8,53,18,FE,01,FA,07,00,00,
-1666949201572089,0000038B,false,Rx,0,8,FE,01,00,BC,F2,CA,AB,7F,
-1666949201477072,00000566,false,Rx,0,8,AB,19,FE,01,FA,07,00,00,
-1666949201472080,0000038B,false,Rx,0,8,FE,01,00,BC,F2,CA,AB,7F,
-1666949201377020,00000566,false,Rx,0,8,E4,1A,FE,01,FA,07,00,00,
-1666949201372082,0000038B,false,Rx,0,8,FE,01,00,BC,F2,CA,AB,7F,
-1666949201277065,00000566,false,Rx,0,8,69,1B,FE,01,FA,07,00,00,
-1666949201272073,0000038B,false,Rx,0,8,FE,01,00,BC,F2,CA,AB,7F,
-1666949201177013,00000566,false,Rx,0,8,A8,1C,FE,01,FA,07,00,00,
-1666949201172064,0000038B,false,Rx,0,8,FE,01,00,BC,F2,CA,AB,7F,
-1666949201171766,12DD5472,true,Rx,0,8,00,00,00,00,00,00,00,00,
-1666949201171510,00000565,false,Rx,0,8,00,50,00,00,04,08,80,FF,
-1666949201171254,0000067E,false,Rx,0,8,70,0F,00,00,3B,00,00,40,
-1666949201170998,1A555457,true,Rx,0,8,02,30,33,30,30,00,00,00,
-1666949201170699,1A555490,true,Rx,0,8,6A,0A,00,94,22,10,60,00,
-1666949201170443,1A555491,true,Rx,0,8,40,AA,AA,01,00,00,00,80,
-1666949201077004,00000566,false,Rx,0,8,0F,1D,FE,01,FA,07,00,00,
-1666949201072012,0000038B,false,Rx,0,8,FE,01,00,BC,F2,CA,AB,7F,
-1666949200976953,00000566,false,Rx,0,8,91,1E,FE,01,FA,07,00,00,
-1666949200972003,0000038B,false,Rx,0,8,FE,01,00,BC,F2,CA,AB,7F,
-1666949200876943,00000566,false,Rx,0,8,6C,1F,FE,01,FA,07,00,00,
-1666949200871952,0000038B,false,Rx,0,8,FE,01,00,BC,F2,CA,AB,7F,
-1666949200776892,00000566,false,Rx,0,8,E6,10,FE,01,FA,07,00,00,
-1666949200771942,0000038B,false,Rx,0,8,FE,01,00,BC,F2,CA,AB,7F,
-1666949200721895,00000564,false,Rx,0,8,FC,0F,00,00,FC,1F,2F,FF,
-1666949200676883,00000566,false,Rx,0,8,B8,11,FE,01,FA,07,00,00,
-1666949200671891,0000038B,false,Rx,0,8,FE,01,00,BC,F2,CA,AB,7F,
-1666949200671592,12DD5472,true,Rx,0,8,00,00,00,00,00,00,00,00,
-1666949200671379,00000565,false,Rx,0,8,00,50,00,00,04,08,80,FF,
-1666949200671080,1A555490,true,Rx,0,8,6A,0A,00,94,22,10,60,00,
-1666949200670824,1A555491,true,Rx,0,8,40,AA,AA,01,00,00,00,80,
-1666949200576831,00000566,false,Rx,0,8,3C,12,FE,01,FA,07,00,00,
-1666949200571882,0000038B,false,Rx,0,8,FE,01,00,BC,F2,CA,AB,7F,
-1666949200476822,00000566,false,Rx,0,8,FA,13,FE,01,FA,07,00,00,
-1666949200471830,0000038B,false,Rx,0,8,FE,01,00,BC,F2,CA,AB,7F,
-1666949200376813,00000566,false,Rx,0,8,77,14,FE,01,FA,07,00,00,
-1666949200371835,0000038B,false,Rx,0,8,FE,01,00,BC,F2,CA,AB,7F,
-1666949200276775,00000566,false,Rx,0,8,89,15,FE,01,FA,07,00,00,
-1666949200271826,0000038B,false,Rx,0,8,FE,01,00,BC,F2,CA,AB,7F,
-1666949200176766,00000566,false,Rx,0,8,72,16,FE,01,FA,07,00,00,
-1666949200171774,0000038B,false,Rx,0,8,FE,01,00,BC,F2,CA,AB,7F,
-1666949200171475,12DD5472,true,Rx,0,8,00,00,00,00,00,00,00,00,
-1666949200171262,00000565,false,Rx,0,8,00,50,00,00,04,08,80,FF,
-1666949200171006,0000067E,false,Rx,0,8,32,00,00,00,3B,00,00,40,
-1666949200170707,1A555457,true,Rx,0,8,03,4B,59,46,41,00,00,00,
-1666949200170451,1A555490,true,Rx,0,8,6A,0A,00,94,22,10,60,00,
-1666949200170152,1A555491,true,Rx,0,8,40,AA,AA,01,00,00,00,80,
-1666949200076714,00000566,false,Rx,0,8,86,17,FE,01,FA,07,00,00,
-1666949200071765,0000038B,false,Rx,0,8,FE,01,00,BC,F2,CA,AB,7F,
-1666949199976705,00000566,false,Rx,0,8,53,18,FE,01,FA,07,00,00,
-1666949199971713,0000038B,false,Rx,0,8,FE,01,00,BC,F2,CA,AB,7F,
-1666949199876653,00000566,false,Rx,0,8,AB,19,FE,01,FA,07,00,00,
-1666949199871704,0000038B,false,Rx,0,8,FE,01,00,BC,F2,CA,AB,7F,
-1666949199776644,00000566,false,Rx,0,8,E4,1A,FE,01,FA,07,00,00,
-1666949199771652,0000038B,false,Rx,0,8,FE,01,00,BC,F2,CA,AB,7F,
-1666949199721648,00000564,false,Rx,0,8,BE,00,00,00,FC,1F,2F,FF,
-1666949199676592,00000566,false,Rx,0,8,69,1B,FE,01,FA,07,00,00,
-1666949199671643,0000038B,false,Rx,0,8,FE,01,00,BC,F2,CA,AB,7F,
-1666949199671344,12DD5472,true,Rx,0,8,00,00,00,00,00,00,00,00,
-1666949199671088,00000565,false,Rx,0,8,00,50,00,00,04,08,80,FF,
-1666949199670832,1A555490,true,Rx,0,8,6A,0A,00,94,22,10,60,00,
-1666949199670534,1A555491,true,Rx,0,8,40,AA,AA,01,00,00,00,80,
-1666949199576583,00000566,false,Rx,0,8,A8,1C,FE,01,FA,07,00,00,
-1666949199571591,0000038B,false,Rx,0,8,FE,01,00,BC,F2,CA,AB,7F,
-1666949199476574,00000566,false,Rx,0,8,0F,1D,FE,01,FA,07,00,00,
-1666949199471582,0000038B,false,Rx,0,8,FE,01,00,BC,F2,CA,AB,7F,
-1666949199376522,00000566,false,Rx,0,8,91,1E,FE,01,FA,07,00,00,
-1666949199371572,0000038B,false,Rx,0,8,FE,01,00,BC,F2,CA,AB,7F,
-1666949199276512,00000566,false,Rx,0,8,6C,1F,FE,01,FA,07,00,00,
-1666949199271520,0000038B,false,Rx,0,8,FE,01,00,BC,F2,CA,AB,7F,
-1666949199176460,00000566,false,Rx,0,8,E6,10,FE,01,FA,07,00,00,
-1666949199171511,0000038B,false,Rx,0,8,FE,01,00,BC,F2,CA,AB,7F,
-1666949199171212,12DD5472,true,Rx,0,8,00,00,00,00,00,00,00,00,
-1666949199170956,00000565,false,Rx,0,8,00,50,00,00,04,08,80,FF,
-1666949199170700,0000067E,false,Rx,0,8,56,01,00,00,3B,00,00,40,
-1666949199170444,1A555457,true,Rx,0,8,00,35,51,45,36,00,00,00,
-1666949199170188,1A555490,true,Rx,0,8,6A,0A,00,94,22,10,60,00,
-1666949199169890,1A555491,true,Rx,0,8,40,AA,AA,01,00,00,00,80,
-1666949199076451,00000566,false,Rx,0,8,B8,11,FE,01,FA,07,00,00,
-1666949199071459,0000038B,false,Rx,0,8,FE,01,00,BC,F2,CA,AB,7F,
-1666949198976399,00000566,false,Rx,0,8,3C,12,FE,01,FA,07,00,00,
-1666949198971450,0000038B,false,Rx,0,8,FE,01,00,BC,F2,CA,AB,7F,
-1666949198876390,00000566,false,Rx,0,8,FA,13,FE,01,FA,07,00,00,
-1666949198871398,0000038B,false,Rx,0,8,FE,01,00,BC,F2,CA,AB,7F,
-1666949198776339,00000566,false,Rx,0,8,77,14,FE,01,FA,07,00,00,
-1666949198771389,0000038B,false,Rx,0,8,FE,01,00,BC,F2,CA,AB,7F,
-1666949198721342,00000564,false,Rx,0,8,DA,01,00,00,FC,1F,2F,FF,
-1666949198676330,00000566,false,Rx,0,8,89,15,FE,01,FA,07,00,00,
-1666949198671338,0000038B,false,Rx,0,8,FE,01,00,BC,F2,CA,AB,7F,
-1666949198671082,12DD5472,true,Rx,0,8,00,00,00,00,00,00,00,00,
-1666949198670826,00000565,false,Rx,0,8,00,50,00,00,04,08,80,FF,
-1666949198670527,1A555490,true,Rx,0,8,6A,0A,00,94,22,10,60,00,
-1666949198670271,1A555491,true,Rx,0,8,40,AA,AA,01,00,00,00,80,
-1666949198576320,00000566,false,Rx,0,8,72,16,FE,01,FA,07,00,00,
-1666949198571328,0000038B,false,Rx,0,8,FE,01,00,BC,F2,CA,AB,7F,
-1666949198476269,00000566,false,Rx,0,8,86,17,FE,01,FA,07,00,00,
-1666949198471277,0000038B,false,Rx,0,8,FE,01,00,BC,F2,CA,AB,7F,
-1666949198376260,00000566,false,Rx,0,8,53,18,FE,01,FA,07,00,00,
-1666949198371253,0000038B,false,Rx,0,8,FE,01,00,BC,F2,CA,AB,7F,
-1666949198276193,00000566,false,Rx,0,8,AB,19,FE,01,FA,07,00,00,
-1666949198271244,0000038B,false,Rx,0,8,FE,01,00,BC,F2,CA,AB,7F,
-1666949198176184,00000566,false,Rx,0,8,E4,1A,FE,01,FA,07,00,00,
-1666949198171192,0000038B,false,Rx,0,8,FE,01,00,BC,F2,CA,AB,7F,
-1666949198170893,12DD5472,true,Rx,0,8,00,00,00,00,00,00,00,00,
-1666949198170680,00000565,false,Rx,0,8,00,50,00,00,04,08,80,FF,
-1666949198170424,0000067E,false,Rx,0,8,FA,02,00,00,3B,00,00,40,
-1666949198170125,1A555457,true,Rx,0,8,01,38,32,41,4B,00,00,00,
-1666949198169869,1A555490,true,Rx,0,8,6A,0A,00,94,22,10,60,00,
-1666949198169570,1A555491,true,Rx,0,8,40,AA,AA,01,00,00,00,80,
-1666949198076132,00000566,false,Rx,0,8,69,1B,FE,01,FA,07,00,00,
-1666949198071183,0000038B,false,Rx,0,8,FE,01,00,BC,F2,CA,AB,7F,
-1666949197976123,00000566,false,Rx,0,8,A8,1C,FE,01,FA,07,00,00,
-1666949197971131,0000038B,false,Rx,0,8,FE,01,00,BC,F2,CA,AB,7F,
-1666949197876071,00000566,false,Rx,0,8,0F,1D,FE,01,FA,07,00,00,
-1666949197871122,0000038B,false,Rx,0,8,FE,01,00,BC,F2,CA,AB,7F,
-1666949197776062,00000566,false,Rx,0,8,91,1E,FE,01,FA,07,00,00,
-1666949197771070,0000038B,false,Rx,0,8,FE,01,00,BC,F2,CA,AB,7F,
-1666949197721065,00000564,false,Rx,0,8,76,02,00,00,FC,1F,2F,FF,
-1666949197676010,00000566,false,Rx,0,8,6C,1F,FE,01,FA,07,00,00,
-1666949197671061,0000038B,false,Rx,0,8,FE,01,00,BC,F2,CA,AB,7F,
-1666949197670762,12DD5472,true,Rx,0,8,00,00,00,00,00,00,00,00,
-1666949197670506,00000565,false,Rx,0,8,00,50,00,00,04,08,80,FF,
-1666949197670250,1A555490,true,Rx,0,8,6A,0A,00,94,22,10,60,00,
-1666949197669952,1A555491,true,Rx,0,8,40,AA,AA,01,00,00,00,80,
-1666949197576001,00000566,false,Rx,0,8,E6,10,FE,01,FA,07,00,00,
-1666949197571009,0000038B,false,Rx,0,8,FE,01,00,BC,F2,CA,AB,7F,
-1666949197475992,00000566,false,Rx,0,8,B8,11,FE,01,FA,07,00,00,
-1666949197471000,0000038B,false,Rx,0,8,FE,01,00,BC,F2,CA,AB,7F,
-1666949197375940,00000566,false,Rx,0,8,3C,12,FE,01,FA,07,00,00,
-1666949197371091,0000038B,false,Rx,0,8,FE,01,00,BC,F2,CA,AB,7F,
-1666949197276031,00000566,false,Rx,0,8,FA,13,FE,01,FA,07,00,00,
-1666949197271039,0000038B,false,Rx,0,8,FE,01,00,BC,F2,CA,AB,7F,
-1666949197175979,00000566,false,Rx,0,8,77,14,FE,01,FA,07,00,00,
-1666949197171030,0000038B,false,Rx,0,8,FE,01,00,BC,F2,CA,AB,7F,
-1666949197170731,12DD5472,true,Rx,0,8,00,00,00,00,00,00,00,00,
-1666949197170475,00000565,false,Rx,0,8,00,50,00,00,04,08,80,FF,
-1666949197170262,0000067E,false,Rx,0,8,9E,03,00,00,3B,00,00,40,
-1666949197169963,1A555457,true,Rx,0,8,02,30,33,30,30,00,00,00,
-1666949197169707,1A555490,true,Rx,0,8,6A,0A,00,94,22,10,60,00,
-1666949197169409,1A555491,true,Rx,0,8,40,AA,AA,01,00,00,00,80,
-1666949197075970,00000566,false,Rx,0,8,89,15,FE,01,FA,07,00,00,
-1666949197070978,0000038B,false,Rx,0,8,FE,01,00,BC,F2,CA,AB,7F,
-1666949196975918,00000566,false,Rx,0,8,72,16,FE,01,FA,07,00,00,
-1666949196970969,0000038B,false,Rx,0,8,FE,01,00,BC,F2,CA,AB,7F,
-1666949196875909,00000566,false,Rx,0,8,86,17,FE,01,FA,07,00,00,
-1666949196870917,0000038B,false,Rx,0,8,FE,01,00,BC,F2,CA,AB,7F,
-1666949196775900,00000566,false,Rx,0,8,53,18,FE,01,FA,07,00,00,
-1666949196770908,0000038B,false,Rx,0,8,FE,01,00,BC,F2,CA,AB,7F,
-1666949196720861,00000564,false,Rx,0,8,12,03,00,00,FC,1F,2F,FF,
-1666949196675848,00000566,false,Rx,0,8,AB,19,FE,01,FA,07,00,00,
-1666949196670857,0000038B,false,Rx,0,8,FE,01,00,BC,F2,CA,AB,7F,
-1666949196670601,12DD5472,true,Rx,0,8,00,00,00,00,00,00,00,00,
-1666949196670345,00000565,false,Rx,0,8,00,50,00,00,04,08,80,FF,
-1666949196670089,1A555490,true,Rx,0,8,6A,0A,00,94,22,10,60,00,
-1666949196669790,1A555491,true,Rx,0,8,40,AA,AA,01,00,00,00,80,
-1666949196575839,00000566,false,Rx,0,8,E4,1A,FE,01,FA,07,00,00,
-1666949196570847,0000038B,false,Rx,0,8,FE,01,00,BC,F2,CA,AB,7F,
-1666949196475788,00000566,false,Rx,0,8,69,1B,FE,01,FA,07,00,00,
-1666949196470838,0000038B,false,Rx,0,8,FE,01,00,BC,F2,CA,AB,7F,
-1666949196375778,00000566,false,Rx,0,8,A8,1C,FE,01,FA,07,00,00,
-1666949196370853,0000038B,false,Rx,0,8,FE,01,00,BC,F2,CA,AB,7F,
-1666949196275793,00000566,false,Rx,0,8,0F,1D,FE,01,FA,07,00,00,
-1666949196270843,0000038B,false,Rx,0,8,FE,01,00,BC,F2,CA,AB,7F,
-1666949196175784,00000566,false,Rx,0,8,91,1E,FE,01,FA,07,00,00,
-1666949196170792,0000038B,false,Rx,0,8,FE,01,00,BC,F2,CA,AB,7F,
-1666949196170493,12DD5472,true,Rx,0,8,00,00,00,00,00,00,00,00,
-1666949196170280,00000565,false,Rx,0,8,00,50,00,00,04,08,80,FF,
-1666949196170024,0000067E,false,Rx,0,8,8D,04,00,00,3B,00,00,40,
-1666949196169768,1A555457,true,Rx,0,8,03,4B,59,46,41,00,00,00,
-1666949196169469,1A555490,true,Rx,0,8,6A,0A,00,94,22,10,60,00,
-1666949196169213,1A555491,true,Rx,0,8,40,AA,AA,01,00,00,00,80,
-1666949196075732,00000566,false,Rx,0,8,6C,1F,FE,01,FA,07,00,00,
-1666949196070783,0000038B,false,Rx,0,8,FE,01,00,BC,F2,CA,AB,7F,
-1666949195975723,00000566,false,Rx,0,8,E6,10,FE,01,FA,07,00,00,
-1666949195970731,0000038B,false,Rx,0,8,FE,01,00,BC,F2,CA,AB,7F,
-1666949195875714,00000566,false,Rx,0,8,B8,11,FE,01,FA,07,00,00,
-1666949195870722,0000038B,false,Rx,0,8,FE,01,00,BC,F2,CA,AB,7F,
-1666949195775662,00000566,false,Rx,0,8,3C,12,FE,01,FA,07,00,00,
-1666949195770670,0000038B,false,Rx,0,8,FE,01,00,BC,F2,CA,AB,7F,
-1666949195720665,00000564,false,Rx,0,8,01,04,00,00,FC,1F,2F,FF,
-1666949195675653,00000566,false,Rx,0,8,FA,13,FE,01,FA,07,00,00,
-1666949195670661,0000038B,false,Rx,0,8,FE,01,00,BC,F2,CA,AB,7F,
-1666949195670362,12DD5472,true,Rx,0,8,00,00,00,00,00,00,00,00,
-1666949195670106,00000565,false,Rx,0,8,00,50,00,00,04,08,80,FF,
-1666949195669850,1A555490,true,Rx,0,8,6A,0A,00,94,22,10,60,00,
-1666949195669551,1A555491,true,Rx,0,8,40,AA,AA,01,00,00,00,80,
-1666949195575601,00000566,false,Rx,0,8,77,14,FE,01,FA,07,00,00,
-1666949195570652,0000038B,false,Rx,0,8,FE,01,00,BC,F2,CA,AB,7F,
-1666949195475592,00000566,false,Rx,0,8,89,15,FE,01,FA,07,00,00,
-1666949195470600,0000038B,false,Rx,0,8,FE,01,00,BC,F2,CA,AB,7F,
-1666949195375540,00000566,false,Rx,0,8,72,16,FE,01,FA,07,00,00,
-1666949195370654,0000038B,false,Rx,0,8,FE,01,00,BC,F2,CA,AB,7F,
-1666949195275594,00000566,false,Rx,0,8,86,17,FE,01,FA,07,00,00,
-1666949195270602,0000038B,false,Rx,0,8,FE,01,00,BC,F2,CA,AB,7F,
-1666949195175542,00000566,false,Rx,0,8,53,18,FE,01,FA,07,00,00,
-1666949195170593,0000038B,false,Rx,0,8,FE,01,00,BC,F2,CA,AB,7F,
-1666949195170294,12DD5472,true,Rx,0,8,00,00,00,00,00,00,00,00,
-1666949195170038,00000565,false,Rx,0,8,00,50,00,00,04,08,80,FF,
-1666949195169825,0000067E,false,Rx,0,8,E9,05,00,00,3B,00,00,40,
-1666949195169526,1A555457,true,Rx,0,8,00,35,51,45,36,00,00,00,
-1666949195169270,1A555490,true,Rx,0,8,6A,0A,00,94,22,10,60,00,
-1666949195168972,1A555491,true,Rx,0,8,40,AA,AA,01,00,00,00,80,
-1666949195075533,00000566,false,Rx,0,8,AB,19,FE,01,FA,07,00,00,
-1666949195070541,0000038B,false,Rx,0,8,FE,01,00,BC,F2,CA,AB,7F,
-1666949194975524,00000566,false,Rx,0,8,E4,1A,FE,01,FA,07,00,00,
-1666949194970532,0000038B,false,Rx,0,8,FE,01,00,BC,F2,CA,AB,7F,
-1666949194875472,00000566,false,Rx,0,8,69,1B,FE,01,FA,07,00,00,
-1666949194870480,0000038B,false,Rx,0,8,FE,01,00,BC,F2,CA,AB,7F,
-1666949194775463,00000566,false,Rx,0,8,A8,1C,FE,01,FA,07,00,00,
-1666949194770471,0000038B,false,Rx,0,8,FE,01,00,BC,F2,CA,AB,7F,
-1666949194720424,00000564,false,Rx,0,8,65,05,00,00,FC,1F,2F,FF,
-1666949194675411,00000566,false,Rx,0,8,0F,1D,FE,01,FA,07,00,00,
-1666949194670462,0000038B,false,Rx,0,8,FE,01,00,BC,F2,CA,AB,7F,
-1666949194670163,12DD5472,true,Rx,0,8,00,00,00,00,00,00,00,00,
-1666949194669907,00000565,false,Rx,0,8,00,50,00,00,04,08,80,FF,
-1666949194669651,1A555490,true,Rx,0,8,6A,0A,00,94,22,10,60,00,
-1666949194669353,1A555491,true,Rx,0,8,40,AA,AA,01,00,00,00,80,
-1666949194575402,00000566,false,Rx,0,8,91,1E,FE,01,FA,07,00,00,
-1666949194570410,0000038B,false,Rx,0,8,FE,01,00,BC,F2,CA,AB,7F,
-1666949194475350,00000566,false,Rx,0,8,6C,1F,FE,01,FA,07,00,00,
-1666949194470401,0000038B,false,Rx,0,8,FE,01,00,BC,F2,CA,AB,7F,
-1666949194375341,00000566,false,Rx,0,8,E6,10,FE,01,FA,07,00,00,
-1666949194370449,0000038B,false,Rx,0,8,FE,01,00,BC,F2,CA,AB,7F,
-1666949194275390,00000566,false,Rx,0,8,B8,11,FE,01,FA,07,00,00,
-1666949194270440,0000038B,false,Rx,0,8,FE,01,00,BC,F2,CA,AB,7F,
-1666949194175381,00000566,false,Rx,0,8,3C,12,FE,01,FA,07,00,00,
-1666949194170389,0000038B,false,Rx,0,8,FE,01,00,BC,F2,CA,AB,7F,
-1666949194170133,12DD5472,true,Rx,0,8,00,00,00,00,00,00,00,00,
-1666949194169877,00000565,false,Rx,0,8,00,50,00,00,04,08,80,FF,
-1666949194169621,0000067E,false,Rx,0,8,45,06,00,00,3B,00,00,40,
-1666949194169365,1A555457,true,Rx,0,8,01,38,32,41,4B,00,00,00,
-1666949194169066,1A555490,true,Rx,0,8,6A,0A,00,94,22,10,60,00,
-1666949194168810,1A555491,true,Rx,0,8,40,AA,AA,01,00,00,00,80,
-1666949194075329,00000566,false,Rx,0,8,FA,13,FE,01,FA,07,00,00,
-1666949194070379,0000038B,false,Rx,0,8,FE,01,00,BC,F2,CA,AB,7F,
-1666949193975320,00000566,false,Rx,0,8,77,14,FE,01,FA,07,00,00,
-1666949193970328,0000038B,false,Rx,0,8,FE,01,00,BC,F2,CA,AB,7F,
-1666949193875311,00000566,false,Rx,0,8,89,15,FE,01,FA,07,00,00,
-1666949193870319,0000038B,false,Rx,0,8,FE,01,00,BC,F2,CA,AB,7F,
-1666949193775259,00000566,false,Rx,0,8,72,16,FE,01,FA,07,00,00,
-1666949193770310,0000038B,false,Rx,0,8,FE,01,00,BC,F2,CA,AB,7F,
-1666949193720262,00000564,false,Rx,0,8,C9,06,00,00,FC,1F,2F,FF,
-1666949193675250,00000566,false,Rx,0,8,86,17,FE,01,FA,07,00,00,
-1666949193670258,0000038B,false,Rx,0,8,FE,01,00,BC,F2,CA,AB,7F,
-1666949193669959,12DD5472,true,Rx,0,8,00,00,00,00,00,00,00,00,
-1666949193669746,00000565,false,Rx,0,8,00,50,00,00,04,08,80,FF,
-1666949193669447,1A555490,true,Rx,0,8,6A,0A,00,94,22,10,60,00,
-1666949193669191,1A555491,true,Rx,0,8,40,AA,AA,01,00,00,00,80,
-1666949193575198,00000566,false,Rx,0,8,53,18,FE,01,FA,07,00,00,
-1666949193570249,0000038B,false,Rx,0,8,FE,01,00,BC,F2,CA,AB,7F,
-1666949193475189,00000566,false,Rx,0,8,AB,19,FE,01,FA,07,00,00,
-1666949193470197,0000038B,false,Rx,0,8,FE,01,00,BC,F2,CA,AB,7F,
-1666949193375137,00000566,false,Rx,0,8,E4,1A,FE,01,FA,07,00,00,
-1666949193370158,0000038B,false,Rx,0,8,FE,01,00,BC,F2,CA,AB,7F,
-1666949193275098,00000566,false,Rx,0,8,69,1B,FE,01,FA,07,00,00,
-1666949193270106,0000038B,false,Rx,0,8,FE,01,00,BC,F2,CA,AB,7F,
-1666949193175089,00000566,false,Rx,0,8,A8,1C,FE,01,FA,07,00,00,
-1666949193170097,0000038B,false,Rx,0,8,FE,01,00,BC,F2,CA,AB,7F,
-1666949193169798,12DD5472,true,Rx,0,8,00,00,00,00,00,00,00,00,
-1666949193169542,00000565,false,Rx,0,8,00,50,00,00,04,08,80,FF,
-1666949193169329,0000067E,false,Rx,0,8,21,07,00,00,3B,00,00,40,
-1666949193169030,1A555457,true,Rx,0,8,02,30,33,30,30,00,00,00,
-1666949193168774,1A555490,true,Rx,0,8,6A,0A,00,94,22,10,60,00,
-1666949193168476,1A555491,true,Rx,0,8,40,AA,AA,01,00,00,00,80,
-1666949193075037,00000566,false,Rx,0,8,0F,1D,FE,01,FA,07,00,00,
-1666949193070045,0000038B,false,Rx,0,8,FE,01,00,BC,F2,CA,AB,7F,
-1666949192975028,00000566,false,Rx,0,8,91,1E,FE,01,FA,07,00,00,
-1666949192970036,0000038B,false,Rx,0,8,FE,01,00,BC,F2,CA,AB,7F,
-1666949192874976,00000566,false,Rx,0,8,6C,1F,FE,01,FA,07,00,00,
-1666949192870027,0000038B,false,Rx,0,8,FE,01,00,BC,F2,CA,AB,7F,
-1666949192774967,00000566,false,Rx,0,8,E6,10,FE,01,FA,07,00,00,
-1666949192769975,0000038B,false,Rx,0,8,FE,01,00,BC,F2,CA,AB,7F,
-1666949192719928,00000564,false,Rx,0,8,AD,07,00,00,FC,1F,2F,FF,
-1666949192674915,00000566,false,Rx,0,8,B8,11,FE,01,FA,07,00,00,
-1666949192669966,0000038B,false,Rx,0,8,FE,01,00,BC,F2,CA,AB,7F,
-1666949192669667,12DD5472,true,Rx,0,8,00,00,00,00,00,00,00,00,
-1666949192669411,00000565,false,Rx,0,8,00,50,00,00,04,08,80,FF,
-1666949192669155,1A555490,true,Rx,0,8,6A,0A,00,94,22,10,60,00,
-1666949192668857,1A555491,true,Rx,0,8,40,AA,AA,01,00,00,00,80,
-1666949192574906,00000566,false,Rx,0,8,3C,12,FE,01,FA,07,00,00,
-1666949192569914,0000038B,false,Rx,0,8,FE,01,00,BC,F2,CA,AB,7F,
-1666949192474854,00000566,false,Rx,0,8,FA,13,FE,01,FA,07,00,00,
-1666949192469905,0000038B,false,Rx,0,8,FE,01,00,BC,F2,CA,AB,7F,
-1666949192374872,00000566,false,Rx,0,8,77,14,FE,01,FA,07,00,00,
-1666949192369880,0000038B,false,Rx,0,8,FE,01,00,BC,F2,CA,AB,7F,
-1666949192274863,00000566,false,Rx,0,8,89,15,FE,01,FA,07,00,00,
-1666949192269871,0000038B,false,Rx,0,8,FE,01,00,BC,F2,CA,AB,7F,
-1666949192174811,00000566,false,Rx,0,8,72,16,FE,01,FA,07,00,00,
-1666949192169820,0000038B,false,Rx,0,8,FE,01,00,BC,F2,CA,AB,7F,
-1666949192169564,12DD5472,true,Rx,0,8,00,00,00,00,00,00,00,00,
-1666949192169308,00000565,false,Rx,0,8,00,50,00,00,04,08,80,FF,
-1666949192169052,0000067E,false,Rx,0,8,63,08,00,00,3B,00,00,40,
-1666949192168796,1A555457,true,Rx,0,8,83,4B,59,46,41,2B,00,00,
-1666949192168497,1A555490,true,Rx,0,8,6A,0A,00,94,22,10,60,00,
-1666949192168241,1A555491,true,Rx,0,8,40,AA,AA,01,00,00,00,80,
-1666949192074760,00000566,false,Rx,0,8,86,17,FE,01,FA,07,00,00,
-1666949192069810,0000038B,false,Rx,0,8,FE,01,00,BC,F2,CA,AB,7F,
-1666949191974751,00000566,false,Rx,0,8,53,18,FE,01,FA,07,00,00,
-1666949191969801,0000038B,false,Rx,0,8,FE,01,00,BC,F2,CA,AB,7F,
-1666949191874741,00000566,false,Rx,0,8,AB,19,FE,01,FA,07,00,00,
-1666949191869750,0000038B,false,Rx,0,8,FE,01,00,BC,F2,CA,AB,7F,
-1666949191774690,00000566,false,Rx,0,8,E4,1A,FE,01,FA,07,00,00,
-1666949191769740,0000038B,false,Rx,0,8,FE,01,00,BC,F2,CA,AB,7F,
-1666949191719693,00000564,false,Rx,0,8,EF,08,00,00,FC,1F,2F,FF,
-1666949191674681,00000566,false,Rx,0,8,69,1B,FE,01,FA,07,00,00,
-1666949191669689,0000038B,false,Rx,0,8,FE,01,00,BC,F2,CA,AB,7F,
-1666949191669390,12DD5472,true,Rx,0,8,00,00,00,00,00,00,00,00,
-1666949191669177,00000565,false,Rx,0,8,00,50,00,00,04,08,80,FF,
-1666949191668878,1A555490,true,Rx,0,8,6A,0A,00,94,22,10,60,00,
-1666949191668622,1A555491,true,Rx,0,8,40,AA,AA,01,00,00,00,80,
-1666949191574629,00000566,false,Rx,0,8,A8,1C,FE,01,FA,07,00,00,
-1666949191569680,0000038B,false,Rx,0,8,FE,01,00,BC,F2,CA,AB,7F,
-1666949191474620,00000566,false,Rx,0,8,0F,1D,FE,01,FA,07,00,00,
-1666949191469628,0000038B,false,Rx,0,8,FE,01,00,BC,F2,CA,AB,7F,
-1666949191374711,00000566,false,Rx,0,8,91,1E,FE,01,FA,07,00,00,
-1666949191369719,0000038B,false,Rx,0,8,FE,01,00,BC,F2,CA,AB,7F,
-1666949191274659,00000566,false,Rx,0,8,6C,1F,FE,01,FA,07,00,00,
-1666949191269667,0000038B,false,Rx,0,8,FE,01,00,BC,F2,CA,AB,7F,
-1666949191174650,00000566,false,Rx,0,8,E6,10,FE,01,FA,07,00,00,
-1666949191169658,0000038B,false,Rx,0,8,FE,01,00,BC,F2,CA,AB,7F,
-1666949191169359,12DD5472,true,Rx,0,8,00,00,00,00,00,00,00,00,
-1666949191169103,00000565,false,Rx,0,8,00,50,00,00,04,08,80,FF,
-1666949191168890,0000067E,false,Rx,0,8,07,09,00,00,3B,00,00,40,
-1666949191168591,1A555457,true,Rx,0,8,80,35,51,45,36,CD,00,00,
-1666949191168335,1A555490,true,Rx,0,8,6A,0A,00,94,22,10,60,00,
-1666949191168036,1A555491,true,Rx,0,8,40,AA,AA,01,00,00,00,80,
-1666949191074598,00000566,false,Rx,0,8,B8,11,FE,01,FA,07,00,00,
-1666949191069649,0000038B,false,Rx,0,8,FE,01,00,BC,F2,CA,AB,7F,
-1666949190974589,00000566,false,Rx,0,8,3C,12,FE,01,FA,07,00,00,
-1666949190969597,0000038B,false,Rx,0,8,FE,01,00,BC,F2,CA,AB,7F,
-1666949190874537,00000566,false,Rx,0,8,FA,13,FE,01,FA,07,00,00,
-1666949190869588,0000038B,false,Rx,0,8,FE,01,00,BC,F2,CA,AB,7F,
