Time Stamp,ID,Extended,Dir,Bus,LEN,D1,D2,D3,D4,D5,D6,D7,D8
7579902,00000187,false,Tx,0,8,4D,08,12,00,00,00,30,00,
7676890,00000187,false,Tx,0,8,D7,09,12,00,00,00,30,00,
7775786,00000187,false,Tx,0,8,27,0A,12,00,00,00,30,00,
7876855,00000187,false,Tx,0,8,F3,0B,12,00,00,00,30,00,
7975915,00000187,false,Tx,0,8,32,0C,12,00,00,00,30,00,
8076941,00000187,false,Tx,0,8,0A,0D,12,00,00,00,30,00,
8176915,00000187,false,Tx,0,8,17,0E,12,00,00,00,30,00,
8275916,00000187,false,Tx,0,8,E2,0F,12,00,00,00,30,00,
8376920,00000187,false,Tx,0,8,92,00,12,00,00,00,30,00,
8476884,00000187,false,Tx,0,8,E5,01,12,00,00,00,30,00,
8576861,00000187,false,Tx,0,8,98,02,12,00,00,00,30,00,
8676897,00000187,false,Tx,0,8,C4,03,12,00,00,00,30,00,
8776860,00000187,false,Tx,0,8,5C,04,12,00,00,00,30,00,
8876874,00000187,false,Tx,0,8,B8,05,12,00,00,00,30,00,
8976818,00000187,false,Tx,0,8,1E,06,12,00,00,00,30,00,
9076892,00000187,false,Tx,0,8,7C,07,12,00,00,00,30,00,
9176876,00000187,false,Tx,0,8,4D,08,12,00,00,00,30,00,
9275938,00000187,false,Tx,0,8,D7,09,12,00,00,00,30,00,
9376880,00000187,false,Tx,0,8,27,0A,12,00,00,00,30,00,
9475818,00000187,false,Tx,0,8,F3,0B,12,00,00,00,30,00,
9576960,00000187,false,Tx,0,8,32,0C,12,00,00,00,30,00,
-1667470356307444,12DD5472,true,Rx,0,8,00,00,00,00,00,00,F8,FD,
-1667470356306975,00000594,false,Rx,0,8,00,E0,1F,83,7F,00,00,1E,
-1667470356306463,17F00044,true,Rx,0,8,20,44,00,00,00,00,00,80,
-1667470356301943,1B000044,true,Rx,0,8,44,00,41,00,04,00,00,00,
-1667470356292298,12DD5472,true,Rx,0,8,00,00,00,00,00,00,00,00,
9676965,00000187,false,Tx,0,8,0A,0D,12,00,00,00,30,00,
-1667470356195750,17331102,true,Rx,0,4,40,00,01,3C,00,00,00,00,
-1667470356191355,17332510,true,Rx,0,8,09,42,03,00,25,00,04,04,
-1667470356190971,17331102,true,Rx,0,2,14,42,00,00,00,00,00,00,
9776957,00000187,false,Tx,0,8,17,0E,12,00,00,00,30,00,
-1667470356102358,1B000044,true,Rx,0,8,44,00,41,00,04,00,00,00,
9876945,00000187,false,Tx,0,8,E2,0F,12,00,00,00,30,00,
9976930,00000187,false,Tx,0,8,92,00,12,00,00,00,30,00,
-1667470355902349,1B000044,true,Rx,0,8,44,00,41,00,04,00,00,00,
10076974,00000187,false,Tx,0,8,E5,01,12,00,00,00,30,00,
-1667470355807507,12DD5472,true,Rx,0,8,00,00,00,00,00,00,00,00,
-1667470355807251,00000594,false,Rx,0,8,00,00,00,00,00,00,30,09,
-1667470355806953,17F00044,true,Rx,0,8,20,44,00,00,00,00,00,80,
10176930,00000187,false,Tx,0,8,98,02,12,00,00,00,30,00,
-1667470355702341,1B000044,true,Rx,0,8,44,00,41,00,04,00,00,00,
10276955,00000187,false,Tx,0,8,C4,03,12,00,00,00,30,00,
-1667470355591243,17331102,true,Rx,0,2,14,42,00,00,00,00,00,00,
10376928,00000187,false,Tx,0,8,5C,04,12,00,00,00,30,00,
-1667470355502289,1B000044,true,Rx,0,8,44,00,41,00,04,00,00,00,
10475958,00000187,false,Tx,0,8,B8,05,12,00,00,00,30,00,
10577042,00000187,false,Tx,0,8,1E,06,12,00,00,00,30,00,
-1667470355307396,12DD5472,true,Rx,0,8,00,00,00,00,00,00,00,00,
-1667470355307140,00000594,false,Rx,0,8,00,00,00,00,00,00,10,09,
-1667470355306884,17F00044,true,Rx,0,8,20,44,00,00,00,00,00,80,
-1667470355302234,1B000044,true,Rx,0,8,44,00,41,00,04,00,00,00,
10675858,00000187,false,Tx,0,8,7C,07,12,00,00,00,30,00,
-1667470355271174,17332510,true,Rx,0,4,49,50,1F,00,00,00,00,00,
10775947,00000187,false,Tx,0,8,4D,08,12,00,00,00,30,00,
-1667470355141177,17332510,true,Rx,0,3,49,5C,21,00,00,00,00,00,
-1667470355102225,1B000044,true,Rx,0,8,44,00,41,00,04,00,00,00,
-1667470355091175,17332510,true,Rx,0,3,49,5E,03,00,00,00,00,00,
10878004,00000187,false,Tx,0,8,D7,09,12,00,00,00,30,00,
-1667470355041130,17332510,true,Rx,0,4,49,50,1F,01,00,00,00,00,
-1667470354991128,17331102,true,Rx,0,2,14,42,00,00,00,00,00,00,
10976999,00000187,false,Tx,0,8,27,0A,12,00,00,00,30,00,
-1667470354902173,1B000044,true,Rx,0,8,44,00,41,00,04,00,00,00,
11078017,00000187,false,Tx,0,8,F3,0B,12,00,00,00,30,00,
-1667470354807331,12DD5472,true,Rx,0,8,00,00,00,00,00,00,00,00,
-1667470354807075,00000594,false,Rx,0,8,00,00,00,00,00,12,20,09,
-1667470354806777,17F00044,true,Rx,0,8,20,44,00,00,00,00,00,80,
11175881,00000187,false,Tx,0,8,32,0C,12,00,00,00,30,00,
-1667470354771024,17332510,true,Rx,0,8,80,09,49,51,11,00,FF,FF,
-1667470354721022,17332510,true,Rx,0,4,49,50,1F,21,00,00,00,00,
-1667470354702164,1B000044,true,Rx,0,8,44,00,41,00,04,00,00,00,
-1667470354671020,17332510,true,Rx,0,6,C0,FF,FF,01,FF,01,00,00,
11277971,00000187,false,Tx,0,8,0A,0D,12,00,00,00,30,00,
11377101,00000187,false,Tx,0,8,17,0E,12,00,00,00,30,00,
-1667470354502113,1B000044,true,Rx,0,8,44,00,41,00,04,00,00,00,
11477976,00000187,false,Tx,0,8,E2,0F,12,00,00,00,30,00,
-1667470354390931,17331102,true,Rx,0,2,14,42,00,00,00,00,00,00,
11577010,00000187,false,Tx,0,8,92,00,12,00,00,00,30,00,
-1667470354307205,12DD5472,true,Rx,0,8,00,00,00,00,00,00,00,00,
-1667470354306991,00000594,false,Rx,0,8,00,00,00,00,00,12,30,09,
-1667470354306693,17F00044,true,Rx,0,8,20,44,00,00,00,00,00,80,
-1667470354302085,1B000044,true,Rx,0,8,44,00,41,00,04,00,00,00,
11675966,00000187,false,Tx,0,8,E5,01,12,00,00,00,30,00,
-1667470354252083,00000594,false,Rx,0,8,00,00,00,00,02,32,30,09,
11776007,00000187,false,Tx,0,8,98,02,12,00,00,00,30,00,
-1667470354102034,1B000044,true,Rx,0,8,44,00,41,00,04,00,00,00,
11878019,00000187,false,Tx,0,8,C4,03,12,00,00,00,30,00,
11977053,00000187,false,Tx,0,8,5C,04,12,00,00,00,30,00,
-1667470353901982,1B000044,true,Rx,0,8,44,00,41,00,04,00,00,00,
12078024,00000187,false,Tx,0,8,B8,05,12,00,00,00,30,00,
-1667470353807140,12DD5472,true,Rx,0,8,00,00,00,00,00,00,00,00,
-1667470353806884,00000594,false,Rx,0,8,00,00,00,00,02,32,30,09,
-1667470353806585,17F00044,true,Rx,0,8,20,44,00,00,00,00,00,80,
-1667470353790757,17331102,true,Rx,0,2,14,42,00,00,00,00,00,00,
-1667470353780688,17332510,true,Rx,0,8,39,42,03,00,25,00,04,04,
12177041,00000187,false,Tx,0,8,1E,06,12,00,00,00,30,00,
-1667470353701973,1B000044,true,Rx,0,8,44,00,41,00,04,00,00,00,
-1667470353681964,00000594,false,Rx,0,8,00,00,00,00,00,12,30,09,
12276965,00000187,false,Tx,0,8,7C,07,12,00,00,00,30,00,
12376988,00000187,false,Tx,0,8,4D,08,12,00,00,00,30,00,
-1667470353501922,1B000044,true,Rx,0,8,44,00,41,00,04,00,00,00,
12477930,00000187,false,Tx,0,8,D7,09,12,00,00,00,30,00,
12577014,00000187,false,Tx,0,8,27,0A,12,00,00,00,30,00,
-1667470353307144,12DD5472,true,Rx,0,8,00,00,00,00,00,00,00,00,
-1667470353306888,00000594,false,Rx,0,8,00,00,00,00,00,12,30,09,
-1667470353306590,17F00044,true,Rx,0,8,20,44,00,00,00,00,00,80,
-1667470353301982,1B000044,true,Rx,0,8,44,00,41,00,04,00,00,00,
12678031,00000187,false,Tx,0,8,F3,0B,12,00,00,00,30,00,
12777052,00000187,false,Tx,0,8,32,0C,12,00,00,00,30,00,
-1667470353101930,1B000044,true,Rx,0,8,44,00,41,00,04,00,00,00,
-1667470353090710,17332510,true,Rx,0,8,80,09,49,51,01,00,FF,FF,
12878025,00000187,false,Tx,0,8,0A,0D,12,00,00,00,30,00,
-1667470353040665,17332510,true,Rx,0,6,C0,FF,FF,01,FF,01,00,00,
12976941,00000187,false,Tx,0,8,17,0E,12,00,00,00,30,00,
-1667470352901922,1B000044,true,Rx,0,8,44,00,41,00,04,00,00,00,
13078031,00000187,false,Tx,0,8,E2,0F,12,00,00,00,30,00,
-1667470352807037,12DD5472,true,Rx,0,8,00,00,00,00,00,00,00,00,
-1667470352806781,00000594,false,Rx,0,8,00,00,00,00,00,12,30,09,
-1667470352806525,17F00044,true,Rx,0,8,20,44,00,00,00,00,00,80,
13177090,00000187,false,Tx,0,8,92,00,12,00,00,00,30,00,
-1667470352701870,1B000044,true,Rx,0,8,44,00,41,00,04,00,00,00,
-1667470352680581,17332510,true,Rx,0,8,80,09,49,51,11,00,FF,FF,
13277031,00000187,false,Tx,0,8,E5,01,12,00,00,00,30,00,
-1667470352630621,17332510,true,Rx,0,6,C0,FF,FF,01,FF,01,00,00,
13377313,00000187,false,Tx,0,8,98,02,12,00,00,00,30,00,
-1667470352501861,1B000044,true,Rx,0,8,44,00,41,00,04,00,00,00,
13478040,00000187,false,Tx,0,8,C4,03,12,00,00,00,30,00,
13577415,00000187,false,Tx,0,8,5C,04,12,00,00,00,30,00,
-1667470352307000,12DD5472,true,Rx,0,8,00,00,00,00,00,00,00,00,
-1667470352306744,00000594,false,Rx,0,8,00,00,00,00,00,12,30,09,
-1667470352306445,17F00044,true,Rx,0,8,20,44,00,00,00,00,00,80,
-1667470352301795,1B000044,true,Rx,0,8,44,00,44,00,00,00,00,00,
13676068,00000187,false,Tx,0,8,B8,05,12,00,00,00,30,00,
-1667470352171841,00000594,false,Rx,0,8,00,00,00,00,02,32,30,09,
13777017,00000187,false,Tx,0,8,1E,06,12,00,00,00,30,00,
-1667470352101786,1B000044,true,Rx,0,8,44,00,44,00,00,00,00,00,
13878066,00000187,false,Tx,0,8,7C,07,12,00,00,00,30,00,
13977048,00000187,false,Tx,0,8,4D,08,12,00,00,00,30,00,
-1667470351901777,1B000044,true,Rx,0,8,44,00,44,00,00,00,00,00,
14078187,00000187,false,Tx,0,8,D7,09,12,00,00,00,30,00,
-1667470351806893,12DD5472,true,Rx,0,8,00,00,00,00,00,00,00,00,
-1667470351806679,00000594,false,Rx,0,8,00,00,00,00,02,32,30,09,
-1667470351806381,17F00044,true,Rx,0,8,20,44,00,00,00,00,00,80,
14177070,00000187,false,Tx,0,8,27,0A,12,00,00,00,30,00,
-1667470351701726,1B000044,true,Rx,0,8,44,00,44,00,00,00,00,00,
-1667470351690463,17332510,true,Rx,0,8,80,08,39,43,78,07,FE,FE,
14278035,00000187,false,Tx,0,8,F3,0B,12,00,00,00,30,00,
-1667470351640503,17332510,true,Rx,0,5,C0,00,00,00,00,00,00,00,
14377554,00000187,false,Tx,0,8,32,0C,12,00,00,00,30,00,
-1667470351501717,1B000044,true,Rx,0,8,44,00,44,00,00,00,00,00,
14478206,00000187,false,Tx,0,8,0A,0D,12,00,00,00,30,00,
14577971,00000187,false,Tx,0,8,17,0E,12,00,00,00,30,00,
-1667470351306817,12DD5472,true,Rx,0,8,00,00,00,00,00,00,00,00,
-1667470351306561,00000594,false,Rx,0,8,00,00,00,00,02,32,30,09,
-1667470351306262,17F00044,true,Rx,0,8,20,44,00,00,00,00,00,80,
-1667470351301655,1B000044,true,Rx,0,8,44,00,44,00,00,00,00,00,
14678095,00000187,false,Tx,0,8,E2,0F,12,00,00,00,30,00,
14778082,00000187,false,Tx,0,8,92,00,12,00,00,00,30,00,
-1667470351101646,1B000044,true,Rx,0,8,44,00,44,00,00,00,00,00,
14878066,00000187,false,Tx,0,8,E5,01,12,00,00,00,30,00,
14978096,00000187,false,Tx,0,8,98,02,12,00,00,00,30,00,
-1667470350901594,1B000044,true,Rx,0,8,44,00,44,00,00,00,00,00,
15077987,00000187,false,Tx,0,8,C4,03,12,00,00,00,30,00,
-1667470350806752,12DD5472,true,Rx,0,8,00,00,00,00,00,00,00,00,
-1667470350806496,00000594,false,Rx,0,8,00,00,00,00,02,32,30,09,
-1667470350806198,17F00044,true,Rx,0,8,20,44,00,00,00,00,00,80,
15178245,00000187,false,Tx,0,8,5C,04,12,00,00,00,30,00,
-1667470350701585,1B000044,true,Rx,0,8,44,00,44,00,00,00,00,00,
-1667470350690407,17332510,true,Rx,0,3,39,44,0A,00,00,00,00,00,
15278104,00000187,false,Tx,0,8,B8,05,12,00,00,00,30,00,
15378120,00000187,false,Tx,0,8,1E,06,12,00,00,00,30,00,
-1667470350501534,1B000044,true,Rx,0,8,44,00,44,00,00,00,00,00,
15478146,00000187,false,Tx,0,8,7C,07,12,00,00,00,30,00,
15578050,00000187,false,Tx,0,8,4D,08,12,00,00,00,30,00,
-1667470350306615,12DD5472,true,Rx,0,8,00,00,00,00,00,00,00,00,
-1667470350306401,00000594,false,Rx,0,8,00,00,00,00,02,32,30,09,
-1667470350306103,17F00044,true,Rx,0,8,20,44,00,00,00,00,00,80,
-1667470350301452,1B000044,true,Rx,0,8,44,00,44,00,00,00,00,00,
15678074,00000187,false,Tx,0,8,D7,09,12,00,00,00,30,00,
15778109,00000187,false,Tx,0,8,27,0A,12,00,00,00,30,00,
-1667470350101444,1B000044,true,Rx,0,8,44,00,44,00,00,00,00,00,
15877983,00000187,false,Tx,0,8,F3,0B,12,00,00,00,30,00,
15977422,00000187,false,Tx,0,8,32,0C,12,00,00,00,30,00,
-1667470349901392,1B000044,true,Rx,0,8,44,00,44,00,00,00,00,00,
16078126,00000187,false,Tx,0,8,0A,0D,12,00,00,00,30,00,
-1667470349806550,12DD5472,true,Rx,0,8,00,00,00,00,00,00,00,00,
-1667470349806294,00000594,false,Rx,0,8,00,00,00,00,02,32,30,09,
-1667470349805995,17F00044,true,Rx,0,8,20,44,00,00,00,00,00,80,
16178113,00000187,false,Tx,0,8,17,0E,12,00,00,00,30,00,
-1667470349701383,1B000044,true,Rx,0,8,44,00,44,00,00,00,00,00,
-1667470349690205,17332510,true,Rx,0,3,39,4D,00,00,00,00,00,00,
16278089,00000187,false,Tx,0,8,E2,0F,12,00,00,00,30,00,
16378096,00000187,false,Tx,0,8,92,00,12,00,00,00,30,00,
-1667470349501332,1B000044,true,Rx,0,8,44,00,44,00,00,00,00,00,
16478156,00000187,false,Tx,0,8,E5,01,12,00,00,00,30,00,
16578197,00000187,false,Tx,0,8,98,02,12,00,00,00,30,00,
-1667470349306455,12DD5472,true,Rx,0,8,00,00,00,00,00,00,00,00,
-1667470349306199,00000594,false,Rx,0,8,00,00,00,00,02,32,30,09,
-1667470349305901,17F00044,true,Rx,0,8,20,44,00,00,00,00,00,80,
-1667470349301293,1B000044,true,Rx,0,8,44,00,44,00,00,00,00,00,
16678105,00000187,false,Tx,0,8,C4,03,12,00,00,00,30,00,
16778198,00000187,false,Tx,0,8,5C,04,12,00,00,00,30,00,
-1667470349101241,1B000044,true,Rx,0,8,44,00,44,00,00,00,00,00,
16878105,00000187,false,Tx,0,8,B8,05,12,00,00,00,30,00,
16978402,00000187,false,Tx,0,8,1E,06,12,00,00,00,30,00,
-1667470348901233,1B000044,true,Rx,0,8,44,00,44,00,00,00,00,00,
17078164,00000187,false,Tx,0,8,7C,07,12,00,00,00,30,00,
-1667470348806348,12DD5472,true,Rx,0,8,00,00,00,00,00,00,00,00,
-1667470348806135,00000594,false,Rx,0,8,00,00,00,00,02,32,30,09,
-1667470348805836,17F00044,true,Rx,0,8,20,44,00,00,00,00,00,80,
17178037,00000187,false,Tx,0,8,4D,08,12,00,00,00,30,00,
-1667470348701181,1B000044,true,Rx,0,8,44,00,44,00,00,00,00,00,
-1667470348689918,17332510,true,Rx,0,8,39,4E,00,00,00,00,00,00,
17278176,00000187,false,Tx,0,8,D7,09,12,00,00,00,30,00,
17378212,00000187,false,Tx,0,8,27,0A,12,00,00,00,30,00,
-1667470348501172,1B000044,true,Rx,0,8,44,00,44,00,00,00,00,00,
17478113,00000187,false,Tx,0,8,F3,0B,12,00,00,00,30,00,
17578157,00000187,false,Tx,0,8,32,0C,12,00,00,00,30,00,
-1667470348306253,12DD5472,true,Rx,0,8,00,00,00,00,00,00,00,00,
-1667470348306040,00000594,false,Rx,0,8,00,00,00,00,02,32,30,09,
-1667470348305741,17F00044,true,Rx,0,8,20,44,00,00,00,00,00,80,
-1667470348301091,1B000044,true,Rx,0,8,44,00,44,00,00,00,00,00,
17678056,00000187,false,Tx,0,8,0A,0D,12,00,00,00,30,00,
17778171,00000187,false,Tx,0,8,17,0E,12,00,00,00,30,00,
-1667470348101082,1B000044,true,Rx,0,8,44,00,44,00,00,00,00,00,
17878101,00000187,false,Tx,0,8,E2,0F,12,00,00,00,30,00,
17978185,00000187,false,Tx,0,8,92,00,12,00,00,00,30,00,
-1667470347901030,1B000044,true,Rx,0,8,44,00,44,00,00,00,00,00,
18078158,00000187,false,Tx,0,8,E5,01,12,00,00,00,30,00,
-1667470347806188,12DD5472,true,Rx,0,8,00,00,00,00,00,00,00,00,
-1667470347805932,00000594,false,Rx,0,8,00,00,00,00,02,32,30,09,
-1667470347805634,17F00044,true,Rx,0,8,20,44,00,00,00,00,00,80,
18178199,00000187,false,Tx,0,8,98,02,12,00,00,00,30,00,
-1667470347701022,1B000044,true,Rx,0,8,44,00,44,00,00,00,00,00,
-1667470347689844,17332510,true,Rx,0,3,39,4F,00,00,00,00,00,00,
18278164,00000187,false,Tx,0,8,C4,03,12,00,00,00,30,00,
18378214,00000187,false,Tx,0,8,5C,04,12,00,00,00,30,00,
-1667470347500970,1B000044,true,Rx,0,8,44,00,44,00,00,00,00,00,
18479089,00000187,false,Tx,0,8,B8,05,12,00,00,00,30,00,
18578184,00000187,false,Tx,0,8,1E,06,12,00,00,00,30,00,
-1667470347306178,12DD5472,true,Rx,0,8,00,00,00,00,00,00,00,00,
-1667470347305922,00000594,false,Rx,0,8,00,00,00,00,02,32,30,09,
-1667470347305623,17F00044,true,Rx,0,8,20,44,00,00,00,00,00,80,
-1667470347301015,1B000044,true,Rx,0,8,44,00,44,00,00,00,00,00,
18678550,00000187,false,Tx,0,8,7C,07,12,00,00,00,30,00,
18778171,00000187,false,Tx,0,8,4D,08,12,00,00,00,30,00,
-1667470347100964,1B000044,true,Rx,0,8,44,00,44,00,00,00,00,00,
18878177,00000187,false,Tx,0,8,D7,09,12,00,00,00,30,00,
18978101,00000187,false,Tx,0,8,27,0A,12,00,00,00,30,00,
-1667470346900955,1B000044,true,Rx,0,8,44,00,44,00,00,00,00,00,
19079222,00000187,false,Tx,0,8,F3,0B,12,00,00,00,30,00,
-1667470346806070,12DD5472,true,Rx,0,8,00,00,00,00,00,00,00,00,
-1667470346805857,00000594,false,Rx,0,8,00,00,00,00,02,32,30,09,
-1667470346805558,17F00044,true,Rx,0,8,20,44,00,00,00,00,00,80,
19178134,00000187,false,Tx,0,8,32,0C,12,00,00,00,30,00,
-1667470346700903,1B000044,true,Rx,0,8,44,00,44,00,00,00,00,00,
-1667470346689768,17332510,true,Rx,0,4,39,50,1F,21,00,00,00,00,
19279230,00000187,false,Tx,0,8,0A,0D,12,00,00,00,30,00,
19378244,00000187,false,Tx,0,8,17,0E,12,00,00,00,30,00,
-1667470346500895,1B000044,true,Rx,0,8,44,00,44,00,00,00,00,00,
19478234,00000187,false,Tx,0,8,E2,0F,12,00,00,00,30,00,
19578091,00000187,false,Tx,0,8,92,00,12,00,00,00,30,00,
-1667470346305976,12DD5472,true,Rx,0,8,00,00,00,00,00,00,00,00,
-1667470346305720,00000594,false,Rx,0,8,00,00,00,00,02,32,30,09,
-1667470346305464,17F00044,true,Rx,0,8,20,44,00,00,00,00,00,80,
-1667470346300813,1B000044,true,Rx,0,8,44,00,44,00,00,00,00,00,
19679225,00000187,false,Tx,0,8,E5,01,12,00,00,00,30,00,
19778090,00000187,false,Tx,0,8,98,02,12,00,00,00,30,00,
-1667470346100804,1B000044,true,Rx,0,8,44,00,44,00,00,00,00,00,
19879257,00000187,false,Tx,0,8,C4,03,12,00,00,00,30,00,
19978204,00000187,false,Tx,0,8,5C,04,12,00,00,00,30,00,
-1667470345900753,1B000044,true,Rx,0,8,44,00,44,00,00,00,00,00,
20079269,00000187,false,Tx,0,8,B8,05,12,00,00,00,30,00,
-1667470345805911,12DD5472,true,Rx,0,8,00,00,00,00,00,00,00,00,
-1667470345805655,00000594,false,Rx,0,8,00,00,00,00,02,32,30,09,
-1667470345805356,17F00044,true,Rx,0,8,20,44,00,00,00,00,00,80,
20178382,00000187,false,Tx,0,8,1E,06,12,00,00,00,30,00,
-1667470345700744,1B000044,true,Rx,0,8,44,00,44,00,00,00,00,00,
-1667470345689481,17332510,true,Rx,0,8,80,09,39,51,11,00,FF,FF,
20279222,00000187,false,Tx,0,8,7C,07,12,00,00,00,30,00,
-1667470345639479,17332510,true,Rx,0,6,C0,FF,FF,01,FF,01,00,00,
20378282,00000187,false,Tx,0,8,4D,08,12,00,00,00,30,00,
-1667470345500693,1B000044,true,Rx,0,8,44,00,44,00,00,00,00,00,
20479262,00000187,false,Tx,0,8,D7,09,12,00,00,00,30,00,
20578199,00000187,false,Tx,0,8,27,0A,12,00,00,00,30,00,
-1667470345305816,12DD5472,true,Rx,0,8,00,00,00,00,00,00,00,00,
-1667470345305560,00000594,false,Rx,0,8,00,00,00,00,02,32,30,09,
-1667470345305261,17F00044,true,Rx,0,8,20,44,00,00,00,00,00,80,
-1667470345300654,1B000044,true,Rx,0,8,44,00,44,00,00,00,00,00,
20679291,00000187,false,Tx,0,8,F3,0B,12,00,00,00,30,00,
20778153,00000187,false,Tx,0,8,32,0C,12,00,00,00,30,00,
-1667470345100602,1B000044,true,Rx,0,8,44,00,44,00,00,00,00,00,
20878620,00000187,false,Tx,0,8,0A,0D,12,00,00,00,30,00,
20978526,00000187,false,Tx,0,8,17,0E,12,00,00,00,30,00,
-1667470344900593,1B000044,true,Rx,0,8,44,00,44,00,00,00,00,00,
21079253,00000187,false,Tx,0,8,E2,0F,12,00,00,00,30,00,
-1667470344805751,12DD5472,true,Rx,0,8,00,00,00,00,00,00,00,00,
-1667470344805495,00000594,false,Rx,0,8,00,00,00,00,02,32,30,09,
-1667470344805197,17F00044,true,Rx,0,8,20,44,00,00,00,00,00,80,
21178328,00000187,false,Tx,0,8,92,00,12,00,00,00,30,00,
-1667470344700542,1B000044,true,Rx,0,8,44,00,44,00,00,00,00,00,
-1667470344689321,17332510,true,Rx,0,8,80,07,39,52,00,64,00,00,
21279233,00000187,false,Tx,0,8,E5,01,12,00,00,00,30,00,
-1667470344639319,17332510,true,Rx,0,4,C0,00,BB,00,00,00,00,00,
21378288,00000187,false,Tx,0,8,98,02,12,00,00,00,30,00,
-1667470344500533,1B000044,true,Rx,0,8,44,00,44,00,00,00,00,00,
21479284,00000187,false,Tx,0,8,C4,03,12,00,00,00,30,00,
21578162,00000187,false,Tx,0,8,5C,04,12,00,00,00,30,00,
-1667470344305614,12DD5472,true,Rx,0,8,00,00,00,00,00,00,00,00,
-1667470344305401,00000594,false,Rx,0,8,00,00,00,00,02,32,30,09,
-1667470344305102,17F00044,true,Rx,0,8,20,44,00,00,00,00,00,80,
-1667470344300494,1B000044,true,Rx,0,8,44,00,44,00,00,00,00,00,
21679302,00000187,false,Tx,0,8,B8,05,12,00,00,00,30,00,
21778151,00000187,false,Tx,0,8,1E,06,12,00,00,00,30,00,
-1667470344100443,1B000044,true,Rx,0,8,44,00,44,00,00,00,00,00,
21879277,00000187,false,Tx,0,8,7C,07,12,00,00,00,30,00,
21978245,00000187,false,Tx,0,8,4D,08,12,00,00,00,30,00,
-1667470343900434,1B000044,true,Rx,0,8,44,00,44,00,00,00,00,00,
22079271,00000187,false,Tx,0,8,D7,09,12,00,00,00,30,00,
-1667470343805549,12DD5472,true,Rx,0,8,00,00,00,00,00,00,00,00,
-1667470343805293,00000594,false,Rx,0,8,00,00,00,00,02,32,30,09,
-1667470343805037,17F00044,true,Rx,0,8,20,44,00,00,00,00,00,80,
22178296,00000187,false,Tx,0,8,27,0A,12,00,00,00,30,00,
-1667470343700382,1B000044,true,Rx,0,8,44,00,44,00,00,00,00,00,
-1667470343689204,17332510,true,Rx,0,4,39,53,00,00,00,00,00,00,
22279267,00000187,false,Tx,0,8,F3,0B,12,00,00,00,30,00,
22378190,00000187,false,Tx,0,8,32,0C,12,00,00,00,30,00,
-1667470343500331,1B000044,true,Rx,0,8,44,00,44,00,00,00,00,00,
22479294,00000187,false,Tx,0,8,0A,0D,12,00,00,00,30,00,
22578210,00000187,false,Tx,0,8,17,0E,12,00,00,00,30,00,
-1667470343305499,12DD5472,true,Rx,0,8,00,00,00,00,00,00,00,00,
-1667470343305243,00000594,false,Rx,0,8,00,00,00,00,02,32,30,09,
-1667470343304945,17F00044,true,Rx,0,8,20,44,00,00,00,00,00,80,
-1667470343300337,1B000044,true,Rx,0,8,44,00,44,00,00,00,00,00,
22679296,00000187,false,Tx,0,8,E2,0F,12,00,00,00,30,00,
22778280,00000187,false,Tx,0,8,92,00,12,00,00,00,30,00,
-1667470343100328,1B000044,true,Rx,0,8,44,00,44,00,00,00,00,00,
22879231,00000187,false,Tx,0,8,E5,01,12,00,00,00,30,00,
22978334,00000187,false,Tx,0,8,98,02,12,00,00,00,30,00,
-1667470342900277,1B000044,true,Rx,0,8,44,00,44,00,00,00,00,00,
23079315,00000187,false,Tx,0,8,C4,03,12,00,00,00,30,00,
-1667470342805435,12DD5472,true,Rx,0,8,00,00,00,00,00,00,00,00,
-1667470342805179,00000594,false,Rx,0,8,00,00,00,00,02,32,30,09,
-1667470342804880,17F00044,true,Rx,0,8,20,44,00,00,00,00,00,80,
23178319,00000187,false,Tx,0,8,5C,04,12,00,00,00,30,00,
-1667470342700268,1B000044,true,Rx,0,8,44,00,44,00,00,00,00,00,
-1667470342689005,17332510,true,Rx,0,8,80,08,39,54,FF,FF,FF,0C,
23279382,00000187,false,Tx,0,8,B8,05,12,00,00,00,30,00,
-1667470342639002,17332510,true,Rx,0,5,C0,00,FE,01,22,00,00,00,
23378274,00000187,false,Tx,0,8,1E,06,12,00,00,00,30,00,
-1667470342500216,1B000044,true,Rx,0,8,44,00,44,00,00,00,00,00,
23479291,00000187,false,Tx,0,8,7C,07,12,00,00,00,30,00,
23579359,00000187,false,Tx,0,8,4D,08,12,00,00,00,30,00,
-1667470342305340,12DD5472,true,Rx,0,8,00,00,00,00,00,00,00,00,
-1667470342305084,00000594,false,Rx,0,8,00,00,00,00,02,32,30,09,
-1667470342304785,17F00044,true,Rx,0,8,20,44,00,00,00,00,00,80,
-1667470342300178,1B000044,true,Rx,0,8,44,00,44,00,00,00,00,00,
23679271,00000187,false,Tx,0,8,D7,09,12,00,00,00,30,00,
23778340,00000187,false,Tx,0,8,27,0A,12,00,00,00,30,00,
-1667470342100126,1B000044,true,Rx,0,8,44,00,44,00,00,00,00,00,
23879338,00000187,false,Tx,0,8,F3,0B,12,00,00,00,30,00,
23979359,00000187,false,Tx,0,8,32,0C,12,00,00,00,30,00,
-1667470341900117,1B000044,true,Rx,0,8,44,00,44,00,00,00,00,00,
24079373,00000187,false,Tx,0,8,0A,0D,12,00,00,00,30,00,
-1667470341805232,12DD5472,true,Rx,0,8,00,00,00,00,00,00,00,00,
-1667470341805019,00000594,false,Rx,0,8,00,00,00,00,02,32,30,09,
-1667470341804721,17F00044,true,Rx,0,8,20,44,00,00,00,00,00,80,
24179270,00000187,false,Tx,0,8,17,0E,12,00,00,00,30,00,
-1667470341700066,1B000044,true,Rx,0,8,44,00,44,00,00,00,00,00,
-1667470341688802,17332510,true,Rx,0,8,80,08,39,55,FF,FF,FF,0C,
24279370,00000187,false,Tx,0,8,E2,0F,12,00,00,00,30,00,
-1667470341638843,17332510,true,Rx,0,5,C0,00,FE,02,22,00,00,00,
24379383,00000187,false,Tx,0,8,92,00,12,00,00,00,30,00,
-1667470341500057,1B000044,true,Rx,0,8,44,00,44,00,00,00,00,00,
24478378,00000187,false,Tx,0,8,E5,01,12,00,00,00,30,00,
24579391,00000187,false,Tx,0,8,98,02,12,00,00,00,30,00,
-1667470341305264,12DD5472,true,Rx,0,8,00,00,00,00,00,00,00,00,
-1667470341305050,00000594,false,Rx,0,8,00,00,00,00,02,32,30,09,
-1667470341304752,17F00044,true,Rx,0,8,20,44,00,00,00,00,00,80,
-1667470341300101,1B000044,true,Rx,0,8,44,00,44,00,00,00,00,00,
24679341,00000187,false,Tx,0,8,C4,03,12,00,00,00,30,00,
24779331,00000187,false,Tx,0,8,5C,04,12,00,00,00,30,00,
-1667470341100093,1B000044,true,Rx,0,8,44,00,44,00,00,00,00,00,
24879415,00000187,false,Tx,0,8,B8,05,12,00,00,00,30,00,
24979447,00000187,false,Tx,0,8,1E,06,12,00,00,00,30,00,
-1667470340900084,1B000044,true,Rx,0,8,44,00,44,00,00,00,00,00,
25079402,00000187,false,Tx,0,8,7C,07,12,00,00,00,30,00,
-1667470340805199,12DD5472,true,Rx,0,8,00,00,00,00,00,00,00,00,
-1667470340804943,00000594,false,Rx,0,8,00,00,00,00,02,32,30,09,
-1667470340804687,17F00044,true,Rx,0,8,20,44,00,00,00,00,00,80,
25179410,00000187,false,Tx,0,8,4D,08,12,00,00,00,30,00,
-1667470340700032,1B000044,true,Rx,0,8,44,00,44,00,00,00,00,00,
-1667470340688812,17332510,true,Rx,0,8,80,08,39,56,FF,FF,FF,0C,
25279400,00000187,false,Tx,0,8,D7,09,12,00,00,00,30,00,
-1667470340638767,17332510,true,Rx,0,5,C0,00,FE,03,22,00,00,00,
25379397,00000187,false,Tx,0,8,27,0A,12,00,00,00,30,00,
-1667470340500023,1B000044,true,Rx,0,8,44,00,44,00,00,00,00,00,
25480238,00000187,false,Tx,0,8,F3,0B,12,00,00,00,30,00,
25579396,00000187,false,Tx,0,8,32,0C,12,00,00,00,30,00,
-1667470340305104,12DD5472,true,Rx,0,8,00,00,00,00,00,00,00,00,
-1667470340304848,00000594,false,Rx,0,8,00,00,00,00,02,32,30,09,
-1667470340304550,17F00044,true,Rx,0,8,20,44,00,00,00,00,00,80,
-1667470340299942,1B000044,true,Rx,0,8,44,00,44,00,00,00,00,00,
25679369,00000187,false,Tx,0,8,0A,0D,12,00,00,00,30,00,
25779365,00000187,false,Tx,0,8,17,0E,12,00,00,00,30,00,
-1667470340099933,1B000044,true,Rx,0,8,44,00,44,00,00,00,00,00,
25878335,00000187,false,Tx,0,8,E2,0F,12,00,00,00,30,00,
25978436,00000187,false,Tx,0,8,92,00,12,00,00,00,30,00,
-1667470339899882,1B000044,true,Rx,0,8,44,00,44,00,00,00,00,00,
26080393,00000187,false,Tx,0,8,E5,01,12,00,00,00,30,00,
-1667470339805040,12DD5472,true,Rx,0,8,00,00,00,00,00,00,00,00,
-1667470339804784,00000594,false,Rx,0,8,00,00,00,00,02,32,30,09,
-1667470339804485,17F00044,true,Rx,0,8,20,44,00,00,00,00,00,80,
26179415,00000187,false,Tx,0,8,98,02,12,00,00,00,30,00,
-1667470339699873,1B000044,true,Rx,0,8,44,00,44,00,00,00,00,00,
-1667470339688652,17332510,true,Rx,0,4,39,5B,01,04,00,00,00,00,
26280298,00000187,false,Tx,0,8,C4,03,12,00,00,00,30,00,
26379589,00000187,false,Tx,0,8,5C,04,12,00,00,00,30,00,
-1667470339499821,1B000044,true,Rx,0,8,44,00,44,00,00,00,00,00,
26480325,00000187,false,Tx,0,8,B8,05,12,00,00,00,30,00,
26579381,00000187,false,Tx,0,8,1E,06,12,00,00,00,30,00,
-1667470339304945,12DD5472,true,Rx,0,8,00,00,00,00,00,00,00,00,
-1667470339304689,00000594,false,Rx,0,8,00,00,00,00,02,32,30,09,
-1667470339304390,17F00044,true,Rx,0,8,20,44,00,00,00,00,00,80,
-1667470339299782,1B000044,true,Rx,0,8,44,00,44,00,00,00,00,00,
26678360,00000187,false,Tx,0,8,7C,07,12,00,00,00,30,00,
26779338,00000187,false,Tx,0,8,4D,08,12,00,00,00,30,00,
-1667470339099731,1B000044,true,Rx,0,8,44,00,44,00,00,00,00,00,
26880410,00000187,false,Tx,0,8,54,89,12,00,00,00,30,00,
26979423,00000187,false,Tx,0,8,A4,8A,12,00,00,00,30,00,
-1667470338899722,1B000044,true,Rx,0,8,44,00,44,00,00,00,00,00,
27078365,00000187,false,Tx,0,8,70,8B,12,00,00,00,30,00,
-1667470338804837,12DD5472,true,Rx,0,8,00,00,00,00,00,00,00,00,
-1667470338804624,00000594,false,Rx,0,8,00,00,00,00,02,32,30,09,
-1667470338804325,17F00044,true,Rx,0,8,20,44,00,00,00,00,00,80,
27179508,00000187,false,Tx,0,8,B1,8C,12,00,00,00,30,00,
-1667470338699671,1B000044,true,Rx,0,8,44,00,44,00,00,00,00,00,
-1667470338688535,17332510,true,Rx,0,3,39,5C,21,00,00,00,00,00,
27280344,00000187,false,Tx,0,8,89,8D,12,00,00,00,30,00,
27378472,00000187,false,Tx,0,8,94,8E,12,00,00,00,30,00,
-1667470338499662,1B000044,true,Rx,0,8,44,00,44,00,00,00,00,00,
27478463,00000187,false,Tx,0,8,88,8F,12,00,00,00,30,01,
27578453,00000187,false,Tx,0,8,EC,80,12,00,00,00,30,02,
-1667470338304743,12DD5472,true,Rx,0,8,00,00,00,00,00,00,00,00,
-1667470338304529,00000594,false,Rx,0,8,00,00,00,00,02,32,30,09,
-1667470338304231,17F00044,true,Rx,0,8,20,44,00,00,00,00,00,80,
-1667470338299580,1B000044,true,Rx,0,8,44,00,44,00,00,00,00,00,
27680446,00000187,false,Tx,0,8,72,81,12,00,00,00,30,03,
27778443,00000187,false,Tx,0,8,CE,82,12,00,00,00,30,04,
-1667470338099571,1B000044,true,Rx,0,8,44,00,44,00,00,00,00,00,
27880464,00000187,false,Tx,0,8,7B,83,12,00,00,00,30,05,
27979478,00000187,false,Tx,0,8,F7,84,12,00,00,00,30,06,
-1667470337899563,1B000044,true,Rx,0,8,44,00,44,00,00,00,00,00,
28080374,00000187,false,Tx,0,8,FA,85,12,00,00,00,30,07,
-1667470337804678,12DD5472,true,Rx,0,8,00,00,00,00,00,00,00,00,
-1667470337804422,00000594,false,Rx,0,8,00,00,00,00,02,32,30,09,
-1667470337804166,17F00044,true,Rx,0,8,20,44,00,00,00,00,00,80,
28179489,00000187,false,Tx,0,8,18,86,12,00,00,00,30,08,
-1667470337699511,1B000044,true,Rx,0,8,44,00,44,00,00,00,00,00,
-1667470337688248,17332510,true,Rx,0,8,80,07,39,5D,FF,FF,FF,00,
28278454,00000187,false,Tx,0,8,93,87,12,00,00,00,30,09,
-1667470337638288,17332510,true,Rx,0,4,C0,00,00,00,00,00,00,00,
28378478,00000187,false,Tx,0,8,B6,88,12,00,00,00,30,0A,
-1667470337499502,1B000044,true,Rx,0,8,44,00,44,00,00,00,00,00,
28480442,00000187,false,Tx,0,8,C5,89,12,00,00,00,30,0B,
28578431,00000187,false,Tx,0,8,F4,8A,12,00,00,00,30,0C,
-1667470337304593,12DD5472,true,Rx,0,8,00,00,00,00,00,00,00,00,
-1667470337304337,00000594,false,Rx,0,8,00,00,00,00,02,32,30,09,
-1667470337304081,17F00044,true,Rx,0,8,20,44,00,00,00,00,00,80,
-1667470337299431,1B000044,true,Rx,0,8,44,00,44,00,00,00,00,00,
28680467,00000187,false,Tx,0,8,C9,8B,12,00,00,00,30,0D,
28779493,00000187,false,Tx,0,8,1C,8C,12,00,00,00,30,0E,
-1667470337099422,1B000044,true,Rx,0,8,44,00,44,00,00,00,00,00,
28880493,00000187,false,Tx,0,8,CD,8D,12,00,00,00,30,0F,
28979567,00000187,false,Tx,0,8,B1,8E,12,00,00,00,30,10,
-1667470336899370,1B000044,true,Rx,0,8,44,00,44,00,00,00,00,00,
29080488,00000187,false,Tx,0,8,AD,8F,12,00,00,00,30,11,
-1667470336804528,12DD5472,true,Rx,0,8,00,00,00,00,00,00,00,00,
-1667470336804272,00000594,false,Rx,0,8,00,00,00,00,02,32,30,09,
-1667470336803974,17F00044,true,Rx,0,8,20,44,00,00,00,00,00,80,
29179520,00000187,false,Tx,0,8,C9,80,12,00,00,00,30,12,
-1667470336699362,1B000044,true,Rx,0,8,44,00,44,00,00,00,00,00,
-1667470336688184,17332510,true,Rx,0,3,39,5E,03,00,00,00,00,00,
29280492,00000187,false,Tx,0,8,57,81,12,00,00,00,30,13,
29379422,00000187,false,Tx,0,8,EB,82,12,00,00,00,30,14,
-1667470336499310,1B000044,true,Rx,0,8,44,00,44,00,00,00,00,00,
29479471,00000187,false,Tx,0,8,5E,83,12,00,00,00,30,15,
29579490,00000187,false,Tx,0,8,D2,84,12,00,00,00,30,16,
-1667470336304434,12DD5472,true,Rx,0,8,00,00,00,00,00,00,00,00,
-1667470336304178,00000594,false,Rx,0,8,00,00,00,00,02,32,30,09,
-1667470336303879,17F00044,true,Rx,0,8,20,44,00,00,00,00,00,80,
-1667470336299271,1B000044,true,Rx,0,8,44,00,44,00,00,00,00,00,
29680574,00000187,false,Tx,0,8,DF,85,12,00,00,00,30,17,
29778506,00000187,false,Tx,0,8,3D,86,12,00,00,00,30,18,
-1667470336099220,1B000044,true,Rx,0,8,44,00,44,00,00,00,00,00,
29880489,00000187,false,Tx,0,8,B6,87,12,00,00,00,30,19,
29979529,00000187,false,Tx,0,8,93,88,12,00,00,00,30,1A,
-1667470335899211,1B000044,true,Rx,0,8,44,00,44,00,00,00,00,00,
30080480,00000187,false,Tx,0,8,E0,89,12,00,00,00,30,1B,
-1667470335804369,12DD5472,true,Rx,0,8,00,00,00,00,00,00,00,00,
-1667470335804113,00000594,false,Rx,0,8,00,00,00,00,02,32,30,09,
-1667470335803814,17F00044,true,Rx,0,8,20,44,00,00,00,00,00,80,
30179417,00000187,false,Tx,0,8,D1,8A,12,00,00,00,30,1C,
-1667470335699202,1B000044,true,Rx,0,8,44,00,44,00,00,00,00,00,
-1667470335687896,17332510,true,Rx,0,8,39,42,03,00,25,00,04,04,
30280533,00000187,false,Tx,0,8,EC,8B,12,00,00,00,30,1D,
30379537,00000187,false,Tx,0,8,39,8C,12,00,00,00,30,1E,
-1667470335499151,1B000044,true,Rx,0,8,44,00,44,00,00,00,00,00,
30480507,00000187,false,Tx,0,8,E8,8D,12,00,00,00,30,1F,
30579692,00000187,false,Tx,0,8,DE,8E,12,00,00,00,30,20,
-1667470335304331,12DD5472,true,Rx,0,8,00,00,00,00,00,00,00,00,
-1667470335304118,00000594,false,Rx,0,8,00,00,00,00,02,32,30,09,
-1667470335303820,17F00044,true,Rx,0,8,20,44,00,00,00,00,00,80,
-1667470335299212,1B000044,true,Rx,0,8,44,00,44,00,00,00,00,00,
30680512,00000187,false,Tx,0,8,C2,8F,12,00,00,00,30,21,
30779545,00000187,false,Tx,0,8,A6,80,12,00,00,00,30,22,
-1667470335099160,1B000044,true,Rx,0,8,44,00,44,00,00,00,00,00,
30879428,00000187,false,Tx,0,8,38,81,12,00,00,00,30,23,
30979553,00000187,false,Tx,0,8,84,82,12,00,00,00,30,24,
-1667470334899151,1B000044,true,Rx,0,8,44,00,44,00,00,00,00,00,
31079623,00000187,false,Tx,0,8,31,83,12,00,00,00,30,25,
-1667470334804267,12DD5472,true,Rx,0,8,00,00,00,00,00,00,00,00,
-1667470334804053,00000594,false,Rx,0,8,00,00,00,00,02,32,30,09,
-1667470334803755,17F00044,true,Rx,0,8,20,44,00,00,00,00,00,80,
31180514,00000187,false,Tx,0,8,BD,84,12,00,00,00,30,26,
-1667470334699100,1B000044,true,Rx,0,8,44,00,44,00,00,00,00,00,
-1667470334687879,17332510,true,Rx,0,8,80,08,39,43,78,07,FE,FE,
31279703,00000187,false,Tx,0,8,B0,85,12,00,00,00,30,27,
-1667470334637834,17332510,true,Rx,0,5,C0,00,00,00,00,00,00,00,
31379609,00000187,false,Tx,0,8,52,86,12,00,00,00,30,28,
-1667470334499091,1B000044,true,Rx,0,8,44,00,44,00,00,00,00,00,
31479603,00000187,false,Tx,0,8,D9,87,12,00,00,00,30,29,
31579973,00000187,false,Tx,0,8,FC,88,12,00,00,00,30,2A,
-1667470334304195,12DD5472,true,Rx,0,8,00,00,00,00,00,00,00,00,
-1667470334303982,00000594,false,Rx,0,8,00,00,00,00,02,32,30,09,
-1667470334303683,17F00044,true,Rx,0,8,20,44,00,00,00,00,00,80,
-1667470334299033,1B000044,true,Rx,0,8,44,00,44,00,00,00,00,00,
31680568,00000187,false,Tx,0,8,8F,89,12,00,00,00,30,2B,
31779566,00000187,false,Tx,0,8,BE,8A,12,00,00,00,30,2C,
-1667470334099024,1B000044,true,Rx,0,8,44,00,04,00,00,00,00,00,
31879559,00000187,false,Tx,0,8,83,8B,12,00,00,00,30,2D,
31979471,00000187,false,Tx,0,8,56,8C,12,00,00,00,30,2E,
-1667470333899015,1B000044,true,Rx,0,8,44,00,04,00,00,00,00,00,
32079580,00000187,false,Tx,0,8,87,8D,12,00,00,00,30,2F,
-1667470333804130,12DD5472,true,Rx,0,8,00,00,00,00,00,00,00,00,
-1667470333803874,00000594,false,Rx,0,8,00,00,00,00,02,32,30,09,
-1667470333803618,17F00044,true,Rx,0,8,20,44,00,00,00,00,00,80,
32180439,00000187,false,Tx,0,8,FB,8E,12,00,00,00,30,30,
-1667470333698963,1B000044,true,Rx,0,8,44,00,04,00,00,00,00,00,
-1667470333687786,17332510,true,Rx,0,3,39,44,0A,00,00,00,00,00,
32279499,00000187,false,Tx,0,8,E7,8F,12,00,00,00,30,31,
32379562,00000187,false,Tx,0,8,83,80,12,00,00,00,30,32,
-1667470333498955,1B000044,true,Rx,0,8,44,00,04,00,00,00,00,00,
32479568,00000187,false,Tx,0,8,1D,81,12,00,00,00,30,33,
32579554,00000187,false,Tx,0,8,A1,82,12,00,00,00,30,34,
-1667470333304036,12DD5472,true,Rx,0,8,00,00,00,00,00,00,00,00,
-1667470333303780,00000594,false,Rx,0,8,00,00,00,00,02,32,30,09,
-1667470333303481,17F00044,true,Rx,0,8,20,44,00,00,00,00,00,80,
-1667470333298873,1B000044,true,Rx,0,8,44,00,04,00,00,00,00,00,
32681574,00000187,false,Tx,0,8,14,83,12,00,00,00,30,35,
-1667470333227582,17332510,true,Rx,0,8,80,09,49,51,12,00,00,00,
-1667470333177707,17332510,true,Rx,0,3,49,5C,13,00,00,00,00,00,
32779640,00000187,false,Tx,0,8,98,84,12,00,00,00,30,36,
-1667470333127620,17332510,true,Rx,0,6,C0,FF,FF,01,FF,51,00,00,
-1667470333098864,1B000044,true,Rx,0,8,44,00,44,00,00,00,00,00,
32879986,00000187,false,Tx,0,8,95,85,12,00,00,00,30,37,
32979592,00000187,false,Tx,0,8,77,86,12,00,00,00,30,38,
-1667470332898813,1B000044,true,Rx,0,8,44,00,44,00,00,00,00,00,
33079650,00000187,false,Tx,0,8,FC,87,12,00,00,00,30,39,
-1667470332803971,12DD5472,true,Rx,0,8,00,00,00,00,00,00,00,00,
-1667470332803715,00000594,false,Rx,0,8,00,00,00,00,02,32,30,09,
-1667470332803416,17F00044,true,Rx,0,8,20,44,00,00,00,00,00,80,
33180610,00000187,false,Tx,0,8,D9,88,12,00,00,00,30,3A,
-1667470332698804,1B000044,true,Rx,0,8,44,00,44,00,00,00,00,00,
33279504,00000187,false,Tx,0,8,AA,89,12,00,00,00,30,3B,
33379600,00000187,false,Tx,0,8,9B,8A,12,00,00,00,30,3C,
-1667470332498753,1B000044,true,Rx,0,8,44,00,44,00,00,00,00,00,
33479625,00000187,false,Tx,0,8,A6,8B,12,00,00,00,30,3D,
33579631,00000187,false,Tx,0,8,73,8C,12,00,00,00,30,3E,
-1667470332303876,12DD5472,true,Rx,0,8,00,00,00,00,00,00,00,00,
-1667470332303620,00000594,false,Rx,0,8,00,00,00,00,02,32,30,09,
-1667470332303321,17F00044,true,Rx,0,8,20,44,00,00,00,00,00,80,
-1667470332298714,1B000044,true,Rx,0,8,44,00,44,00,00,00,00,00,
33681637,00000187,false,Tx,0,8,A2,8D,12,00,00,00,30,3F,
-1667470332237491,17332510,true,Rx,0,3,39,4D,00,00,00,00,00,00,
33779575,00000187,false,Tx,0,8,00,8E,12,00,00,00,30,40,
-1667470332098705,1B000044,true,Rx,0,8,44,00,44,00,00,00,00,00,
33880225,00000187,false,Tx,0,8,1C,8F,12,00,00,00,30,41,
33979641,00000187,false,Tx,0,8,78,80,12,00,00,00,30,42,
-1667470331898653,1B000044,true,Rx,0,8,44,00,44,00,00,00,00,00,
34079615,00000187,false,Tx,0,8,E6,81,12,00,00,00,30,43,
-1667470331803811,12DD5472,true,Rx,0,8,00,00,00,00,00,00,00,00,
-1667470331803555,00000594,false,Rx,0,8,00,00,00,00,02,32,30,09,
-1667470331803257,17F00044,true,Rx,0,8,20,44,00,00,00,00,00,80,
34180625,00000187,false,Tx,0,8,5A,82,12,00,00,00,30,44,
-1667470331698645,1B000044,true,Rx,0,8,44,00,44,00,00,00,00,00,
34279558,00000187,false,Tx,0,8,EF,83,12,00,00,00,30,45,
34379613,00000187,false,Tx,0,8,63,84,12,00,00,00,30,46,
-1667470331498593,1B000044,true,Rx,0,8,44,00,44,00,00,00,00,00,
34479649,00000187,false,Tx,0,8,6E,85,12,00,00,00,30,47,
34579548,00000187,false,Tx,0,8,8C,86,12,00,00,00,30,48,
-1667470331303750,12DD5472,true,Rx,0,8,00,00,00,00,00,00,00,00,
-1667470331303494,00000594,false,Rx,0,8,00,00,00,00,02,32,30,09,
-1667470331303195,17F00044,true,Rx,0,8,20,44,00,00,00,00,00,80,
-1667470331298587,1B000044,true,Rx,0,8,44,00,44,00,00,00,00,00,
34681643,00000187,false,Tx,0,8,07,87,12,00,00,00,30,49,
-1667470331237279,17332510,true,Rx,0,8,39,4E,00,00,00,00,00,00,
34779638,00000187,false,Tx,0,8,22,88,12,00,00,00,30,4A,
-1667470331098536,1B000044,true,Rx,0,8,44,00,44,00,00,00,00,00,
34879704,00000187,false,Tx,0,8,51,89,12,00,00,00,30,4B,
34979606,00000187,false,Tx,0,8,60,8A,12,00,00,00,30,4C,
-1667470330898527,1B000044,true,Rx,0,8,44,00,44,00,00,00,00,00,
35079551,00000187,false,Tx,0,8,5D,8B,12,00,00,00,30,4D,
-1667470330803642,12DD5472,true,Rx,0,8,00,00,00,00,00,00,00,00,
-1667470330803429,00000594,false,Rx,0,8,00,00,00,00,02,32,30,09,
-1667470330803130,17F00044,true,Rx,0,8,20,44,00,00,00,00,00,80,
35180651,00000187,false,Tx,0,8,88,8C,12,00,00,00,30,4E,
-1667470330698475,1B000044,true,Rx,0,8,44,00,44,00,00,00,00,00,
35280029,00000187,false,Tx,0,8,59,8D,12,00,00,00,30,4F,
-1667470330607302,17332510,true,Rx,0,4,49,50,1F,11,00,00,00,00,
35379555,00000187,false,Tx,0,8,25,8E,12,00,00,00,30,50,
-1667470330557172,17332510,true,Rx,0,8,80,09,49,51,12,00,05,00,
-1667470330507170,17332510,true,Rx,0,6,C0,FF,FF,01,FF,51,00,00,
-1667470330498467,1B000044,true,Rx,0,8,44,00,44,00,00,00,00,00,
35479675,00000187,false,Tx,0,8,39,8F,12,00,00,00,30,51,
35579648,00000187,false,Tx,0,8,5D,80,12,00,00,00,30,52,
-1667470330303547,12DD5472,true,Rx,0,8,00,00,00,00,00,00,00,00,
-1667470330303334,00000594,false,Rx,0,8,00,10,00,20,02,36,30,09,
-1667470330303035,17F00044,true,Rx,0,8,20,44,00,00,00,00,00,80,
-1667470330298385,1B000044,true,Rx,0,8,44,00,44,00,00,00,00,00,
35681739,00000187,false,Tx,0,8,C3,81,12,00,00,00,30,53,
35779656,00000187,false,Tx,0,8,7F,82,12,00,00,00,30,54,
-1667470330098376,1B000044,true,Rx,0,8,44,00,44,00,00,00,00,00,
35879661,00000187,false,Tx,0,8,CA,83,12,00,00,00,30,55,
35979675,00000187,false,Tx,0,8,46,84,12,00,00,00,30,56,
-1667470329898325,1B000044,true,Rx,0,8,44,00,44,00,00,00,00,00,
36079595,00000187,false,Tx,0,8,4B,85,12,00,00,00,30,57,
-1667470329803483,12DD5472,true,Rx,0,8,00,00,00,00,00,00,00,00,
-1667470329803269,00000594,false,Rx,0,8,00,10,00,20,02,36,30,09,
-1667470329802971,17F00044,true,Rx,0,8,20,44,00,00,00,00,00,80,
36180703,00000187,false,Tx,0,8,A9,86,12,00,00,00,30,58,
-1667470329698316,1B000044,true,Rx,0,8,44,00,44,00,00,00,00,00,
36279717,00000187,false,Tx,0,8,22,87,12,00,00,00,30,59,
-1667470329607100,17332510,true,Rx,0,3,39,4F,00,00,00,00,00,00,
36379683,00000187,false,Tx,0,8,07,88,12,00,00,00,30,5A,
-1667470329498307,1B000044,true,Rx,0,8,44,00,44,00,00,00,00,00,
36479697,00000187,false,Tx,0,8,74,89,12,00,00,00,30,5B,
36579730,00000187,false,Tx,0,8,45,8A,12,00,00,00,30,5C,
-1667470329303388,12DD5472,true,Rx,0,8,00,00,00,00,00,00,00,00,
-1667470329303175,00000594,false,Rx,0,8,00,10,00,20,02,36,30,09,
-1667470329302876,17F00044,true,Rx,0,8,20,44,00,00,00,00,00,80,
-1667470329298226,1B000044,true,Rx,0,8,44,00,44,00,00,00,00,00,
36681710,00000187,false,Tx,0,8,78,8B,12,00,00,00,30,5D,
36779735,00000187,false,Tx,0,8,AD,8C,12,00,00,00,30,5E,
-1667470329098217,1B000044,true,Rx,0,8,44,00,44,00,00,00,00,00,
36879699,00000187,false,Tx,0,8,7C,8D,12,00,00,00,30,5F,
36979741,00000187,false,Tx,0,8,4A,8E,12,00,00,00,30,60,
-1667470328898165,1B000044,true,Rx,0,8,44,00,44,00,00,00,00,00,
37079713,00000187,false,Tx,0,8,56,8F,12,00,00,00,30,61,
-1667470328803323,12DD5472,true,Rx,0,8,00,00,00,00,00,00,00,00,
-1667470328803067,00000594,false,Rx,0,8,00,10,00,20,02,36,30,09,
-1667470328802811,17F00044,true,Rx,0,8,20,44,00,00,00,00,00,80,
37180601,00000187,false,Tx,0,8,32,80,12,00,00,00,30,62,
-1667470328698156,1B000044,true,Rx,0,8,44,00,44,00,00,00,00,00,
37279735,00000187,false,Tx,0,8,AC,81,12,00,00,00,30,63,
-1667470328606941,17332510,true,Rx,0,4,39,50,1F,11,00,00,00,00,
37379724,00000187,false,Tx,0,8,10,82,12,00,00,00,30,64,
-1667470328498148,1B000044,true,Rx,0,8,44,00,44,00,00,00,00,00,
37479710,00000187,false,Tx,0,8,A5,83,12,00,00,00,30,65,
37579737,00000187,false,Tx,0,8,29,84,12,00,00,00,30,66,
-1667470328303228,12DD5472,true,Rx,0,8,00,00,00,00,00,00,00,00,
-1667470328302972,00000594,false,Rx,0,8,00,10,00,20,02,36,30,09,
-1667470328302674,17F00044,true,Rx,0,8,20,44,00,00,00,00,00,80,
-1667470328298066,1B000044,true,Rx,0,8,44,00,44,00,00,00,00,00,
37681685,00000187,false,Tx,0,8,24,85,12,00,00,00,30,67,
37780718,00000187,false,Tx,0,8,C6,86,12,00,00,00,30,68,
-1667470328098057,1B000044,true,Rx,0,8,44,00,44,00,00,00,00,00,
37880778,00000187,false,Tx,0,8,4D,87,12,00,00,00,30,69,
37980629,00000187,false,Tx,0,8,68,88,12,00,00,00,30,6A,
-1667470327898006,1B000044,true,Rx,0,8,44,00,44,00,00,00,00,00,
38080691,00000187,false,Tx,0,8,1B,89,12,00,00,00,30,6B,
-1667470327803164,12DD5472,true,Rx,0,8,00,00,00,00,00,00,00,00,
-1667470327802908,00000594,false,Rx,0,8,00,10,00,20,02,36,30,09,
-1667470327802609,17F00044,true,Rx,0,8,20,44,00,00,00,00,00,80,
38181712,00000187,false,Tx,0,8,2A,8A,12,00,00,00,30,6C,
-1667470327697997,1B000044,true,Rx,0,8,44,00,44,00,00,00,00,00,
38280748,00000187,false,Tx,0,8,17,8B,12,00,00,00,30,6D,
-1667470327606653,17332510,true,Rx,0,8,80,09,39,51,12,00,05,00,
38379945,00000187,false,Tx,0,8,C2,8C,12,00,00,00,30,6E,
-1667470327556694,17332510,true,Rx,0,6,C0,FF,FF,01,FF,51,00,00,
-1667470327497945,1B000044,true,Rx,0,8,44,00,44,00,00,00,00,00,
38480646,00000187,false,Tx,0,8,13,8D,12,00,00,00,30,6F,
38580756,00000187,false,Tx,0,8,6F,8E,12,00,00,00,30,70,
-1667470327303076,12DD5472,true,Rx,0,8,00,00,00,00,00,00,00,00,
-1667470327302820,00000594,false,Rx,0,8,00,10,00,20,02,36,30,09,
-1667470327302521,17F00044,true,Rx,0,8,20,44,00,00,00,00,00,80,
-1667470327297914,1B000044,true,Rx,0,8,44,00,44,00,00,00,00,00,
38681654,00000187,false,Tx,0,8,73,8F,12,00,00,00,30,71,
38780283,00000187,false,Tx,0,8,17,80,12,00,00,00,30,72,
-1667470327097862,1B000044,true,Rx,0,8,44,00,44,00,00,00,00,00,
38880648,00000187,false,Tx,0,8,89,81,12,00,00,00,30,73,
38980669,00000187,false,Tx,0,8,35,82,12,00,00,00,30,74,
-1667470326897853,1B000044,true,Rx,0,8,44,00,44,00,00,00,00,00,
39080756,00000187,false,Tx,0,8,80,83,12,00,00,00,30,75,
-1667470326803011,12DD5472,true,Rx,0,8,00,00,00,00,00,00,00,00,
-1667470326802755,00000594,false,Rx,0,8,00,10,00,20,02,36,30,09,
-1667470326802457,17F00044,true,Rx,0,8,20,44,00,00,00,00,00,80,
39181775,00000187,false,Tx,0,8,0C,84,12,00,00,00,30,76,
-1667470326697802,1B000044,true,Rx,0,8,44,00,44,00,00,00,00,00,
39280791,00000187,false,Tx,0,8,01,85,12,00,00,00,30,77,
-1667470326606543,17332510,true,Rx,0,8,80,07,39,52,00,64,00,00,
39380225,00000187,false,Tx,0,8,E3,86,12,00,00,00,30,78,
-1667470326556584,17332510,true,Rx,0,4,C0,00,BB,00,00,00,00,00,
-1667470326497793,1B000044,true,Rx,0,8,44,00,44,00,00,00,00,00,
39480788,00000187,false,Tx,0,8,68,87,12,00,00,00,30,79,
39580648,00000187,false,Tx,0,8,4D,88,12,00,00,00,30,7A,
-1667470326302972,12DD5472,true,Rx,0,8,00,00,00,00,00,00,00,00,
-1667470326302716,00000594,false,Rx,0,8,00,10,00,20,02,36,30,09,
-1667470326302418,17F00044,true,Rx,0,8,20,44,00,00,00,00,00,80,
-1667470326297810,1B000044,true,Rx,0,8,44,00,44,00,00,00,00,00,
39681772,00000187,false,Tx,0,8,3E,89,12,00,00,00,30,7B,
39780696,00000187,false,Tx,0,8,0F,8A,12,00,00,00,30,7C,
-1667470326097759,1B000044,true,Rx,0,8,44,00,44,00,00,00,00,00,
39880738,00000187,false,Tx,0,8,32,8B,12,00,00,00,30,7D,
39980793,00000187,false,Tx,0,8,E7,8C,12,00,00,00,30,7E,
-1667470325897750,1B000044,true,Rx,0,8,44,00,44,00,00,00,00,00,
40080828,00000187,false,Tx,0,8,36,8D,12,00,00,00,30,7F,
-1667470325802865,12DD5472,true,Rx,0,8,00,00,00,00,00,00,00,00,
-1667470325802652,00000594,false,Rx,0,8,00,10,00,20,02,36,30,09,
-1667470325802353,17F00044,true,Rx,0,8,20,44,00,00,00,00,00,80,
40181788,00000187,false,Tx,0,8,93,8E,12,00,00,00,30,80,
-1667470325697698,1B000044,true,Rx,0,8,44,00,44,00,00,00,00,00,
40280761,00000187,false,Tx,0,8,8F,8F,12,00,00,00,30,81,
-1667470325606483,17332510,true,Rx,0,4,39,53,00,00,00,00,00,00,
40380825,00000187,false,Tx,0,8,EB,80,12,00,00,00,30,82,
-1667470325497689,1B000044,true,Rx,0,8,44,00,44,00,00,00,00,00,
40480796,00000187,false,Tx,0,8,75,81,12,00,00,00,30,83,
40580817,00000187,false,Tx,0,8,C9,82,12,00,00,00,30,84,
-1667470325302881,12DD5472,true,Rx,0,8,00,00,00,00,00,00,00,00,
-1667470325302668,00000594,false,Rx,0,8,00,10,00,20,02,36,30,09,
-1667470325302369,17F00044,true,Rx,0,8,20,44,00,00,00,00,00,80,
-1667470325297762,1B000044,true,Rx,0,8,44,00,44,00,00,00,00,00,
40682768,00000187,false,Tx,0,8,7C,83,12,00,00,00,30,85,
40780816,00000187,false,Tx,0,8,F0,84,12,00,00,00,30,86,
-1667470325097710,1B000044,true,Rx,0,8,44,00,44,00,00,00,00,00,
40880807,00000187,false,Tx,0,8,FD,85,12,00,00,00,30,87,
40980765,00000187,false,Tx,0,8,1F,86,12,00,00,00,30,88,
-1667470324897701,1B000044,true,Rx,0,8,44,00,44,00,00,00,00,00,
41080672,00000187,false,Tx,0,8,94,87,12,00,00,00,30,89,
-1667470324802817,12DD5472,true,Rx,0,8,00,00,00,00,00,00,00,00,
-1667470324802603,00000594,false,Rx,0,8,00,10,00,20,02,36,30,09,
-1667470324802305,17F00044,true,Rx,0,8,20,44,00,00,00,00,00,80,
41182699,00000187,false,Tx,0,8,B1,88,12,00,00,00,30,8A,
-1667470324697650,1B000044,true,Rx,0,8,44,00,44,00,00,00,00,00,
41280854,00000187,false,Tx,0,8,C2,89,12,00,00,00,30,8B,
-1667470324606391,17332510,true,Rx,0,8,80,08,39,54,FF,FF,FF,0C,
41380816,00000187,false,Tx,0,8,F3,8A,12,00,00,00,30,8C,
-1667470324556389,17332510,true,Rx,0,5,C0,00,FE,01,22,00,00,00,
-1667470324497641,1B000044,true,Rx,0,8,44,00,44,00,00,00,00,00,
41480879,00000187,false,Tx,0,8,CE,8B,12,00,00,00,30,8D,
41580798,00000187,false,Tx,0,8,1B,8C,12,00,00,00,30,8E,
-1667470324302722,12DD5472,true,Rx,0,8,00,00,00,00,00,00,00,00,
-1667470324302508,00000594,false,Rx,0,8,00,10,00,20,02,36,30,09,
-1667470324302210,17F00044,true,Rx,0,8,20,44,00,00,00,00,00,80,
-1667470324297559,1B000044,true,Rx,0,8,44,00,44,00,00,00,00,00,
41682812,00000187,false,Tx,0,8,CA,8D,12,00,00,00,30,8F,
41780778,00000187,false,Tx,0,8,B6,8E,12,00,00,00,30,90,
-1667470324097551,1B000044,true,Rx,0,8,44,00,44,00,00,00,00,00,
41880778,00000187,false,Tx,0,8,AA,8F,12,00,00,00,30,91,
41980791,00000187,false,Tx,0,8,CE,80,12,00,00,00,30,92,
-1667470323897542,1B000044,true,Rx,0,8,44,00,44,00,00,00,00,00,
42080754,00000187,false,Tx,0,8,50,81,12,00,00,00,30,93,
-1667470323802657,12DD5472,true,Rx,0,8,00,00,00,00,00,00,00,00,
-1667470323802444,00000594,false,Rx,0,8,00,10,00,20,02,36,30,09,
-1667470323802145,17F00044,true,Rx,0,8,20,44,00,00,00,00,00,80,
42182853,00000187,false,Tx,0,8,EC,82,12,00,00,00,30,94,
-1667470323697490,1B000044,true,Rx,0,8,44,00,44,00,00,00,00,00,
42280835,00000187,false,Tx,0,8,59,83,12,00,00,00,30,95,
-1667470323606189,17332510,true,Rx,0,8,80,08,39,55,FF,FF,FF,0C,
42380763,00000187,false,Tx,0,8,D5,84,12,00,00,00,30,96,
-1667470323556230,17332510,true,Rx,0,5,C0,00,FE,02,22,00,00,00,
-1667470323497481,1B000044,true,Rx,0,8,44,00,44,00,00,00,00,00,
42480996,00000187,false,Tx,0,8,D8,85,12,00,00,00,30,97,
42580896,00000187,false,Tx,0,8,3A,86,12,00,00,00,30,98,
-1667470323302562,12DD5472,true,Rx,0,8,00,00,00,00,00,00,00,00,
-1667470323302306,00000594,false,Rx,0,8,00,10,00,20,02,36,30,09,
-1667470323302050,17F00044,true,Rx,0,8,20,44,00,00,00,00,00,80,
-1667470323297400,1B000044,true,Rx,0,8,44,00,44,00,00,00,00,00,
42682873,00000187,false,Tx,0,8,B1,87,12,00,00,00,30,99,
42780872,00000187,false,Tx,0,8,94,88,12,00,00,00,30,9A,
-1667470323097391,1B000044,true,Rx,0,8,44,00,44,00,00,00,00,00,
42880778,00000187,false,Tx,0,8,E7,89,12,00,00,00,30,9B,
42980741,00000187,false,Tx,0,8,D6,8A,12,00,00,00,30,9C,
-1667470322897340,1B000044,true,Rx,0,8,44,00,44,00,00,00,00,00,
43080951,00000187,false,Tx,0,8,EB,8B,12,00,00,00,30,9D,
-1667470322802498,12DD5472,true,Rx,0,8,00,00,00,00,00,00,00,00,
-1667470322802242,00000594,false,Rx,0,8,00,10,00,20,02,36,30,09,
-1667470322801943,17F00044,true,Rx,0,8,20,44,00,00,00,00,00,80,
43181793,00000187,false,Tx,0,8,3E,8C,12,00,00,00,30,9E,
-1667470322697331,1B000044,true,Rx,0,8,44,00,44,00,00,00,00,00,
43280888,00000187,false,Tx,0,8,EF,8D,12,00,00,00,30,9F,
-1667470322606030,17332510,true,Rx,0,8,80,08,39,56,FF,FF,FF,0C,
43380845,00000187,false,Tx,0,8,D9,8E,12,00,00,00,30,A0,
-1667470322556028,17332510,true,Rx,0,5,C0,00,FE,03,22,00,00,00,
-1667470322497322,1B000044,true,Rx,0,8,44,00,44,00,00,00,00,00,
43480959,00000187,false,Tx,0,8,C5,8F,12,00,00,00,30,A1,
43580842,00000187,false,Tx,0,8,A1,80,12,00,00,00,30,A2,
-1667470322302481,12DD5472,true,Rx,0,8,00,00,00,00,00,00,00,00,
-1667470322302225,00000594,false,Rx,0,8,00,10,00,20,02,36,30,09,
-1667470322301926,17F00044,true,Rx,0,8,20,44,00,00,00,00,00,80,
-1667470322297318,1B000044,true,Rx,0,8,44,00,44,00,00,00,00,00,
43682863,00000187,false,Tx,0,8,3F,81,12,00,00,00,30,A3,
43780765,00000187,false,Tx,0,8,83,82,12,00,00,00,30,A4,
-1667470322097310,1B000044,true,Rx,0,8,44,00,44,00,00,00,00,00,
43880944,00000187,false,Tx,0,8,36,83,12,00,00,00,30,A5,
43980913,00000187,false,Tx,0,8,BA,84,12,00,00,00,30,A6,
-1667470321897258,1B000044,true,Rx,0,8,44,00,44,00,00,00,00,00,
44080919,00000187,false,Tx,0,8,B7,85,12,00,00,00,30,A7,
-1667470321802416,12DD5472,true,Rx,0,8,00,00,00,00,00,00,00,00,
-1667470321802160,00000594,false,Rx,0,8,00,10,00,20,02,36,30,09,
-1667470321801861,17F00044,true,Rx,0,8,20,44,00,00,00,00,00,80,
44181881,00000187,false,Tx,0,8,55,86,12,00,00,00,30,A8,
-1667470321697249,1B000044,true,Rx,0,8,44,00,44,00,00,00,00,00,
44281063,00000187,false,Tx,0,8,DE,87,12,00,00,00,30,A9,
-1667470321606034,17332510,true,Rx,0,4,39,5B,01,04,00,00,00,00,
44380935,00000187,false,Tx,0,8,FB,88,12,00,00,00,30,AA,
-1667470321497198,1B000044,true,Rx,0,8,44,00,44,00,00,00,00,00,
44480932,00000187,false,Tx,0,8,88,89,12,00,00,00,30,AB,
44580934,00000187,false,Tx,0,8,B9,8A,12,00,00,00,30,AC,
-1667470321302321,12DD5472,true,Rx,0,8,00,00,00,00,00,00,00,00,
-1667470321302065,00000594,false,Rx,0,8,00,10,00,20,02,36,30,09,
-1667470321301767,17F00044,true,Rx,0,8,20,44,00,00,00,00,00,80,
-1667470321297159,1B000044,true,Rx,0,8,44,00,44,00,00,00,00,00,
44682807,00000187,false,Tx,0,8,84,8B,12,00,00,00,30,AD,
44781059,00000187,false,Tx,0,8,51,8C,12,00,00,00,30,AE,
-1667470321097150,1B000044,true,Rx,0,8,44,00,44,00,00,00,00,00,
44880929,00000187,false,Tx,0,8,80,8D,12,00,00,00,30,AF,
44981813,00000187,false,Tx,0,8,FC,8E,12,00,00,00,30,B0,
-1667470320897099,1B000044,true,Rx,0,8,44,00,44,00,00,00,00,00,
45081800,00000187,false,Tx,0,8,E0,8F,12,00,00,00,30,B1,
-1667470320802257,12DD5472,true,Rx,0,8,00,00,00,00,00,00,00,00,
-1667470320802001,00000594,false,Rx,0,8,00,10,00,20,02,36,30,09,
-1667470320801702,17F00044,true,Rx,0,8,20,44,00,00,00,00,00,80,
45182022,00000187,false,Tx,0,8,84,80,12,00,00,00,30,B2,
-1667470320697090,1B000044,true,Rx,0,8,44,00,44,00,00,00,00,00,
45280922,00000187,false,Tx,0,8,1A,81,12,00,00,00,30,B3,
-1667470320605874,17332510,true,Rx,0,3,39,5C,13,00,00,00,00,00,
45380951,00000187,false,Tx,0,8,A6,82,12,00,00,00,30,B4,
-1667470320497038,1B000044,true,Rx,0,8,44,00,44,00,00,00,00,00,
45481919,00000187,false,Tx,0,8,13,83,12,00,00,00,30,B5,
45581168,00000187,false,Tx,0,8,9F,84,12,00,00,00,30,B6,
-1667470320302184,12DD5472,true,Rx,0,8,00,00,00,00,00,00,00,00,
-1667470320301928,00000594,false,Rx,0,8,00,10,00,20,02,36,30,09,
-1667470320301629,17F00044,true,Rx,0,8,20,44,00,00,00,00,00,80,
-1667470320297021,1B000044,true,Rx,0,8,44,00,44,00,00,00,00,00,
45682946,00000187,false,Tx,0,8,92,85,12,00,00,00,30,B7,
45781925,00000187,false,Tx,0,8,70,86,12,00,00,00,30,B8,
-1667470320096970,1B000044,true,Rx,0,8,44,00,44,00,00,00,00,00,
45881928,00000187,false,Tx,0,8,FB,87,12,00,00,00,30,B9,
45981916,00000187,false,Tx,0,8,DE,88,12,00,00,00,30,BA,
-1667470319896961,1B000044,true,Rx,0,8,44,00,44,00,00,00,00,00,
46081248,00000187,false,Tx,0,8,AD,89,12,00,00,00,30,BB,
-1667470319802119,12DD5472,true,Rx,0,8,00,00,00,00,00,00,00,00,
-1667470319801863,00000594,false,Rx,0,8,00,10,00,20,02,36,30,09,
-1667470319801564,17F00044,true,Rx,0,8,20,44,00,00,00,00,00,80,
46181981,00000187,false,Tx,0,8,9C,8A,12,00,00,00,30,BC,
-1667470319696952,1B000044,true,Rx,0,8,44,00,44,00,00,00,00,00,
46281863,00000187,false,Tx,0,8,A1,8B,12,00,00,00,30,BD,
-1667470319605651,17332510,true,Rx,0,8,80,07,39,5D,FF,FF,FF,00,
46381959,00000187,false,Tx,0,8,74,8C,12,00,00,00,30,BE,
-1667470319555692,17332510,true,Rx,0,4,C0,00,00,00,00,00,00,00,
-1667470319496901,1B000044,true,Rx,0,8,44,00,44,00,00,00,00,00,
46481987,00000187,false,Tx,0,8,A5,8D,12,00,00,00,30,BF,
-1667470319396939,00000594,false,Rx,0,8,00,10,00,00,00,12,30,09,
-1667470319385718,17332510,true,Rx,0,4,49,50,1F,21,00,00,00,00,
46581969,00000187,false,Tx,0,8,07,8E,12,00,00,00,30,C0,
-1667470319335603,17332510,true,Rx,0,8,80,09,49,51,11,00,FF,FF,
-1667470319302026,12DD5472,true,Rx,0,8,00,00,00,00,00,00,00,00,
-1667470319301770,00000594,false,Rx,0,8,00,00,00,00,00,12,30,09,
-1667470319301472,17F00044,true,Rx,0,8,20,44,00,00,00,00,00,80,
-1667470319296864,1B000044,true,Rx,0,8,44,00,44,00,00,00,00,00,
-1667470319285686,17332510,true,Rx,0,3,49,5C,21,00,00,00,00,00,
46682887,00000187,false,Tx,0,8,1B,8F,12,00,00,00,30,C1,
-1667470319235599,17332510,true,Rx,0,6,C0,FF,FF,01,FF,01,00,00,
46781886,00000187,false,Tx,0,8,7F,80,12,00,00,00,30,C2,
-1667470319096813,1B000044,true,Rx,0,8,44,00,44,00,00,00,00,00,
46881959,00000187,false,Tx,0,8,E1,81,12,00,00,00,30,C3,
46981937,00000187,false,Tx,0,8,5D,82,12,00,00,00,30,C4,
-1667470318896804,1B000044,true,Rx,0,8,44,00,44,00,00,00,00,00,
47081974,00000187,false,Tx,0,8,E8,83,12,00,00,00,30,C5,
-1667470318801962,12DD5472,true,Rx,0,8,00,00,00,00,00,00,00,00,
-1667470318801706,00000594,false,Rx,0,8,00,00,00,00,00,12,30,09,
-1667470318801407,17F00044,true,Rx,0,8,20,44,00,00,00,00,00,80,
47182023,00000187,false,Tx,0,8,64,84,12,00,00,00,30,C6,
-1667470318696795,1B000044,true,Rx,0,8,44,00,44,00,00,00,00,00,
47281893,00000187,false,Tx,0,8,69,85,12,00,00,00,30,C7,
47382045,00000187,false,Tx,0,8,8B,86,12,00,00,00,30,C8,
-1667470318496743,1B000044,true,Rx,0,8,44,00,44,00,00,00,00,00,
47481975,00000187,false,Tx,0,8,00,87,12,00,00,00,30,C9,
-1667470318395544,17332510,true,Rx,0,3,39,5E,03,00,00,00,00,00,
47581907,00000187,false,Tx,0,8,25,88,12,00,00,00,30,CA,
-1667470318301867,12DD5472,true,Rx,0,8,00,00,00,00,00,00,00,00,
-1667470318301611,00000594,false,Rx,0,8,00,00,00,00,00,12,30,09,
-1667470318301312,17F00044,true,Rx,0,8,20,44,00,00,00,00,00,80,
-1667470318296705,1B000044,true,Rx,0,8,44,00,44,00,00,00,00,00,
47683011,00000187,false,Tx,0,8,56,89,12,00,00,00,30,CB,
47781998,00000187,false,Tx,0,8,67,8A,12,00,00,00,30,CC,
-1667470318096653,1B000044,true,Rx,0,8,44,00,44,00,00,00,00,00,
47882044,00000187,false,Tx,0,8,5A,8B,12,00,00,00,30,CD,
47982028,00000187,false,Tx,0,8,8F,8C,12,00,00,00,30,CE,
-1667470317896644,1B000044,true,Rx,0,8,44,00,44,00,00,00,00,00,
48081979,00000187,false,Tx,0,8,5E,8D,12,00,00,00,30,CF,
-1667470317801759,12DD5472,true,Rx,0,8,00,00,00,00,00,00,00,00,
-1667470317801546,00000594,false,Rx,0,8,00,00,00,00,00,12,30,09,
-1667470317801247,17F00044,true,Rx,0,8,20,44,00,00,00,00,00,80,
48183006,00000187,false,Tx,0,8,22,8E,12,00,00,00,30,D0,
-1667470317696593,1B000044,true,Rx,0,8,44,00,44,00,00,00,00,00,
48282036,00000187,false,Tx,0,8,3E,8F,12,00,00,00,30,D1,
48382034,00000187,false,Tx,0,8,5A,80,12,00,00,00,30,D2,
-1667470317496584,1B000044,true,Rx,0,8,44,00,44,00,00,00,00,00,
48482064,00000187,false,Tx,0,8,C4,81,12,00,00,00,30,D3,
-1667470317395300,17332510,true,Rx,0,8,39,42,03,00,25,00,04,04,
48582011,00000187,false,Tx,0,8,78,82,12,00,00,00,30,D4,
-1667470317301795,12DD5472,true,Rx,0,8,00,00,00,00,00,00,00,00,
-1667470317301581,00000594,false,Rx,0,8,00,00,00,00,00,12,30,09,
-1667470317301283,17F00044,true,Rx,0,8,20,44,00,00,00,00,00,80,
-1667470317296675,1B000044,true,Rx,0,8,44,00,44,00,00,00,00,00,
48682981,00000187,false,Tx,0,8,CD,83,12,00,00,00,30,D5,
48782131,00000187,false,Tx,0,8,41,84,12,00,00,00,30,D6,
-1667470317096624,1B000044,true,Rx,0,8,44,00,44,00,00,00,00,00,
48881921,00000187,false,Tx,0,8,4C,85,12,00,00,00,30,D7,
48981943,00000187,false,Tx,0,8,AE,86,12,00,00,00,30,D8,
-1667470316955320,17332510,true,Rx,0,8,80,09,49,51,01,00,FF,FF,
-1667470316905361,17332510,true,Rx,0,6,C0,FF,FF,01,FF,01,00,00,
-1667470316896615,1B000044,true,Rx,0,8,44,00,44,00,00,00,00,00,
49082082,00000187,false,Tx,0,8,25,87,12,00,00,00,30,D9,
-1667470316801730,12DD5472,true,Rx,0,8,00,00,00,00,00,00,00,00,
-1667470316801517,00000594,false,Rx,0,8,00,00,00,00,00,12,30,09,
-1667470316801218,17F00044,true,Rx,0,8,20,44,00,00,00,00,00,80,
49183011,00000187,false,Tx,0,8,00,88,12,00,00,00,30,DA,
-1667470316696563,1B000044,true,Rx,0,8,44,00,44,00,00,00,00,00,
49282051,00000187,false,Tx,0,8,73,89,12,00,00,00,30,DB,
49382025,00000187,false,Tx,0,8,42,8A,12,00,00,00,30,DC,
-1667470316496554,1B000044,true,Rx,0,8,44,00,44,00,00,00,00,00,
49481934,00000187,false,Tx,0,8,7F,8B,12,00,00,00,30,DD,
-1667470316301670,12DD5472,true,Rx,0,8,00,00,00,00,00,00,00,00,
-1667470316301457,00000594,false,Rx,0,8,00,00,00,00,00,12,30,09,
-1667470316301158,17F00044,true,Rx,0,8,20,44,00,00,00,00,00,80,
-1667470316296508,1B000044,true,Rx,0,8,44,00,44,00,00,00,00,00,
-1667470316096499,1B000044,true,Rx,0,8,44,00,44,00,00,00,00,00,
-1667470315965222,17332510,true,Rx,0,8,80,08,39,43,78,07,FE,FE,
-1667470315915220,17332510,true,Rx,0,5,C0,00,00,00,00,00,00,00,
-1667470315896490,1B000044,true,Rx,0,8,44,00,44,00,00,00,00,00,
-1667470315801605,12DD5472,true,Rx,0,8,00,00,00,00,00,00,00,00,
-1667470315801392,00000594,false,Rx,0,8,00,00,00,00,00,12,30,09,
-1667470315801094,17F00044,true,Rx,0,8,20,44,00,00,00,00,00,80,
-1667470315696439,1B000044,true,Rx,0,8,44,00,44,00,00,00,00,00,
-1667470315496430,1B000044,true,Rx,0,8,44,00,44,00,00,00,00,00,
-1667470315301511,12DD5472,true,Rx,0,8,00,00,00,00,00,00,00,00,
-1667470315301297,00000594,false,Rx,0,8,00,00,00,00,00,12,30,09,
-1667470315300999,17F00044,true,Rx,0,8,20,44,00,00,00,00,00,80,
-1667470315296391,1B000044,true,Rx,0,8,44,00,44,00,00,00,00,00,
-1667470315096340,1B000044,true,Rx,0,8,44,00,44,00,00,00,00,00,
-1667470314965148,17332510,true,Rx,0,3,39,44,0A,00,00,00,00,00,
-1667470314896331,1B000044,true,Rx,0,8,44,00,44,00,00,00,00,00,
-1667470314801446,12DD5472,true,Rx,0,8,00,00,00,00,00,00,00,00,
-1667470314801190,00000594,false,Rx,0,8,00,00,00,00,00,12,30,09,
-1667470314800934,17F00044,true,Rx,0,8,20,44,00,00,00,00,00,80,
-1667470314696279,1B000044,true,Rx,0,8,44,00,44,00,00,00,00,00,
-1667470314496270,1B000044,true,Rx,0,8,44,00,44,00,00,00,00,00,
-1667470314435090,17332510,true,Rx,0,4,49,50,1F,01,00,00,00,00,
-1667470314384960,17332510,true,Rx,0,8,80,09,49,51,0C,00,FF,FF,
-1667470314335269,17332510,true,Rx,0,3,49,5C,22,00,00,00,00,00,
-1667470314301351,12DD5472,true,Rx,0,8,00,00,00,00,00,00,00,00,
-1667470314301095,00000594,false,Rx,0,8,00,00,00,00,00,02,30,09,
-1667470314300839,17F00044,true,Rx,0,8,20,44,00,00,00,00,00,80,
-1667470314296189,1B000044,true,Rx,0,8,44,00,44,00,00,00,00,00,
-1667470314285224,17332510,true,Rx,0,6,C0,FF,FF,01,FF,01,00,00,
