Time Stamp,ID,Extended,Dir,Bus,LEN,D1,D2,D3,D4,D5,D6,D7,D8
66396,00000570,false,Tx,0,2,FF,00,00,00,00,00,00,00,
594543,00000570,false,Tx,0,2,FF,00,00,00,00,00,00,00,
1125472,00000570,false,Tx,0,2,FF,00,00,00,00,00,00,00,
1653954,00000570,false,Tx,0,2,FF,00,00,00,00,00,00,00,
2048011,00000564,false,Rx,1,8,4B,7F,FF,FE,FB,1F,FE,FE,
2072848,0000038B,false,Rx,1,8,00,00,FE,00,00,00,00,00,
2078051,1B000044,true,Rx,0,8,44,00,01,01,04,00,00,00,
2152868,00000564,false,Rx,1,8,09,70,FF,FE,FB,1F,FE,FE,
2172851,0000038B,false,Rx,1,8,00,00,00,00,00,00,00,00,
2172908,17F00044,true,Rx,0,8,20,44,00,00,00,00,00,80,
2182411,00000570,false,Tx,0,2,FF,00,00,00,00,00,00,00,
2258032,00000564,false,Rx,1,8,23,01,00,00,F8,17,37,00,
2272862,0000038B,false,Rx,1,8,00,00,00,00,00,00,00,00,
2278056,1B000044,true,Rx,0,8,44,00,01,01,04,00,00,00,
2362874,00000564,false,Rx,1,8,8F,02,00,00,F8,17,37,00,
2372862,0000038B,false,Rx,1,8,00,00,00,00,00,00,00,00,
2468035,00000564,false,Rx,1,8,EB,03,00,00,F8,17,37,00,
2472872,0000038B,false,Rx,1,8,00,00,00,00,00,00,00,00,
2478065,1B000044,true,Rx,0,8,44,00,01,01,04,00,00,00,
2572870,0000038B,false,Rx,1,8,00,00,00,00,00,00,00,00,
2573103,00000564,false,Rx,1,8,F8,04,00,00,F8,17,37,00,
2672872,0000038B,false,Rx,1,8,00,00,00,00,00,00,00,00,
2672920,17F00044,true,Rx,0,8,20,44,00,00,00,00,00,80,
2673107,0000067E,false,Rx,1,8,6E,02,00,00,3B,00,00,00,
2678068,00000564,false,Rx,1,8,9C,05,00,00,F8,17,37,00,
2678110,1B000044,true,Rx,0,8,44,00,01,01,04,00,00,00,
2708902,00000570,false,Tx,0,2,FF,00,00,00,00,00,00,00,
2772878,0000038B,false,Rx,1,8,00,00,00,00,00,00,00,00,
2872882,0000038B,false,Rx,1,8,00,00,00,00,00,00,00,00,
2878086,1B000044,true,Rx,0,8,44,00,01,01,04,00,00,00,
2972884,0000038B,false,Rx,1,8,00,00,00,00,00,00,00,00,
3072890,0000038B,false,Rx,1,8,00,00,00,00,00,00,00,00,
3078096,1B000044,true,Rx,0,8,44,00,01,01,04,00,00,00,
3172892,0000038B,false,Rx,1,8,00,00,00,00,00,00,00,00,
3172940,17F00044,true,Rx,0,8,20,44,00,00,00,00,00,80,
3235770,00000570,false,Tx,0,2,FF,00,00,00,00,00,00,00,
3272901,0000038B,false,Rx,1,8,00,00,00,00,00,00,00,00,
3278096,1B000044,true,Rx,0,8,44,00,01,01,04,00,00,00,
3372901,0000038B,false,Rx,1,8,00,00,00,00,00,00,00,00,
3472904,0000038B,false,Rx,1,8,00,00,00,00,00,00,00,00,
3478107,1B000044,true,Rx,0,8,44,00,01,01,04,00,00,00,
3572906,0000038B,false,Rx,1,8,00,00,00,00,00,00,00,00,
3672914,0000038B,false,Rx,1,8,00,00,00,00,00,00,00,00,
3672982,17F00044,true,Rx,0,8,20,44,00,00,00,00,00,80,
3673149,00000564,false,Rx,1,8,30,06,00,00,F8,17,37,00,
3673681,0000067E,false,Rx,1,8,F6,03,00,00,3B,00,00,F0,
3678112,1B000044,true,Rx,0,8,44,00,01,01,04,00,00,00,
3760179,00000570,false,Tx,0,2,FF,00,00,00,00,00,00,00,
3772916,0000038B,false,Rx,1,8,00,00,00,00,00,00,00,00,
3872922,0000038B,false,Rx,1,8,00,00,00,00,00,00,00,00,
3878125,1B000044,true,Rx,0,8,44,00,01,01,04,00,00,00,
3972924,0000038B,false,Rx,1,8,00,00,00,00,00,00,00,00,
4072927,0000038B,false,Rx,1,8,00,00,00,00,00,00,00,00,
4078132,1B000044,true,Rx,0,8,44,00,01,01,04,00,00,00,
4172927,0000038B,false,Rx,1,8,00,00,00,00,00,00,00,00,
4172975,17F00044,true,Rx,0,8,20,44,00,00,00,00,00,80,
4272931,0000038B,false,Rx,1,8,00,00,00,00,00,00,00,00,
4278136,1B000044,true,Rx,0,8,44,00,01,01,04,00,00,00,
4297965,00000570,false,Tx,0,2,FF,00,00,00,00,00,00,00,
4372942,0000038B,false,Rx,1,8,00,00,00,00,00,00,00,00,
4472949,0000038B,false,Rx,1,8,00,00,00,00,00,00,00,00,
4478144,1B000044,true,Rx,0,8,44,00,01,01,04,00,00,00,
4572947,0000038B,false,Rx,1,8,00,00,00,00,00,00,00,00,
4672958,0000038B,false,Rx,1,8,00,00,00,00,00,00,00,00,
4673025,17F00044,true,Rx,0,8,20,44,00,00,00,00,00,80,
4673184,00000564,false,Rx,1,8,54,07,00,00,F8,17,37,00,
4673724,0000067E,false,Rx,1,8,E5,04,00,00,3B,00,00,F0,
4678155,1B000044,true,Rx,0,8,44,00,01,01,04,00,00,00,
4772959,0000038B,false,Rx,1,8,00,00,00,00,00,00,00,00,
4832712,00000570,false,Tx,0,2,FF,00,00,00,00,00,00,00,
4872957,0000038B,false,Rx,1,8,00,00,00,00,00,00,00,00,
4878161,1B000044,true,Rx,0,8,44,00,01,01,04,00,00,00,
4972967,0000038B,false,Rx,1,8,00,00,00,00,00,00,00,00,
5072972,0000038B,false,Rx,1,8,00,00,00,00,00,00,00,00,
5078167,1B000044,true,Rx,0,8,44,00,01,01,04,00,00,00,
5172973,0000038B,false,Rx,1,8,00,00,00,00,00,00,00,00,
5173021,17F00044,true,Rx,0,8,20,44,00,00,00,00,00,80,
5272981,0000038B,false,Rx,1,8,00,00,00,00,00,00,00,00,
5278176,1B000044,true,Rx,0,8,44,00,01,01,04,00,00,00,
5370590,00000570,false,Tx,0,2,FF,00,00,00,00,00,00,00,
5372985,0000038B,false,Rx,1,8,00,00,00,00,00,00,00,00,
5472985,0000038B,false,Rx,1,8,00,00,00,00,00,00,00,00,
5478181,1B000044,true,Rx,0,8,44,00,01,01,04,00,00,00,
5572987,0000038B,false,Rx,1,8,00,00,00,00,00,00,00,00,
5672994,0000038B,false,Rx,1,8,00,00,00,00,00,00,00,00,
5673061,17F00044,true,Rx,0,8,20,44,00,00,00,00,00,80,
5673220,00000564,false,Rx,1,8,EC,08,00,1E,F8,17,37,00,
5673760,0000067E,false,Rx,1,8,81,05,00,00,3B,00,00,F0,
5772992,0000038B,false,Rx,1,8,00,00,00,00,00,00,00,00,
5872999,0000038B,false,Rx,1,8,00,00,00,00,00,00,00,00,
5909783,00000570,false,Tx,0,2,FF,00,00,00,00,00,00,00,
5973001,0000038B,false,Rx,1,8,00,00,00,00,00,00,00,00,
6073007,0000038B,false,Rx,1,8,00,00,00,00,00,00,00,00,
6173006,0000038B,false,Rx,1,8,00,00,00,00,00,00,00,00,
6173053,17F00044,true,Rx,0,8,20,44,00,00,00,00,00,80,
6273012,0000038B,false,Rx,1,8,00,00,00,00,00,00,00,00,
6373019,0000038B,false,Rx,1,8,00,00,00,00,00,00,00,00,
6440037,00000570,false,Tx,0,2,FF,00,00,00,00,00,00,00,
6473019,0000038B,false,Rx,1,8,00,00,00,00,00,00,00,00,
6979689,00000570,false,Tx,0,2,FF,00,00,00,00,00,00,00,
7517711,00000570,false,Tx,0,2,FF,00,00,00,00,00,00,00,
7526437,17F00044,true,Rx,0,8,20,44,00,00,00,00,00,80,
7531580,1B000044,true,Rx,0,8,44,00,01,01,04,00,00,00,
7536372,0000038B,false,Rx,1,8,00,00,FE,00,00,00,00,00,
7536603,00000564,false,Rx,1,8,D3,73,FF,FE,FB,0F,FE,FE,
7536832,0000067E,false,Rx,1,8,D5,03,FE,01,3B,00,00,38,
7626369,0000038B,false,Rx,1,8,00,00,FE,00,00,00,00,00,
7641531,00000564,false,Rx,1,8,C0,74,FF,FE,FB,0F,FE,FE,
7726378,0000038B,false,Rx,1,8,00,00,FE,00,00,00,00,00,
7731572,1B000044,true,Rx,0,8,44,00,01,01,04,00,00,00,
7746385,00000564,false,Rx,1,8,A4,75,FF,FE,FB,0F,FE,FE,
7826380,0000038B,false,Rx,1,8,00,00,FE,00,00,00,00,00,
7851547,00000564,false,Rx,1,8,E4,76,FF,FE,FB,2F,FE,FE,
7926382,0000038B,false,Rx,1,8,00,00,FE,00,00,00,00,00,
7931586,1B000044,true,Rx,0,8,44,00,01,01,04,00,00,00,
7956395,00000564,false,Rx,1,8,80,77,FF,FE,FB,2F,FE,FE,
8026386,0000038B,false,Rx,1,8,00,00,00,00,00,00,00,00,
8026433,17F00044,true,Rx,0,8,20,44,00,00,00,00,00,80,
8057060,00000570,false,Tx,0,2,FF,00,00,00,00,00,00,00,
8061559,00000564,false,Rx,1,8,B6,08,00,CF,F8,27,37,00,
8126397,0000038B,false,Rx,1,8,00,00,00,00,00,00,00,00,
8131593,1B000044,true,Rx,0,8,44,00,01,01,04,00,00,00,
8166395,00000564,false,Rx,1,8,D2,09,00,CF,F8,27,37,00,
8226399,0000038B,false,Rx,1,8,00,00,00,00,00,00,00,00,
8271565,00000564,false,Rx,1,8,84,0A,00,D1,F8,27,37,00,
8326406,0000038B,false,Rx,1,8,00,00,00,00,00,00,00,00,
8331599,1B000044,true,Rx,0,8,44,00,01,01,04,00,00,00,
8376407,00000564,false,Rx,1,8,E0,0B,00,D1,F8,27,37,00,
8426409,0000038B,false,Rx,1,8,00,00,00,00,00,00,00,00,
8481568,00000564,false,Rx,1,8,8C,0C,00,D5,F8,27,37,00,
8526407,0000038B,false,Rx,1,8,00,00,00,00,00,00,00,00,
8526454,17F00044,true,Rx,0,8,20,44,00,00,00,00,00,80,
8526640,0000067E,false,Rx,1,8,19,04,00,00,3B,00,00,00,
8531613,1B000044,true,Rx,0,8,44,00,01,01,04,00,00,00,
8586417,00000564,false,Rx,1,8,95,0D,00,DA,F8,27,37,00,
8592591,00000570,false,Tx,0,2,FF,00,00,00,00,00,00,00,
8626413,0000038B,false,Rx,1,8,00,00,00,00,00,00,00,00,
8726419,0000038B,false,Rx,1,8,00,00,00,00,00,00,00,00,
8731613,1B000044,true,Rx,0,8,44,00,01,01,04,00,00,00,
8826417,0000038B,false,Rx,1,8,00,00,00,00,00,00,00,00,
8926420,0000038B,false,Rx,1,8,00,00,00,00,00,00,00,00,
8931623,1B000044,true,Rx,0,8,44,00,01,01,04,00,00,00,
9026428,0000038B,false,Rx,1,8,00,00,00,00,00,00,00,00,
9026476,17F00044,true,Rx,0,8,20,44,00,00,00,00,00,80,
9128401,00000570,false,Tx,0,2,FF,00,00,00,00,00,00,00,
9126435,0000038B,false,Rx,1,8,00,00,00,00,00,00,00,00,
9131631,1B000044,true,Rx,0,8,44,00,01,01,04,00,00,00,
9226435,0000038B,false,Rx,1,8,00,00,00,00,00,00,00,00,
9326442,0000038B,false,Rx,1,8,00,00,00,00,00,00,00,00,
9331645,1B000044,true,Rx,0,8,44,00,01,01,04,00,00,00,
9426442,0000038B,false,Rx,1,8,00,00,00,00,00,00,00,00,
9526447,0000038B,false,Rx,1,8,00,00,00,00,00,00,00,00,
9526515,17F00044,true,Rx,0,8,20,44,00,00,00,00,00,80,
9526671,00000564,false,Rx,1,8,48,0E,00,EF,F8,27,37,00,
9527214,0000067E,false,Rx,1,8,81,05,00,00,3B,00,00,F0,
9531645,1B000044,true,Rx,0,8,44,00,01,01,04,00,00,00,
9626449,0000038B,false,Rx,1,8,00,00,00,00,00,00,00,00,
9660420,00000570,false,Tx,0,2,FF,00,00,00,00,00,00,00,
9726460,0000038B,false,Rx,1,8,00,00,00,00,00,00,00,00,
9731655,1B000044,true,Rx,0,8,44,00,01,01,04,00,00,00,
9826458,0000038B,false,Rx,1,8,00,00,00,00,00,00,00,00,
9926457,0000038B,false,Rx,1,8,00,00,00,00,00,00,00,00,
9931659,1B000044,true,Rx,0,8,44,00,01,01,04,00,00,00,
10026463,0000038B,false,Rx,1,8,00,00,00,00,00,00,00,00,
10026511,17F00044,true,Rx,0,8,20,44,00,00,00,00,00,80,
10126468,0000038B,false,Rx,1,8,00,00,00,00,00,00,00,00,
10131667,1B000044,true,Rx,0,8,44,00,01,01,04,00,00,00,
10199001,00000570,false,Tx,0,2,FF,00,00,00,00,00,00,00,
10226472,0000038B,false,Rx,1,8,00,00,00,00,00,00,00,00,
10326479,0000038B,false,Rx,1,8,00,00,00,00,00,00,00,00,
10331681,1B000044,true,Rx,0,8,44,00,01,01,04,00,00,00,
10426480,0000038B,false,Rx,1,8,00,00,00,00,00,00,00,00,
10526483,0000038B,false,Rx,1,8,00,00,00,00,00,00,00,00,
10526561,17F00044,true,Rx,0,8,20,44,00,00,00,00,00,80,
10526717,00000564,false,Rx,1,8,28,0F,00,F9,F8,27,37,00,
10527250,0000067E,false,Rx,1,8,2D,06,00,00,3B,00,00,F0,
10531689,1B000044,true,Rx,0,8,44,00,01,01,04,00,00,00,
10626484,0000038B,false,Rx,1,8,00,00,00,00,00,00,00,00,
10726490,0000038B,false,Rx,1,8,00,00,00,00,00,00,00,00,
10731695,1B000044,true,Rx,0,8,44,00,01,01,04,00,00,00,
10739153,00000570,false,Tx,0,2,FF,00,00,00,00,00,00,00,
10826493,0000038B,false,Rx,1,8,00,00,00,00,00,00,00,00,
10926501,0000038B,false,Rx,1,8,00,00,00,00,00,00,00,00,
10931705,1B000044,true,Rx,0,8,44,00,01,01,04,00,00,00,
11026507,0000038B,false,Rx,1,8,00,00,00,00,00,00,00,00,
11026555,17F00044,true,Rx,0,8,20,44,00,00,00,00,00,80,
11126505,0000038B,false,Rx,1,8,00,00,00,00,00,00,00,00,
11131712,1B000044,true,Rx,0,8,44,00,01,01,04,00,00,00,
11226506,0000038B,false,Rx,1,8,00,00,00,00,00,00,00,00,
11278327,00000570,false,Tx,0,2,FF,00,00,00,00,00,00,00,
11326517,0000038B,false,Rx,1,8,00,00,00,00,00,00,00,00,
11331719,1B000044,true,Rx,0,8,44,00,01,01,04,00,00,00,
11426518,0000038B,false,Rx,1,8,00,00,00,00,00,00,00,00,
11526523,0000038B,false,Rx,1,8,00,00,00,00,00,00,00,00,
11526591,17F00044,true,Rx,0,8,20,44,00,00,00,00,00,80,
11526757,00000564,false,Rx,1,8,0D,00,00,0F,F9,27,37,00,
11527300,0000067E,false,Rx,1,8,49,07,00,00,3B,00,00,F0,
11626530,0000038B,false,Rx,1,8,00,00,00,00,00,00,00,00,
11726533,0000038B,false,Rx,1,8,00,00,00,00,00,00,00,00,
11800619,00000570,false,Tx,0,2,FF,00,00,00,00,00,00,00,
11826531,0000038B,false,Rx,1,8,00,00,00,00,00,00,00,00,
11926538,0000038B,false,Rx,1,8,00,00,00,00,00,00,00,00,
12026544,0000038B,false,Rx,1,8,00,00,00,00,00,00,00,00,
12026591,17F00044,true,Rx,0,8,20,44,00,00,00,00,00,80,
12126550,0000038B,false,Rx,1,8,00,00,00,00,00,00,00,00,
12226548,0000038B,false,Rx,1,8,00,00,00,00,00,00,00,00,
12326555,0000038B,false,Rx,1,8,00,00,00,00,00,00,00,00,
12335322,00000570,false,Tx,0,2,FF,00,00,00,00,00,00,00,
12874263,00000570,false,Tx,0,2,FF,00,00,00,00,00,00,00,
13412209,00000570,false,Tx,0,2,FF,00,00,00,00,00,00,00,
13419959,17F00044,true,Rx,0,8,20,44,00,00,00,00,00,80,
13425103,1B000044,true,Rx,0,8,44,00,01,01,04,00,00,00,
13429892,0000038B,false,Rx,1,8,00,00,FE,00,00,00,00,00,
13430116,00000564,false,Rx,1,8,D3,73,FF,FE,FB,0F,FE,FE,
13430355,0000067E,false,Rx,1,8,D5,03,FE,01,3B,00,00,38,
13519892,0000038B,false,Rx,1,8,00,00,FE,00,00,00,00,00,
13535051,00000564,false,Rx,1,8,C0,74,FF,FE,FB,0F,FE,FE,
13619897,0000038B,false,Rx,1,8,00,00,FE,00,00,00,00,00,
13625103,1B000044,true,Rx,0,8,44,00,01,01,04,00,00,00,
13639905,00000564,false,Rx,1,8,A4,75,FF,FE,FB,0F,FE,FE,
13719899,0000038B,false,Rx,1,8,00,00,FE,00,00,00,00,00,
13745075,00000564,false,Rx,1,8,E4,76,FF,FE,FB,2F,FE,FE,
13819902,0000038B,false,Rx,1,8,00,00,FE,00,00,00,00,00,
13825106,1B000044,true,Rx,0,8,44,00,01,01,04,00,00,00,
13849912,00000564,false,Rx,1,8,80,77,FF,FE,FB,2F,FE,FE,
13919917,0000038B,false,Rx,1,8,00,00,00,00,00,00,00,00,
13919965,17F00044,true,Rx,0,8,20,44,00,00,00,00,00,80,
13941288,00000570,false,Tx,0,2,FF,00,00,00,00,00,00,00,
13955081,00000564,false,Rx,1,8,9B,08,00,51,F9,27,37,00,
14019908,0000038B,false,Rx,1,8,00,00,00,00,00,00,00,00,
14025123,1B000044,true,Rx,0,8,44,00,01,01,04,00,00,00,
14059917,00000564,false,Rx,1,8,7C,09,00,56,F9,27,37,00,
14119920,0000038B,false,Rx,1,8,00,00,00,00,00,00,00,00,
14165093,00000564,false,Rx,1,8,51,0A,00,5A,F9,27,37,00,
14219922,0000038B,false,Rx,1,8,00,00,00,00,00,00,00,00,
14225127,1B000044,true,Rx,0,8,44,00,01,01,04,00,00,00,
14269924,00000564,false,Rx,1,8,35,0B,00,5A,F9,27,37,00,
14319922,0000038B,false,Rx,1,8,00,00,00,00,00,00,00,00,
14375096,00000564,false,Rx,1,8,0D,0C,00,5F,F9,27,37,00,
14419924,0000038B,false,Rx,1,8,00,00,00,00,00,00,00,00,
14419981,17F00044,true,Rx,0,8,20,44,00,00,00,00,00,80,
14420158,0000067E,false,Rx,1,8,19,04,00,00,3B,00,00,00,
14425130,1B000044,true,Rx,0,8,44,00,01,01,04,00,00,00,
14480641,00000570,false,Tx,0,2,FF,00,00,00,00,00,00,00,
14479934,00000564,false,Rx,1,8,65,0D,00,65,F9,27,37,00,
14519927,0000038B,false,Rx,1,8,00,00,00,00,00,00,00,00,
14619934,0000038B,false,Rx,1,8,00,00,00,00,00,00,00,00,
14625141,1B000044,true,Rx,0,8,44,00,01,01,04,00,00,00,
14719936,0000038B,false,Rx,1,8,00,00,00,00,00,00,00,00,
14819942,0000038B,false,Rx,1,8,00,00,00,00,00,00,00,00,
14825147,1B000044,true,Rx,0,8,44,00,01,01,04,00,00,00,
14919944,0000038B,false,Rx,1,8,00,00,00,00,00,00,00,00,
14919992,17F00044,true,Rx,0,8,20,44,00,00,00,00,00,80,
15015714,00000570,false,Tx,0,2,FF,00,00,00,00,00,00,00,
15019952,0000038B,false,Rx,1,8,00,00,00,00,00,00,00,00,
15025157,1B000044,true,Rx,0,8,44,00,01,01,04,00,00,00,
15119958,0000038B,false,Rx,1,8,00,00,00,00,00,00,00,00,
15219956,0000038B,false,Rx,1,8,00,00,00,00,00,00,00,00,
15225161,1B000044,true,Rx,0,8,44,00,01,01,04,00,00,00,
15319963,0000038B,false,Rx,1,8,00,00,00,00,00,00,00,00,
15419970,0000038B,false,Rx,1,8,00,00,00,00,00,00,00,00,
15420038,17F00044,true,Rx,0,8,20,44,00,00,00,00,00,80,
15420186,00000564,false,Rx,1,8,E6,0E,00,76,F9,27,37,00,
15420728,0000067E,false,Rx,1,8,81,05,00,00,3B,00,00,F0,
15425167,1B000044,true,Rx,0,8,44,00,01,01,04,00,00,00,
15519972,0000038B,false,Rx,1,8,00,00,00,00,00,00,00,00,
15553171,00000570,false,Tx,0,2,FF,00,00,00,00,00,00,00,
15619971,0000038B,false,Rx,1,8,00,00,00,00,00,00,00,00,
15625176,1B000044,true,Rx,0,8,44,00,01,01,04,00,00,00,
15719981,0000038B,false,Rx,1,8,00,00,00,00,00,00,00,00,
15819987,0000038B,false,Rx,1,8,00,00,00,00,00,00,00,00,
15825181,1B000044,true,Rx,0,8,44,00,01,01,04,00,00,00,
15919987,0000038B,false,Rx,1,8,00,00,00,00,00,00,00,00,
15920034,17F00044,true,Rx,0,8,20,44,00,00,00,00,00,80,
16019983,0000038B,false,Rx,1,8,00,00,00,00,00,00,00,00,
16025188,1B000044,true,Rx,0,8,44,00,01,01,04,00,00,00,
16087206,00000570,false,Tx,0,2,FF,00,00,00,00,00,00,00,
16119992,0000038B,false,Rx,1,8,00,00,00,00,00,00,00,00,
16219992,0000038B,false,Rx,1,8,00,00,00,00,00,00,00,00,
16225197,1B000044,true,Rx,0,8,44,00,01,01,04,00,00,00,
16320000,0000038B,false,Rx,1,8,00,00,00,00,00,00,00,00,
16420008,0000038B,false,Rx,1,8,00,00,00,00,00,00,00,00,
16420076,17F00044,true,Rx,0,8,20,44,00,00,00,00,00,80,
16420233,00000564,false,Rx,1,8,E0,0F,00,82,F9,27,37,00,
16420775,0000067E,false,Rx,1,8,2D,06,00,00,3B,00,00,F0,
16425207,1B000044,true,Rx,0,8,44,00,01,01,04,00,00,00,
16520008,0000038B,false,Rx,1,8,00,00,00,00,00,00,00,00,
16620015,0000038B,false,Rx,1,8,00,00,00,00,00,00,00,00,
16623533,00000570,false,Tx,0,2,FF,00,00,00,00,00,00,00,
16625213,1B000044,true,Rx,0,8,44,00,01,01,04,00,00,00,
16720019,0000038B,false,Rx,1,8,00,00,00,00,00,00,00,00,
16820015,0000038B,false,Rx,1,8,00,00,00,00,00,00,00,00,
16825219,1B000044,true,Rx,0,8,44,00,01,01,04,00,00,00,
16920024,0000038B,false,Rx,1,8,00,00,00,00,00,00,00,00,
16920072,17F00044,true,Rx,0,8,20,44,00,00,00,00,00,80,
17020030,0000038B,false,Rx,1,8,00,00,00,00,00,00,00,00,
17025226,1B000044,true,Rx,0,8,44,00,01,01,04,00,00,00,
17120030,0000038B,false,Rx,1,8,00,00,00,00,00,00,00,00,
17160797,00000570,false,Tx,0,2,FF,00,00,00,00,00,00,00,
17220032,0000038B,false,Rx,1,8,00,00,00,00,00,00,00,00,
17225236,1B000044,true,Rx,0,8,44,00,01,01,04,00,00,00,
17320041,0000038B,false,Rx,1,8,00,00,00,00,00,00,00,00,
17420042,0000038B,false,Rx,1,8,00,00,00,00,00,00,00,00,
17420111,17F00044,true,Rx,0,8,20,44,00,00,00,00,00,80,
17420277,00000564,false,Rx,1,8,3E,00,00,7E,F9,27,37,00,
17420819,0000067E,false,Rx,1,8,49,07,00,00,3B,00,00,F0,
17520048,0000038B,false,Rx,1,8,00,00,00,00,00,00,00,00,
17620042,0000038B,false,Rx,1,8,00,00,00,00,00,00,00,00,
17694673,00000570,false,Tx,0,2,FF,00,00,00,00,00,00,00,
17720055,0000038B,false,Rx,1,8,00,00,00,00,00,00,00,00,
17820052,0000038B,false,Rx,1,8,00,00,00,00,00,00,00,00,
17920059,0000038B,false,Rx,1,8,00,00,00,00,00,00,00,00,
17920108,17F00044,true,Rx,0,8,20,44,00,00,00,00,00,80,
18020065,0000038B,false,Rx,1,8,00,00,00,00,00,00,00,00,
18120062,0000038B,false,Rx,1,8,00,00,00,00,00,00,00,00,
18220070,0000038B,false,Rx,1,8,00,00,00,00,00,00,00,00,
18234820,00000570,false,Tx,0,2,FF,00,00,00,00,00,00,00,
18772355,00000570,false,Tx,0,2,FF,00,00,00,00,00,00,00,
19309731,00000570,false,Tx,0,2,FF,00,00,00,00,00,00,00,
19313449,17F00044,true,Rx,0,8,20,44,00,00,00,00,00,80,
19318583,1B000044,true,Rx,0,8,44,00,01,01,04,00,00,00,
19323373,0000038B,false,Rx,1,8,00,00,FE,00,00,00,00,00,
19323606,00000564,false,Rx,1,8,D3,73,FF,FE,FB,0F,FE,FE,
19323844,0000067E,false,Rx,1,8,D5,03,FE,01,3B,00,00,38,
19413382,0000038B,false,Rx,1,8,00,00,FE,00,00,00,00,00,
19428543,00000564,false,Rx,1,8,C0,74,FF,FE,FB,0F,FE,FE,
19513380,0000038B,false,Rx,1,8,00,00,FE,00,00,00,00,00,
19518583,1B000044,true,Rx,0,8,44,00,01,01,04,00,00,00,
19533398,00000564,false,Rx,1,8,A4,75,FF,FE,FB,0F,FE,FE,
19613392,0000038B,false,Rx,1,8,00,00,FE,00,00,00,00,00,
19638561,00000564,false,Rx,1,8,E4,76,FF,FE,FB,2F,FE,FE,
19713392,0000038B,false,Rx,1,8,00,00,FE,00,00,00,00,00,
19718596,1B000044,true,Rx,0,8,44,00,01,01,04,00,00,00,
19743404,00000564,false,Rx,1,8,80,77,FF,FE,FB,2F,FE,FE,
19813404,0000038B,false,Rx,1,8,00,00,00,00,00,00,00,00,
19813452,17F00044,true,Rx,0,8,20,44,00,00,00,00,00,80,
19846572,00000570,false,Tx,0,2,FF,00,00,00,00,00,00,00,
19848579,00000564,false,Rx,1,8,9F,08,00,47,F9,27,37,00,
19913399,0000038B,false,Rx,1,8,00,00,00,00,00,00,00,00,
19918601,1B000044,true,Rx,0,8,44,00,01,01,04,00,00,00,
19953417,00000564,false,Rx,1,8,2C,09,00,41,F9,27,37,00,
20013410,0000038B,false,Rx,1,8,00,00,00,00,00,00,00,00,
20058577,00000564,false,Rx,1,8,9A,0A,00,3E,F9,27,37,00,
20113410,0000038B,false,Rx,1,8,00,00,00,00,00,00,00,00,
20118615,1B000044,true,Rx,0,8,44,00,01,01,04,00,00,00,
20163427,00000564,false,Rx,1,8,FE,0B,00,3E,F9,27,37,00,
20213417,0000038B,false,Rx,1,8,00,00,00,00,00,00,00,00,
20268578,00000564,false,Rx,1,8,6E,0C,00,39,F9,27,37,00,
20313414,0000038B,false,Rx,1,8,00,00,00,00,00,00,00,00,
20313462,17F00044,true,Rx,0,8,20,44,00,00,00,00,00,80,
20313649,0000067E,false,Rx,1,8,19,04,00,00,3B,00,00,00,
20318619,1B000044,true,Rx,0,8,44,00,01,01,04,00,00,00,
20373427,00000564,false,Rx,1,8,DF,0D,00,34,F9,27,37,00,
20378778,00000570,false,Tx,0,2,FF,00,00,00,00,00,00,00,
20413417,0000038B,false,Rx,1,8,00,00,00,00,00,00,00,00,
20513422,0000038B,false,Rx,1,8,00,00,00,00,00,00,00,00,
20518626,1B000044,true,Rx,0,8,44,00,01,01,04,00,00,00,
20613430,0000038B,false,Rx,1,8,00,00,00,00,00,00,00,00,
20713429,0000038B,false,Rx,1,8,00,00,00,00,00,00,00,00,
20718634,1B000044,true,Rx,0,8,44,00,01,01,04,00,00,00,
20813439,0000038B,false,Rx,1,8,00,00,00,00,00,00,00,00,
20813489,17F00044,true,Rx,0,8,20,44,00,00,00,00,00,80,
20913842,00000570,false,Tx,0,2,FF,00,00,00,00,00,00,00,
20913435,0000038B,false,Rx,1,8,00,00,00,00,00,00,00,00,
20918638,1B000044,true,Rx,0,8,44,00,01,01,04,00,00,00,
21013445,0000038B,false,Rx,1,8,00,00,00,00,00,00,00,00,
21113452,0000038B,false,Rx,1,8,00,00,00,00,00,00,00,00,
21118645,1B000044,true,Rx,0,8,44,00,01,01,04,00,00,00,
21213454,0000038B,false,Rx,1,8,00,00,00,00,00,00,00,00,
21313461,0000038B,false,Rx,1,8,00,00,00,00,00,00,00,00,
21313529,17F00044,true,Rx,0,8,20,44,00,00,00,00,00,80,
21313685,00000564,false,Rx,1,8,AC,0E,00,1E,F9,27,37,00,
21314228,0000067E,false,Rx,1,8,81,05,00,00,3B,00,00,F0,
21318657,1B000044,true,Rx,0,8,44,00,01,01,04,00,00,00,
21413455,0000038B,false,Rx,1,8,00,00,00,00,00,00,00,00,
21443762,00000570,false,Tx,0,2,FF,00,00,00,00,00,00,00,
21513462,0000038B,false,Rx,1,8,00,00,00,00,00,00,00,00,
21518666,1B000044,true,Rx,0,8,44,00,01,01,04,00,00,00,
21613462,0000038B,false,Rx,1,8,00,00,00,00,00,00,00,00,
21713469,0000038B,false,Rx,1,8,00,00,00,00,00,00,00,00,
21718675,1B000044,true,Rx,0,8,44,00,01,01,04,00,00,00,
21813472,0000038B,false,Rx,1,8,00,00,00,00,00,00,00,00,
21813520,17F00044,true,Rx,0,8,20,44,00,00,00,00,00,80,
21913473,0000038B,false,Rx,1,8,00,00,00,00,00,00,00,00,
21918679,1B000044,true,Rx,0,8,44,00,01,01,04,00,00,00,
21975158,00000570,false,Tx,0,2,FF,00,00,00,00,00,00,00,
22013476,0000038B,false,Rx,1,8,00,00,00,00,00,00,00,00,
22113482,0000038B,false,Rx,1,8,00,00,00,00,00,00,00,00,
22118686,1B000044,true,Rx,0,8,44,00,01,01,04,00,00,00,
22213484,0000038B,false,Rx,1,8,00,00,00,00,00,00,00,00,
22313492,0000038B,false,Rx,1,8,00,00,00,00,00,00,00,00,
22313560,17F00044,true,Rx,0,8,20,44,00,00,00,00,00,80,
22313716,00000564,false,Rx,1,8,01,0F,00,F7,F8,27,37,00,
22314259,0000067E,false,Rx,1,8,2D,06,00,00,3B,00,00,F0,
22318698,1B000044,true,Rx,0,8,44,00,01,01,04,00,00,00,
22413498,0000038B,false,Rx,1,8,00,00,00,00,00,00,00,00,
22513921,00000570,false,Tx,0,2,FF,00,00,00,00,00,00,00,
22513497,0000038B,false,Rx,1,8,00,00,00,00,00,00,00,00,
22518701,1B000044,true,Rx,0,8,44,00,01,01,04,00,00,00,
22613504,0000038B,false,Rx,1,8,00,00,00,00,00,00,00,00,
22713505,0000038B,false,Rx,1,8,00,00,00,00,00,00,00,00,
22718708,1B000044,true,Rx,0,8,44,00,01,01,04,00,00,00,
22813513,0000038B,false,Rx,1,8,00,00,00,00,00,00,00,00,
22813561,17F00044,true,Rx,0,8,20,44,00,00,00,00,00,80,
22913512,0000038B,false,Rx,1,8,00,00,00,00,00,00,00,00,
22918716,1B000044,true,Rx,0,8,44,00,01,01,04,00,00,00,
23013512,0000038B,false,Rx,1,8,00,00,00,00,00,00,00,00,
23048928,00000570,false,Tx,0,2,FF,00,00,00,00,00,00,00,
23113519,0000038B,false,Rx,1,8,00,00,00,00,00,00,00,00,
23118722,1B000044,true,Rx,0,8,44,00,01,01,04,00,00,00,
23213520,0000038B,false,Rx,1,8,00,00,00,00,00,00,00,00,
23313523,0000038B,false,Rx,1,8,00,00,00,00,00,00,00,00,
23313601,17F00044,true,Rx,0,8,20,44,00,00,00,00,00,80,
23313757,00000564,false,Rx,1,8,EF,00,00,E3,F8,27,37,00,
23314290,0000067E,false,Rx,1,8,49,07,00,00,3B,00,00,F0,
23413532,0000038B,false,Rx,1,8,00,00,00,00,00,00,00,00,
23513537,0000038B,false,Rx,1,8,00,00,00,00,00,00,00,00,
23589155,00000570,false,Tx,0,2,FF,00,00,00,00,00,00,00,
23613535,0000038B,false,Rx,1,8,00,00,00,00,00,00,00,00,
23713546,0000038B,false,Rx,1,8,00,00,00,00,00,00,00,00,
23813543,0000038B,false,Rx,1,8,00,00,00,00,00,00,00,00,
23813591,17F00044,true,Rx,0,8,20,44,00,00,00,00,00,80,
23913551,0000038B,false,Rx,1,8,00,00,00,00,00,00,00,00,
24013556,0000038B,false,Rx,1,8,00,00,00,00,00,00,00,00,
24115367,00000570,false,Tx,0,2,FF,00,00,00,00,00,00,00,
24113557,0000038B,false,Rx,1,8,00,00,00,00,00,00,00,00,
24653680,00000570,false,Tx,0,2,FF,00,00,00,00,00,00,00,
25193027,00000570,false,Tx,0,2,FF,00,00,00,00,00,00,00,
25206965,17F00044,true,Rx,0,8,20,44,00,00,00,00,00,80,
25212102,1B000044,true,Rx,0,8,44,00,01,01,04,00,00,00,
25266906,00000564,false,Rx,1,8,91,7C,FF,FE,FB,0F,FE,FE,
25306899,0000038B,false,Rx,1,8,00,00,FE,00,00,00,00,00,
25372065,00000564,false,Rx,1,8,F5,7D,FF,FE,FB,0F,FE,FE,
25406899,0000038B,false,Rx,1,8,00,00,FE,00,00,00,00,00,
25412102,1B000044,true,Rx,0,8,44,00,01,01,04,00,00,00,
25476911,00000564,false,Rx,1,8,B5,7E,FF,FE,FB,2F,FE,FE,
25506899,0000038B,false,Rx,1,8,00,00,FE,00,00,00,00,00,
25582073,00000564,false,Rx,1,8,D1,7F,FF,FE,FB,2F,FE,FE,
25606909,0000038B,false,Rx,1,8,00,00,FE,00,00,00,00,00,
25612114,1B000044,true,Rx,0,8,44,00,01,01,04,00,00,00,
25686918,00000564,false,Rx,1,8,93,70,FF,FE,FB,2F,FE,FE,
25706911,0000038B,false,Rx,1,8,00,00,00,00,00,00,00,00,
25706958,17F00044,true,Rx,0,8,20,44,00,00,00,00,00,80,
25732672,00000570,false,Tx,0,2,FF,00,00,00,00,00,00,00,
25792082,00000564,false,Rx,1,8,BA,01,00,99,F8,27,37,00,
25806912,0000038B,false,Rx,1,8,00,00,00,00,00,00,00,00,
25812117,1B000044,true,Rx,0,8,44,00,01,01,04,00,00,00,
25896929,00000564,false,Rx,1,8,16,02,00,99,F8,27,37,00,
25906917,0000038B,false,Rx,1,8,00,00,00,00,00,00,00,00,
26002101,00000564,false,Rx,1,8,8C,03,00,91,F8,27,37,00,
26006927,0000038B,false,Rx,1,8,00,00,00,00,00,00,00,00,
26012122,1B000044,true,Rx,0,8,44,00,01,01,04,00,00,00,
26106927,0000038B,false,Rx,1,8,00,00,00,00,00,00,00,00,
26107159,00000564,false,Rx,1,8,99,04,00,8C,F8,27,37,00,
26206929,0000038B,false,Rx,1,8,00,00,00,00,00,00,00,00,
26206976,17F00044,true,Rx,0,8,20,44,00,00,00,00,00,80,
26207164,0000067E,false,Rx,1,8,6E,02,00,00,3B,00,00,00,
26212114,00000564,false,Rx,1,8,FD,05,00,8C,F8,27,37,00,
26212155,1B000044,true,Rx,0,8,44,00,01,01,04,00,00,00,
26265381,00000570,false,Tx,0,2,FF,00,00,00,00,00,00,00,
26306940,0000038B,false,Rx,1,8,00,00,00,00,00,00,00,00,
26406942,0000038B,false,Rx,1,8,00,00,00,00,00,00,00,00,
26412136,1B000044,true,Rx,0,8,44,00,01,01,04,00,00,00,
26506940,0000038B,false,Rx,1,8,00,00,00,00,00,00,00,00,
26606947,0000038B,false,Rx,1,8,00,00,00,00,00,00,00,00,
26612142,1B000044,true,Rx,0,8,44,00,01,01,04,00,00,00,
26706949,0000038B,false,Rx,1,8,00,00,00,00,00,00,00,00,
26706997,17F00044,true,Rx,0,8,20,44,00,00,00,00,00,80,
26802438,00000570,false,Tx,0,2,FF,00,00,00,00,00,00,00,
26806958,0000038B,false,Rx,1,8,00,00,00,00,00,00,00,00,
26812152,1B000044,true,Rx,0,8,44,00,01,01,04,00,00,00,
26906954,0000038B,false,Rx,1,8,00,00,00,00,00,00,00,00,
27006961,0000038B,false,Rx,1,8,00,00,00,00,00,00,00,00,
27012166,1B000044,true,Rx,0,8,44,00,01,01,04,00,00,00,
27106967,0000038B,false,Rx,1,8,00,00,00,00,00,00,00,00,
27206964,0000038B,false,Rx,1,8,00,00,00,00,00,00,00,00,
27207041,17F00044,true,Rx,0,8,20,44,00,00,00,00,00,80,
27207190,00000564,false,Rx,1,8,31,06,00,73,F8,27,37,00,
27207731,0000067E,false,Rx,1,8,F6,03,00,00,3B,00,00,F0,
27212172,1B000044,true,Rx,0,8,44,00,01,01,04,00,00,00,
27306967,0000038B,false,Rx,1,8,00,00,00,00,00,00,00,00,
27340548,00000570,false,Tx,0,2,FF,00,00,00,00,00,00,00,
27406977,0000038B,false,Rx,1,8,00,00,00,00,00,00,00,00,
27412181,1B000044,true,Rx,0,8,44,00,01,01,04,00,00,00,
27506982,0000038B,false,Rx,1,8,00,00,00,00,00,00,00,00,
27606987,0000038B,false,Rx,1,8,00,00,00,00,00,00,00,00,
27612182,1B000044,true,Rx,0,8,44,00,01,01,04,00,00,00,
27706986,0000038B,false,Rx,1,8,00,00,00,00,00,00,00,00,
27707035,17F00044,true,Rx,0,8,20,44,00,00,00,00,00,80,
27806994,0000038B,false,Rx,1,8,00,00,00,00,00,00,00,00,
27812189,1B000044,true,Rx,0,8,44,00,01,01,04,00,00,00,
27877485,00000570,false,Tx,0,2,FF,00,00,00,00,00,00,00,
27906989,0000038B,false,Rx,1,8,00,00,00,00,00,00,00,00,
28006994,0000038B,false,Rx,1,8,00,00,00,00,00,00,00,00,
28012199,1B000044,true,Rx,0,8,44,00,01,01,04,00,00,00,
28107002,0000038B,false,Rx,1,8,00,00,00,00,00,00,00,00,
28207001,0000038B,false,Rx,1,8,00,00,00,00,00,00,00,00,
28207069,17F00044,true,Rx,0,8,20,44,00,00,00,00,00,80,
28207226,00000564,false,Rx,1,8,DE,07,00,58,F8,27,37,00,
28207768,0000067E,false,Rx,1,8,E5,04,00,00,3B,00,00,F0,
28212209,1B000044,true,Rx,0,8,44,00,01,01,04,00,00,00,
28307003,0000038B,false,Rx,1,8,00,00,00,00,00,00,00,00,
28409104,00000570,false,Tx,0,2,FF,00,00,00,00,00,00,00,
28407014,0000038B,false,Rx,1,8,00,00,00,00,00,00,00,00,
28412209,1B000044,true,Rx,0,8,44,00,01,01,04,00,00,00,
28507014,0000038B,false,Rx,1,8,00,00,00,00,00,00,00,00,
28607019,0000038B,false,Rx,1,8,00,00,00,00,00,00,00,00,
28612214,1B000044,true,Rx,0,8,44,00,01,01,04,00,00,00,
28707021,0000038B,false,Rx,1,8,00,00,00,00,00,00,00,00,
28707069,17F00044,true,Rx,0,8,20,44,00,00,00,00,00,80,
28807028,0000038B,false,Rx,1,8,00,00,00,00,00,00,00,00,
28812223,1B000044,true,Rx,0,8,44,00,01,01,04,00,00,00,
28907027,0000038B,false,Rx,1,8,00,00,00,00,00,00,00,00,
28951746,00000570,false,Tx,0,2,FF,00,00,00,00,00,00,00,
29007032,0000038B,false,Rx,1,8,00,00,00,00,00,00,00,00,
29012236,1B000044,true,Rx,0,8,44,00,01,01,04,00,00,00,
29107039,0000038B,false,Rx,1,8,00,00,00,00,00,00,00,00,
29207038,0000038B,false,Rx,1,8,00,00,00,00,00,00,00,00,
29207106,17F00044,true,Rx,0,8,20,44,00,00,00,00,00,80,
29207262,00000564,false,Rx,1,8,64,08,00,4D,F8,27,37,00,
29207804,0000067E,false,Rx,1,8,81,05,00,00,3B,00,00,F0,
29307044,0000038B,false,Rx,1,8,00,00,00,00,00,00,00,00,
29407043,0000038B,false,Rx,1,8,00,00,00,00,00,00,00,00,
29485967,00000570,false,Tx,0,2,FF,00,00,00,00,00,00,00,
29507048,0000038B,false,Rx,1,8,00,00,00,00,00,00,00,00,
29607054,0000038B,false,Rx,1,8,00,00,00,00,00,00,00,00,
29707052,0000038B,false,Rx,1,8,00,00,00,00,00,00,00,00,
29707100,17F00044,true,Rx,0,8,20,44,00,00,00,00,00,80,
29807058,0000038B,false,Rx,1,8,00,00,00,00,00,00,00,00,
29907065,0000038B,false,Rx,1,8,00,00,00,00,00,00,00,00,
30007062,0000038B,false,Rx,1,8,00,00,00,00,00,00,00,00,
30024022,00000570,false,Tx,0,2,FF,00,00,00,00,00,00,00,
30559593,00000570,false,Tx,0,2,FF,00,00,00,00,00,00,00,
31092849,00000570,false,Tx,0,2,FF,00,00,00,00,00,00,00,
31100497,17F00044,true,Rx,0,8,20,44,00,00,00,00,00,80,
31105631,1B000044,true,Rx,0,8,44,00,01,01,04,00,00,00,
31110422,0000038B,false,Rx,1,8,00,00,FE,00,00,00,00,00,
31110653,00000564,false,Rx,1,8,D3,73,FF,FE,FB,0F,FE,FE,
31110893,0000067E,false,Rx,1,8,D5,03,FE,01,3B,00,00,38,
31200430,0000038B,false,Rx,1,8,00,00,FE,00,00,00,00,00,
31215591,00000564,false,Rx,1,8,C0,74,FF,FE,FB,0F,FE,FE,
31300438,0000038B,false,Rx,1,8,00,00,FE,00,00,00,00,00,
31305633,1B000044,true,Rx,0,8,44,00,01,01,04,00,00,00,
31320445,00000564,false,Rx,1,8,A4,75,FF,FE,FB,0F,FE,FE,
31400435,0000038B,false,Rx,1,8,00,00,FE,00,00,00,00,00,
31425610,00000564,false,Rx,1,8,7E,76,FF,FE,FB,1F,FE,FE,
31500443,0000038B,false,Rx,1,8,00,00,FE,00,00,00,00,00,
31505647,1B000044,true,Rx,0,8,44,00,01,01,04,00,00,00,
31530457,00000564,false,Rx,1,8,1A,77,FF,FE,FB,1F,FE,FE,
31600445,0000038B,false,Rx,1,8,00,00,00,00,00,00,00,00,
31600493,17F00044,true,Rx,0,8,20,44,00,00,00,00,00,80,
31626190,00000570,false,Tx,0,2,FF,00,00,00,00,00,00,00,
31635621,00000564,false,Rx,1,8,16,08,00,00,F8,17,37,00,
31700447,0000038B,false,Rx,1,8,00,00,00,00,00,00,00,00,
31705651,1B000044,true,Rx,0,8,44,00,01,01,04,00,00,00,
31740466,00000564,false,Rx,1,8,72,09,00,00,F8,17,37,00,
31800459,0000038B,false,Rx,1,8,00,00,00,00,00,00,00,00,
31845635,00000564,false,Rx,1,8,DE,0A,00,00,F8,17,37,00,
31900460,0000038B,false,Rx,1,8,00,00,00,00,00,00,00,00,
31905663,1B000044,true,Rx,0,8,44,00,01,01,04,00,00,00,
31950471,00000564,false,Rx,1,8,BA,0B,00,00,F8,17,37,00,
32000462,0000038B,false,Rx,1,8,00,00,00,00,00,00,00,00,
32055626,00000564,false,Rx,1,8,A9,0C,00,00,F8,17,37,00,
32100462,0000038B,false,Rx,1,8,00,00,00,00,00,00,00,00,
32100510,17F00044,true,Rx,0,8,20,44,00,00,00,00,00,80,
32100705,0000067E,false,Rx,1,8,19,04,00,00,3B,00,00,00,
32105668,1B000044,true,Rx,0,8,44,00,01,01,04,00,00,00,
32158809,00000570,false,Tx,0,2,FF,00,00,00,00,00,00,00,
32160477,00000564,false,Rx,1,8,CD,0D,00,00,F8,17,37,00,
32200471,0000038B,false,Rx,1,8,00,00,00,00,00,00,00,00,
32300478,0000038B,false,Rx,1,8,00,00,00,00,00,00,00,00,
32305670,1B000044,true,Rx,0,8,44,00,01,01,04,00,00,00,
32400480,0000038B,false,Rx,1,8,00,00,00,00,00,00,00,00,
32500474,0000038B,false,Rx,1,8,00,00,00,00,00,00,00,00,
32505680,1B000044,true,Rx,0,8,44,00,01,01,04,00,00,00,
32600484,0000038B,false,Rx,1,8,00,00,00,00,00,00,00,00,
32600532,17F00044,true,Rx,0,8,20,44,00,00,00,00,00,80,
32689141,00000570,false,Tx,0,2,FF,00,00,00,00,00,00,00,
32700487,0000038B,false,Rx,1,8,00,00,00,00,00,00,00,00,
32705691,1B000044,true,Rx,0,8,44,00,01,01,04,00,00,00,
32800485,0000038B,false,Rx,1,8,00,00,00,00,00,00,00,00,
32900495,0000038B,false,Rx,1,8,00,00,00,00,00,00,00,00,
32905689,1B000044,true,Rx,0,8,44,00,01,01,04,00,00,00,
33000495,0000038B,false,Rx,1,8,00,00,00,00,00,00,00,00,
33213188,00000570,false,Tx,0,2,FF,00,00,00,00,00,00,00,
33739215,00000570,false,Tx,0,2,FF,00,00,00,00,00,00,00,
34260360,00000570,false,Tx,0,2,FF,00,00,00,00,00,00,00,
34787273,00000570,false,Tx,0,2,FF,00,00,00,00,00,00,00,
35313795,00000570,false,Tx,0,2,FF,00,00,00,00,00,00,00,
35842641,00000570,false,Tx,0,2,FF,00,00,00,00,00,00,00,
36368999,00000570,false,Tx,0,2,FF,00,00,00,00,00,00,00,
36896510,00000570,false,Tx,0,2,FF,00,00,00,00,00,00,00,
37424888,00000570,false,Tx,0,2,FF,00,00,00,00,00,00,00,
37947228,00000570,false,Tx,0,2,FF,00,00,00,00,00,00,00,
38471064,00000570,false,Tx,0,2,FF,00,00,00,00,00,00,00,
39071524,00000570,false,Tx,0,2,FF,00,00,00,00,00,00,00,
39584388,00000570,false,Tx,0,2,FF,00,00,00,00,00,00,00,
40104282,00000570,false,Tx,0,2,FF,00,00,00,00,00,00,00,
40625538,00000570,false,Tx,0,2,FF,00,00,00,00,00,00,00,
41154031,00000570,false,Tx,0,2,FF,00,00,00,00,00,00,00,
41682292,00000570,false,Tx,0,2,FF,00,00,00,00,00,00,00,
42212787,00000570,false,Tx,0,2,FF,00,00,00,00,00,00,00,
42742279,00000570,false,Tx,0,2,FF,00,00,00,00,00,00,00,
43274920,00000570,false,Tx,0,2,FF,00,00,00,00,00,00,00,
43804439,00000570,false,Tx,0,2,FF,00,00,00,00,00,00,00,
44337452,00000570,false,Tx,0,2,FF,00,00,00,00,00,00,00,
44863500,00000570,false,Tx,0,2,FF,00,00,00,00,00,00,00,
45402294,00000570,false,Tx,0,2,FF,00,00,00,00,00,00,00,
45933746,00000570,false,Tx,0,2,FF,00,00,00,00,00,00,00,
46462391,00000570,false,Tx,0,2,FF,00,00,00,00,00,00,00,
46981732,00000570,false,Tx,0,2,FF,00,00,00,00,00,00,00,
47505762,00000570,false,Tx,0,2,FF,00,00,00,00,00,00,00,
48032799,00000570,false,Tx,0,2,FF,00,00,00,00,00,00,00,
48554711,00000570,false,Tx,0,2,FF,00,00,00,00,00,00,00,
49071081,00000570,false,Tx,0,2,FF,00,00,00,00,00,00,00,
49594071,00000570,false,Tx,0,2,FF,00,00,00,00,00,00,00,
50120362,00000570,false,Tx,0,2,FF,00,00,00,00,00,00,00,
50650386,00000570,false,Tx,0,2,FF,00,00,00,00,00,00,00,
51182967,00000570,false,Tx,0,2,FF,00,00,00,00,00,00,00,
