Time Stamp,ID,Extended,Dir,Bus,LEN,D1,D2,D3,D4,D5,D6,D7,D8
81387300,1B000044,true,Rx,0,8,44,50,01,04,00,81,01,00,
81387948,00000565,false,Rx,0,8,FE,00,00,00,0E,00,00,00,
81388197,00000488,false,Rx,0,8,00,00,80,FF,0B,00,00,00,
81388499,12DD5472,true,Rx,0,8,00,00,00,00,00,00,F8,FD,
81388799,12DD5492,true,Rx,0,8,00,00,00,00,00,FE,FE,FE,
81389109,17F00044,true,Rx,0,8,20,44,00,00,0F,0D,00,80,
81389395,1A555457,true,Rx,0,8,00,35,51,45,36,00,00,00,
81389674,1A555490,true,Rx,0,8,AA,AA,AA,AA,AA,AA,AA,AA,
81389984,1A555491,true,Rx,0,8,AA,AA,AA,AA,AA,AA,AA,AA,
81390275,1A555499,true,Rx,0,8,AA,AA,AA,00,00,00,00,00,
81390586,1A55549D,true,Rx,0,8,00,00,00,00,00,00,00,F4,
81390887,1A555515,true,Rx,0,8,00,00,00,00,00,00,00,00,
81391198,1A55554D,true,Rx,0,8,00,00,00,00,00,00,00,00,
81391507,1A55554F,true,Rx,0,8,00,00,00,00,00,00,00,00,
81395516,00000564,false,Rx,0,8,38,01,00,FE,FB,0F,28,00,
81395771,0000067E,false,Rx,0,8,43,11,00,00,9B,00,00,40,
81455501,0000053C,false,Rx,0,8,2A,61,00,00,C0,00,02,FE,
81455797,12DD5491,true,Rx,0,8,4A,01,00,FC,0F,00,00,00,
81485558,00000565,false,Rx,0,8,FE,00,00,00,0E,00,00,00,
81485854,12DD5492,true,Rx,0,8,00,00,00,00,00,FE,FE,FE,
81490888,17331102,true,Rx,0,4,40,00,01,46,00,00,00,00,
81497558,17332510,true,Rx,0,8,09,42,03,00,25,00,04,05,
81497741,17331102,true,Rx,0,2,14,42,00,00,00,00,00,00,
81555553,0000053C,false,Rx,0,8,7F,62,00,00,C0,00,02,FE,
81555848,12DD5491,true,Rx,0,8,AC,02,00,FC,0F,00,00,00,
81567568,17332510,true,Rx,0,8,49,4E,10,00,00,00,00,00,
81584942,1B000044,true,Rx,0,8,44,50,01,04,00,81,01,00,
81585579,00000565,false,Rx,0,8,FE,00,00,00,0E,00,00,00,
81585880,12DD5492,true,Rx,0,8,00,00,00,00,00,FE,FE,FE,
81586180,1A555515,true,Rx,0,8,00,00,00,00,00,00,00,00,
81617475,17332510,true,Rx,0,4,49,50,0F,00,00,00,00,00,
81655503,0000053C,false,Rx,0,8,84,63,00,00,C0,00,02,FE,
81655790,12DD5491,true,Rx,0,8,D4,03,00,FC,0F,00,00,00,
81667549,17332510,true,Rx,0,8,80,09,49,51,00,FF,FF,FF,
81685495,00000565,false,Rx,0,8,FE,00,00,00,0E,00,00,00,
81685791,12DD5492,true,Rx,0,8,00,00,00,00,00,FE,FE,FE,
81717552,17332510,true,Rx,0,8,90,07,49,52,00,00,00,00,
81755538,0000053C,false,Rx,0,8,C3,64,00,00,C0,00,02,FE,
81755835,12DD5491,true,Rx,0,8,66,04,00,FC,0F,00,00,00,
81767521,17332510,true,Rx,0,6,C0,00,00,01,00,00,00,00,
81784927,1B000044,true,Rx,0,8,44,50,01,04,00,81,01,00,
81785564,00000565,false,Rx,0,8,FE,00,00,00,0E,00,00,00,
81785864,12DD5492,true,Rx,0,8,00,00,00,00,00,FE,FE,FE,
81786174,1A555515,true,Rx,0,8,00,00,00,00,00,00,00,00,
81817459,17332510,true,Rx,0,4,D0,FF,B0,00,00,00,00,00,
81855528,0000053C,false,Rx,0,8,54,65,00,00,C0,00,02,FE,
81855824,12DD5491,true,Rx,0,8,E6,05,00,FC,0F,00,00,00,
81867500,17332510,true,Rx,0,4,49,66,01,01,00,00,00,00,
81885528,00000565,false,Rx,0,8,FE,00,00,00,0E,00,00,00,
81885824,12DD5472,true,Rx,0,8,00,00,00,00,00,00,F8,FD,
81886134,12DD5492,true,Rx,0,8,00,00,00,00,00,FE,FE,FE,
81886426,17F00044,true,Rx,0,8,20,44,00,00,0F,0D,00,80,
81886716,1A555490,true,Rx,0,8,AA,AA,AA,AA,AA,AA,AA,AA,
81886996,1A555491,true,Rx,0,8,AA,AA,AA,AA,AA,AA,AA,AA,
81887286,1A555499,true,Rx,0,8,AA,AA,AA,00,00,00,00,00,
81917553,17332510,true,Rx,0,8,81,A6,49,67,00,01,40,01,
81955480,0000053C,false,Rx,0,8,D2,66,00,00,C0,00,12,FE,
81955776,12DD5491,true,Rx,0,8,B6,06,00,FC,0F,00,00,00,
81967546,17332510,true,Rx,0,8,90,59,49,68,00,07,40,01,
81984859,1B000044,true,Rx,0,8,44,50,01,04,00,81,01,00,
81985497,00000565,false,Rx,0,8,FE,00,00,00,0E,00,00,00,
81985807,12DD5492,true,Rx,0,8,00,00,00,00,00,FE,FE,FE,
81986108,1A555515,true,Rx,0,8,00,00,00,00,00,00,00,00,
82017537,17332510,true,Rx,0,8,49,69,FE,FE,FE,FE,FE,FE,
82055513,0000053C,false,Rx,0,8,EA,67,00,00,C0,00,12,FE,
82055808,12DD5491,true,Rx,0,8,86,07,00,FC,0F,00,00,00,
82067486,17332510,true,Rx,0,5,49,6D,00,FF,FF,00,00,00,
82085512,00000565,false,Rx,0,8,FE,00,00,00,0E,00,00,00,
82085818,12DD5492,true,Rx,0,8,00,00,00,00,00,FE,FE,FE,
82097433,17331102,true,Rx,0,2,14,42,00,00,00,00,00,00,
82117552,17332510,true,Rx,0,8,C0,0A,01,07,44,65,66,61,
82155507,0000053C,false,Rx,0,8,C6,68,00,00,C0,00,12,FE,
82155804,12DD5491,true,Rx,0,8,DE,08,00,FC,0F,00,00,00,
82167533,17332510,true,Rx,0,8,D0,07,01,12,01,01,0C,00,
82184898,1B000044,true,Rx,0,8,44,50,01,04,00,81,01,00,
82185536,00000565,false,Rx,0,8,FE,00,00,00,0E,00,00,00,
82185837,12DD5492,true,Rx,0,8,00,00,00,00,00,FE,FE,FE,
82186147,1A555515,true,Rx,0,8,00,00,00,00,00,00,00,00,
82217482,17332510,true,Rx,0,5,49,6D,F0,FF,1F,00,00,00,
82255450,0000053C,false,Rx,0,8,A3,69,00,00,C0,00,12,FE,
82255747,12DD5491,true,Rx,0,8,0D,09,00,FC,0F,00,00,00,
82267548,17332510,true,Rx,0,8,C1,75,6C,74,00,00,02,64,
82285443,00000565,false,Rx,0,8,FE,00,00,00,0E,00,00,00,
82285750,12DD5492,true,Rx,0,8,00,00,00,00,00,FE,FE,FE,
82317533,17332510,true,Rx,0,8,D1,FF,00,10,FF,FF,00,02,
82355544,0000053C,false,Rx,0,8,8F,6A,00,00,C0,00,12,FE,
82355840,12DD5491,true,Rx,0,8,9F,0A,00,FC,0F,00,00,00,
82367464,17332510,true,Rx,0,5,49,6D,F0,FF,1F,00,00,00,
82384765,1B000044,true,Rx,0,8,44,50,01,04,00,81,01,00,
82385412,00000565,false,Rx,0,8,FE,00,00,00,0E,00,00,00,
82385671,00000488,false,Rx,0,8,00,00,80,FF,0B,00,00,00,
82385961,12DD5472,true,Rx,0,8,00,00,00,00,00,00,F8,FD,
82386272,12DD5492,true,Rx,0,8,00,00,00,00,00,FE,FE,FE,
82386563,17F00044,true,Rx,0,8,20,44,00,00,0F,0D,00,80,
82386857,1A555457,true,Rx,0,8,81,38,34,4A,20,00,00,00,
82387137,1A555490,true,Rx,0,8,AA,AA,AA,AA,AA,AA,AA,AA,
82387428,1A555491,true,Rx,0,8,AA,AA,AA,AA,AA,AA,AA,AA,
82387729,1A555499,true,Rx,0,8,AA,AA,AA,00,00,00,00,00,
82388049,1A555515,true,Rx,0,8,00,00,00,00,00,00,00,00,
82388351,1A55554D,true,Rx,0,8,00,00,00,00,00,00,00,00,
82388652,1A55554F,true,Rx,0,8,00,00,00,00,00,00,00,00,
82395522,00000564,false,Rx,0,8,DE,02,00,FE,FB,2F,35,00,
82395776,0000067E,false,Rx,0,8,E6,02,00,00,5B,00,00,00,
82417547,17332510,true,Rx,0,8,C2,FB,00,00,00,00,00,00,
82455497,0000053C,false,Rx,0,8,3F,6B,00,00,C0,00,12,FE,
82455792,12DD5491,true,Rx,0,8,2E,0B,00,FC,0F,00,00,00,
82467510,17332510,true,Rx,0,8,D2,12,01,01,0C,00,FF,00,
82485497,00000565,false,Rx,0,8,FE,00,00,00,0E,00,00,00,
82485803,12DD5492,true,Rx,0,8,00,00,00,00,00,FE,FE,FE,
82517553,17332510,true,Rx,0,8,C3,00,00,00,00,00,03,45,
82555450,0000053C,false,Rx,0,8,83,6C,00,00,C0,00,12,FE,
82555746,12DD5491,true,Rx,0,8,98,0C,00,FC,0F,00,00,00,
82567507,17332510,true,Rx,0,8,D3,10,FF,FF,00,03,12,01,
82584842,1B000044,true,Rx,0,8,44,50,01,04,00,81,01,00,
82585479,00000565,false,Rx,0,8,FE,00,00,00,0E,00,00,00,
82585789,12DD5492,true,Rx,0,8,00,00,00,00,00,FE,FE,FE,
82586090,1A555515,true,Rx,0,8,00,00,00,00,00,00,00,00,
82617508,17332510,true,Rx,0,8,A0,0B,49,6E,FF,00,00,FF,
82655484,0000053C,false,Rx,0,8,11,6D,00,00,C0,00,12,FE,
82655781,12DD5491,true,Rx,0,8,94,0D,00,FC,0F,00,00,00,
82667521,17332510,true,Rx,0,8,C4,55,52,01,02,03,04,05,
82685477,00000565,false,Rx,0,8,FE,00,00,00,0E,00,00,00,
82685774,12DD5492,true,Rx,0,8,00,00,00,00,00,FE,FE,FE,
82697409,17331102,true,Rx,0,2,14,42,00,00,00,00,00,00,
82717538,17332510,true,Rx,0,8,C5,06,07,00,00,00,00,00,
82755475,0000053C,false,Rx,0,8,A9,6E,00,00,C0,00,12,FE,
82755772,12DD5491,true,Rx,0,8,30,0E,00,FC,0F,00,00,00,
82767500,17332510,true,Rx,0,8,D4,01,0C,00,FF,00,10,FF,
82784855,1B000044,true,Rx,0,8,44,50,01,04,00,81,01,00,
82785502,00000565,false,Rx,0,8,FE,00,00,00,0E,00,00,00,
82785802,12DD5492,true,Rx,0,8,00,00,00,00,00,FE,FE,FE,
82786112,1A555515,true,Rx,0,8,00,00,00,00,00,00,00,00,
82817511,17332510,true,Rx,0,8,E0,FF,FF,FF,10,00,00,00,
82855425,0000053C,false,Rx,0,8,5C,6F,00,00,C0,00,12,FE,
82855721,12DD5491,true,Rx,0,8,90,0F,00,FC,0F,00,00,00,
82867521,17332510,true,Rx,0,8,C6,00,00,00,00,64,00,FF,
82885415,00000565,false,Rx,0,8,FE,00,00,00,0E,00,00,00,
82885721,12DD5472,true,Rx,0,8,00,00,00,00,00,00,F8,FD,
82886020,12DD5492,true,Rx,0,8,00,00,00,00,00,FE,FE,FE,
82886321,17F00044,true,Rx,0,8,20,44,00,00,0F,0D,00,80,
82886602,1A555490,true,Rx,0,8,AA,AA,AA,AA,AA,AA,AA,AA,
82886883,1A555491,true,Rx,0,8,AA,AA,AA,AA,AA,AA,AA,AA,
82887182,1A555499,true,Rx,0,8,AA,AA,AA,00,00,00,00,00,
82917501,17332510,true,Rx,0,8,D5,FF,00,04,12,01,01,0C,
82955457,0000053C,false,Rx,0,8,58,60,00,00,C0,00,12,FE,
82955753,12DD5491,true,Rx,0,8,65,00,00,FC,0F,00,00,00,
82967513,17332510,true,Rx,0,8,C7,02,00,00,00,00,64,FB,
82984847,1B000044,true,Rx,0,8,44,50,01,04,00,81,01,00,
82985484,00000565,false,Rx,0,8,FE,00,00,00,0E,00,00,00,
82985795,12DD5492,true,Rx,0,8,00,00,00,00,00,FE,FE,FE,
82986096,1A555515,true,Rx,0,8,00,00,00,00,00,00,00,00,
83017482,17332510,true,Rx,0,8,D6,00,FF,00,10,FF,FF,00,
83055450,0000053C,false,Rx,0,8,CA,61,00,00,C0,00,12,FE,
83055746,12DD5491,true,Rx,0,8,4A,01,00,FC,0F,00,00,00,
83067516,17332510,true,Rx,0,8,C8,00,00,00,00,00,00,00,
83085444,00000565,false,Rx,0,8,FE,00,00,00,0E,00,00,00,
83085750,12DD5492,true,Rx,0,8,00,00,00,00,00,FE,FE,FE,
83117481,17332510,true,Rx,0,8,D7,05,12,01,01,0C,00,FF,
83155408,0000053C,false,Rx,0,8,9F,62,00,00,C0,00,12,FE,
83155705,12DD5491,true,Rx,0,8,AC,02,00,FC,0F,00,00,00,
83167496,17332510,true,Rx,0,8,C9,00,00,00,00,03,45,55,
83184797,1B000044,true,Rx,0,8,44,50,01,04,00,81,01,00,
83185434,00000565,false,Rx,0,8,FE,00,00,00,0E,00,00,00,
83185735,12DD5492,true,Rx,0,8,00,00,00,00,00,FE,FE,FE,
83186045,1A555515,true,Rx,0,8,00,00,00,00,00,00,00,00,
83217466,17332510,true,Rx,0,8,D8,00,10,FF,FF,00,06,12,
83255434,0000053C,false,Rx,0,8,64,63,00,00,C0,00,12,FE,
83255731,12DD5491,true,Rx,0,8,D4,03,00,FC,0F,00,00,00,
83267500,17332510,true,Rx,0,8,CA,52,01,02,03,04,05,06,
83285435,00000565,false,Rx,0,8,FE,00,00,00,0E,00,00,00,
83285732,12DD5492,true,Rx,0,8,00,00,00,00,00,FE,FE,FE,
83297367,17331102,true,Rx,0,2,14,42,00,00,00,00,00,00,
83317497,17332510,true,Rx,0,8,CB,07,01,00,00,00,00,00,
83355466,0000053C,false,Rx,0,8,23,64,00,00,C0,00,12,FE,
83355761,12DD5491,true,Rx,0,8,66,04,00,FC,0F,00,00,00,
83367459,17332510,true,Rx,0,8,D9,01,01,0C,00,00,00,01,
83384823,1B000044,true,Rx,0,8,44,50,01,04,00,81,01,00,
83385461,00000565,false,Rx,0,8,FE,00,00,00,0E,00,00,00,
83385720,00000488,false,Rx,0,8,00,00,80,FF,0B,00,00,00,
83386019,12DD5472,true,Rx,0,8,00,00,00,00,00,00,F8,FD,
83386320,12DD5492,true,Rx,0,8,00,00,00,00,00,FE,FE,FE,
83386622,17F00044,true,Rx,0,8,20,44,00,00,0F,0D,00,80,
83386917,1A555457,true,Rx,0,8,82,30,30,32,32,00,00,00,
83387196,1A555490,true,Rx,0,8,AA,AA,AA,AA,AA,AA,AA,AA,
83387477,1A555491,true,Rx,0,8,AA,AA,AA,AA,AA,AA,AA,AA,
83387768,1A555499,true,Rx,0,8,AA,AA,AA,00,00,00,00,00,
83388078,1A55549D,true,Rx,0,8,00,00,00,00,00,00,00,F4,
83388390,1A555515,true,Rx,0,8,00,00,00,00,00,00,00,00,
83388690,1A55554D,true,Rx,0,8,00,00,00,00,00,00,00,00,
83388999,1A55554F,true,Rx,0,8,00,00,00,00,00,00,00,00,
83395411,00000564,false,Rx,0,8,82,03,00,FE,FB,2F,31,00,
83395676,0000067E,false,Rx,0,8,82,03,00,00,5B,00,00,00,
83417465,17332510,true,Rx,0,8,A0,09,49,51,01,FF,FF,FF,
83455393,0000053C,false,Rx,0,8,B4,65,00,00,C0,00,12,FE,
83455689,12DD5491,true,Rx,0,8,E6,05,00,FC,0F,00,00,00,
83467438,17332510,true,Rx,0,6,E0,00,00,01,00,00,00,00,
83485373,00000565,false,Rx,0,8,FE,00,00,00,0E,00,00,00,
83485679,12DD5492,true,Rx,0,8,00,00,00,00,00,FE,FE,FE,
83517503,17332510,true,Rx,0,8,CC,00,00,00,64,00,FF,03,
83555418,0000053C,false,Rx,0,8,D2,66,00,00,C0,00,12,FE,
83555713,12DD5491,true,Rx,0,8,B6,06,00,FC,0F,00,00,00,
83567454,17332510,true,Rx,0,8,DA,FF,FF,01,07,12,01,01,
83575388,00000565,false,Rx,0,8,FE,40,00,00,0E,00,00,00,
83584803,1B000044,true,Rx,0,8,44,50,01,04,00,81,01,00,
83585492,1A555515,true,Rx,0,8,00,00,00,00,00,00,00,00,
83585793,12DD5492,true,Rx,0,8,00,00,00,00,00,FE,FE,FE,
83617352,17332510,true,Rx,0,3,49,5C,31,00,00,00,00,00,
83635388,00000565,false,Rx,0,8,FE,40,00,00,0E,00,00,00,
83655407,0000053C,false,Rx,0,8,EA,67,00,00,C0,00,12,FE,
83655704,12DD5491,true,Rx,0,8,86,07,00,FC,0F,00,00,00,
83667485,17332510,true,Rx,0,8,CD,00,00,00,00,64,FB,00,
83685461,12DD5492,true,Rx,0,8,00,00,00,00,00,FE,FE,FE,
83695489,00000565,false,Rx,0,8,FE,40,00,00,0E,00,C0,00,
83717455,17332510,true,Rx,0,8,DB,0C,00,00,00,01,FF,FF,
83755445,0000053C,false,Rx,0,8,C6,68,00,00,C0,00,12,FE,
83755741,12DD5491,true,Rx,0,8,DE,08,00,FC,0F,00,00,00,
83767480,17332510,true,Rx,0,8,CE,00,00,00,00,00,00,00,
83784751,1B000044,true,Rx,0,8,44,50,01,04,00,81,01,00,
83785387,00000565,false,Rx,0,8,FE,40,00,00,0E,00,C0,00,
83785688,12DD5492,true,Rx,0,8,00,00,00,00,00,FE,FE,FE,
83785998,1A555515,true,Rx,0,8,00,00,00,00,00,00,00,00,
83817334,17332510,true,Rx,0,2,DC,01,00,00,00,00,00,00,
83855476,0000053C,false,Rx,0,8,A3,69,00,00,C0,00,12,FE,
83855772,12DD5491,true,Rx,0,8,0D,09,00,FC,0F,00,00,00,
83867469,17332510,true,Rx,0,8,CF,00,00,00,03,45,55,52,
83885394,00000565,false,Rx,0,8,FE,40,00,00,0E,00,C0,00,
83885690,12DD5472,true,Rx,0,8,00,00,00,00,00,00,F8,FD,
83886000,12DD5492,true,Rx,0,8,00,00,00,00,00,FE,FE,FE,
83886301,17F00044,true,Rx,0,8,20,44,00,00,0F,0D,00,80,
83886581,1A555490,true,Rx,0,8,AA,AA,AA,AA,AA,AA,AA,AA,
83886852,1A555491,true,Rx,0,8,AA,AA,AA,AA,AA,AA,AA,AA,
83887152,1A555499,true,Rx,0,8,AA,AA,AA,00,00,00,00,00,
83897344,17331102,true,Rx,0,2,14,42,00,00,00,00,00,00,
83917464,17332510,true,Rx,0,8,C0,01,02,03,04,05,06,07,
83955475,0000053C,false,Rx,0,8,8F,6A,00,00,C0,00,12,FE,
83955771,12DD5491,true,Rx,0,8,9F,0A,00,FC,0F,00,00,00,
83967470,17332510,true,Rx,0,8,C1,01,00,00,00,00,00,00,
83984783,1B000044,true,Rx,0,8,44,50,01,04,00,81,01,00,
83985420,00000565,false,Rx,0,8,FE,40,00,00,0E,00,C0,00,
83985720,12DD5492,true,Rx,0,8,00,00,00,00,00,FE,FE,FE,
83986021,1A555515,true,Rx,0,8,00,00,00,00,00,00,00,00,
84017460,17332510,true,Rx,0,8,C2,00,00,64,00,FF,04,00,
84055435,0000053C,false,Rx,0,8,3F,6B,00,00,C0,00,12,FE,
84055721,12DD5491,true,Rx,0,8,2E,0B,00,FC,0F,00,00,00,
84067460,17332510,true,Rx,0,8,C3,00,00,00,64,FB,00,00,
84085330,00000565,false,Rx,0,8,FE,40,00,00,0E,00,C0,00,
84085637,12DD5492,true,Rx,0,8,00,00,00,00,00,FE,FE,FE,
84117469,17332510,true,Rx,0,8,C4,00,00,00,00,00,00,00,
84155455,0000053C,false,Rx,0,8,83,6C,00,00,C0,00,12,FE,
84155763,12DD5491,true,Rx,0,8,98,0C,00,FC,0F,00,00,00,
84167439,17332510,true,Rx,0,8,C5,00,00,03,45,55,52,01,
84184771,1B000044,true,Rx,0,8,44,50,01,04,00,81,01,00,
84185408,00000565,false,Rx,0,8,FE,40,00,00,0E,00,80,00,
84185709,12DD5492,true,Rx,0,8,00,00,00,00,00,FE,FE,FE,
84186009,1A555515,true,Rx,0,8,00,00,00,00,00,00,00,00,
84217449,17332510,true,Rx,0,8,C6,02,03,04,05,06,07,01,
84255446,0000053C,false,Rx,0,8,11,6D,00,00,C0,00,12,FE,
84255742,12DD5491,true,Rx,0,8,94,0D,00,FC,0F,00,00,00,
84267449,17332510,true,Rx,0,8,C7,00,00,00,00,00,00,00,
84285362,00000565,false,Rx,0,8,FE,40,00,00,0E,00,C0,00,
84285659,12DD5492,true,Rx,0,8,00,00,00,00,00,FE,FE,FE,
84317448,17332510,true,Rx,0,8,C8,00,64,00,FF,05,00,00,
84355456,0000053C,false,Rx,0,8,A9,6E,00,00,C0,00,12,FE,
84355752,12DD5491,true,Rx,0,8,30,0E,00,FC,0F,00,00,00,
84367438,17332510,true,Rx,0,8,C9,00,00,64,FB,00,00,00,
84384709,1B000044,true,Rx,0,8,44,50,01,04,00,81,01,00,
84385357,00000565,false,Rx,0,8,FE,40,00,00,0E,00,C0,00,
84385605,00000488,false,Rx,0,8,00,00,80,FF,0B,00,00,00,
84385905,12DD5472,true,Rx,0,8,00,00,00,00,00,00,F8,FD,
84386206,12DD5492,true,Rx,0,8,00,00,00,00,00,FE,FE,FE,
84386507,17F00044,true,Rx,0,8,20,44,00,00,0F,0D,00,80,
84386812,1A555457,true,Rx,0,8,83,00,00,00,00,00,00,00,
84387092,1A555490,true,Rx,0,8,AA,AA,AA,AA,AA,AA,AA,AA,
84387372,1A555491,true,Rx,0,8,AA,AA,AA,AA,AA,AA,AA,AA,
84387663,1A555499,true,Rx,0,8,AA,AA,AA,00,00,00,00,00,
84387973,1A555515,true,Rx,0,8,00,00,00,00,00,00,00,00,
84388283,1A55554D,true,Rx,0,8,00,00,00,00,00,00,00,00,
84388586,1A55554F,true,Rx,0,8,00,00,00,00,00,00,00,00,
84395476,00000564,false,Rx,0,8,20,04,00,03,F8,17,31,00,
84395731,0000067E,false,Rx,0,8,91,04,00,00,5B,00,00,00,
84417438,17332510,true,Rx,0,8,CA,00,00,00,00,00,00,00,
84455435,0000053C,false,Rx,0,8,5C,6F,00,00,C0,00,12,FE,
84455731,12DD5491,true,Rx,0,8,90,0F,00,FC,0F,00,00,00,
84467429,17332510,true,Rx,0,8,CB,00,03,45,55,52,01,02,
84485352,00000565,false,Rx,0,8,FE,40,00,00,0E,00,C0,00,
84485658,12DD5492,true,Rx,0,8,00,00,00,00,00,FE,FE,FE,
84517420,17332510,true,Rx,0,8,CC,03,04,05,06,07,01,00,
84555398,0000053C,false,Rx,0,8,58,60,00,00,C0,00,12,FE,
84555704,12DD5491,true,Rx,0,8,65,00,00,FC,0F,00,00,00,
84567413,17332510,true,Rx,0,8,CD,00,00,00,00,00,00,00,
84584735,1B000044,true,Rx,0,8,44,50,01,04,00,81,01,00,
84585372,00000565,false,Rx,0,8,FE,40,00,00,0E,00,C0,00,
84585683,12DD5492,true,Rx,0,8,00,00,00,00,00,FE,FE,FE,
84585983,1A555515,true,Rx,0,8,00,00,00,00,00,00,00,00,
84617361,17332510,true,Rx,0,8,39,42,03,00,25,00,04,05,
84655378,0000053C,false,Rx,0,8,CA,61,00,00,C0,00,12,FE,
84655675,12DD5491,true,Rx,0,8,4A,01,00,FC,0F,00,00,00,
84667413,17332510,true,Rx,0,8,CE,64,00,FF,06,00,00,00,
84685294,00000565,false,Rx,0,8,FE,40,00,00,0E,00,C0,00,
84685593,12DD5492,true,Rx,0,8,00,00,00,00,00,FE,FE,FE,
84717414,17332510,true,Rx,0,8,CF,00,64,FB,00,00,00,00,
84755339,0000053C,false,Rx,0,8,9F,62,00,00,C0,00,12,FE,
84755637,12DD5491,true,Rx,0,8,AC,02,00,FC,0F,00,00,00,
84767408,17332510,true,Rx,0,8,C0,00,00,00,00,00,00,00,
84784741,1B000044,true,Rx,0,8,44,50,01,04,00,81,01,00,
84785378,00000565,false,Rx,0,8,FE,40,00,00,0E,00,C0,00,
84785678,12DD5492,true,Rx,0,8,00,00,00,00,00,FE,FE,FE,
84785988,1A555515,true,Rx,0,8,00,00,00,00,00,00,00,00,
84817387,17332510,true,Rx,0,8,C1,03,45,55,52,01,02,03,
84855331,0000053C,false,Rx,0,8,64,63,00,00,C0,00,12,FE,
84855628,12DD5491,true,Rx,0,8,D4,03,00,FC,0F,00,00,00,
84867396,17332510,true,Rx,0,8,C2,04,05,06,07,01,00,00,
84885320,00000565,false,Rx,0,8,FE,40,00,00,0E,00,C0,00,
84885627,12DD5472,true,Rx,0,8,00,00,00,00,00,00,F8,FD,
84885927,12DD5492,true,Rx,0,8,00,00,00,00,00,FE,FE,FE,
84886228,17F00044,true,Rx,0,8,20,44,00,00,0F,0D,00,80,
84886510,1A555490,true,Rx,0,8,AA,AA,AA,AA,AA,AA,AA,AA,
84886790,1A555491,true,Rx,0,8,AA,AA,AA,AA,AA,AA,AA,AA,
84887080,1A555499,true,Rx,0,8,AA,AA,AA,00,00,00,00,00,
84917392,17332510,true,Rx,0,8,C3,00,00,00,00,00,00,64,
84955288,0000053C,false,Rx,0,8,23,64,00,00,C0,00,12,FE,
84955576,12DD5491,true,Rx,0,8,66,04,00,FC,0F,00,00,00,
84967388,17332510,true,Rx,0,8,C4,00,FF,07,00,00,00,00,
84984669,1B000044,true,Rx,0,8,44,50,01,04,00,81,01,00,
84985305,00000565,false,Rx,0,8,FE,40,00,00,0E,00,C0,00,
84985606,12DD5492,true,Rx,0,8,00,00,00,00,00,FE,FE,FE,
84985917,1A555515,true,Rx,0,8,00,00,00,00,00,00,00,00,
85017388,17332510,true,Rx,0,8,C5,64,FB,00,00,00,00,00,
85055324,0000053C,false,Rx,0,8,B4,65,00,00,C0,00,12,FE,
85055621,12DD5491,true,Rx,0,8,E6,05,00,FC,0F,00,00,00,
85067393,17332510,true,Rx,0,8,C6,00,00,00,00,00,00,03,
85085315,00000565,false,Rx,0,8,FE,40,00,00,0E,00,C0,00,
85085612,12DD5492,true,Rx,0,8,00,00,00,00,00,FE,FE,FE,
85117372,17332510,true,Rx,0,8,C7,45,55,52,01,02,03,04,
85155308,0000053C,false,Rx,0,8,D2,66,00,00,C0,00,12,FE,
85155606,12DD5491,true,Rx,0,8,B6,06,00,FC,0F,00,00,00,
85167377,17332510,true,Rx,0,8,C8,05,06,07,01,00,00,00,
85184698,1B000044,true,Rx,0,8,44,50,01,04,00,81,01,00,
85185334,00000565,false,Rx,0,8,FE,40,00,00,0E,00,C0,00,
85185637,12DD5492,true,Rx,0,8,00,00,00,00,00,FE,FE,FE,
85185947,1A555515,true,Rx,0,8,00,00,00,00,00,00,00,00,
85217373,17332510,true,Rx,0,8,C9,00,00,00,00,00,64,00,
85255277,0000053C,false,Rx,0,8,EA,67,00,00,C0,00,12,FE,
85255565,12DD5491,true,Rx,0,8,86,07,00,FC,0F,00,00,00,
85267366,17332510,true,Rx,0,8,CA,FF,08,00,00,00,00,64,
85285257,00000565,false,Rx,0,8,FE,40,00,00,0E,00,80,00,
85285556,12DD5492,true,Rx,0,8,00,00,00,00,00,FE,FE,FE,
85317378,17332510,true,Rx,0,8,CB,FB,00,00,00,00,00,00,
85355335,0000053C,false,Rx,0,8,C6,68,00,00,C0,00,12,FE,
85355633,12DD5491,true,Rx,0,8,DE,08,00,FC,0F,00,00,00,
85367361,17332510,true,Rx,0,8,CC,00,00,00,00,00,03,45,
85384766,1B000044,true,Rx,0,8,44,50,04,00,00,81,01,00,
85385404,00000565,false,Rx,0,8,FE,40,00,00,0E,00,C0,00,
85385662,00000488,false,Rx,0,8,00,00,80,FF,0B,00,00,00,
85385953,12DD5472,true,Rx,0,8,00,00,00,00,00,00,F8,FD,
85386263,12DD5492,true,Rx,0,8,00,00,00,00,00,FE,FE,FE,
85386564,17F00044,true,Rx,0,8,20,44,00,00,0F,0D,00,80,
85386849,1A555457,true,Rx,0,8,80,35,51,45,36,00,00,00,
85387129,1A555490,true,Rx,0,8,AA,AA,AA,AA,AA,AA,AA,AA,
85387409,1A555491,true,Rx,0,8,AA,AA,AA,AA,AA,AA,AA,AA,
85387700,1A555499,true,Rx,0,8,AA,AA,AA,00,00,00,00,00,
85388010,1A55549D,true,Rx,0,8,00,00,00,00,00,00,00,F4,
85388311,1A555515,true,Rx,0,8,00,00,00,00,00,00,00,00,
85388623,1A55554D,true,Rx,0,8,00,00,00,00,00,00,00,00,
85388931,1A55554F,true,Rx,0,8,00,00,00,00,00,00,00,00,
85395322,00000564,false,Rx,0,8,44,05,00,03,F8,17,31,00,
85395577,0000067E,false,Rx,0,8,F5,05,00,00,5B,00,00,00,
85417345,17332510,true,Rx,0,8,CD,55,52,01,02,03,04,05,
85455293,0000053C,false,Rx,0,8,A3,69,00,00,C0,00,12,FE,
85455590,12DD5491,true,Rx,0,8,0D,09,00,FC,0F,00,00,00,
85467351,17332510,true,Rx,0,8,CE,06,07,01,00,00,00,00,
85485274,00000565,false,Rx,0,8,FE,40,00,00,0E,00,C0,00,
85485581,12DD5492,true,Rx,0,8,00,00,00,00,00,FE,FE,FE,
85517363,17332510,true,Rx,0,8,CF,00,00,00,00,64,00,FF,
85555247,0000053C,false,Rx,0,8,8F,6A,00,00,C0,00,12,FE,
85555545,12DD5491,true,Rx,0,8,9F,0A,00,FC,0F,00,00,00,
85567345,17332510,true,Rx,0,8,C0,09,00,00,00,00,64,FB,
85584637,1B000044,true,Rx,0,8,44,50,04,00,00,81,01,00,
85585263,00000565,false,Rx,0,8,FE,40,00,00,0E,00,C0,00,
85585564,12DD5492,true,Rx,0,8,00,00,00,00,00,FE,FE,FE,
85585875,1A555515,true,Rx,0,8,00,00,00,00,00,00,00,00,
85617284,17332510,true,Rx,0,8,90,08,39,43,78,07,E0,18,
85655283,0000053C,false,Rx,0,8,3F,6B,00,00,C0,00,12,FE,
85655581,12DD5491,true,Rx,0,8,2E,0B,00,FC,0F,00,00,00,
85667246,17332510,true,Rx,0,5,D0,03,F6,08,00,00,00,00,
85685273,00000565,false,Rx,0,8,FE,40,00,00,0E,00,C0,00,
85685571,12DD5492,true,Rx,0,8,00,00,00,00,00,FE,FE,FE,
85717351,17332510,true,Rx,0,8,C1,00,00,00,00,00,00,00,
85755273,0000053C,false,Rx,0,8,83,6C,00,00,C0,00,12,FE,
85755571,12DD5491,true,Rx,0,8,98,0C,00,FC,0F,00,00,00,
85767329,17332510,true,Rx,0,8,C2,00,00,00,00,03,45,55,
85784664,1B000044,true,Rx,0,8,44,50,04,00,00,81,01,00,
85785300,00000565,false,Rx,0,8,FE,40,00,00,0E,00,80,00,
85785601,12DD5492,true,Rx,0,8,00,00,00,00,00,FE,FE,FE,
85785901,1A555515,true,Rx,0,8,00,00,00,00,00,00,00,00,
85817320,17332510,true,Rx,0,8,C3,52,01,02,03,04,05,06,
85855227,0000053C,false,Rx,0,8,11,6D,00,00,C0,00,12,FE,
85855524,12DD5491,true,Rx,0,8,94,0D,00,FC,0F,00,00,00,
85867324,17332510,true,Rx,0,8,C4,07,01,00,00,00,00,00,
85885220,00000565,false,Rx,0,8,FE,40,00,00,0E,00,C0,00,
85885517,12DD5472,true,Rx,0,8,00,00,00,00,00,00,F8,FD,
85885817,12DD5492,true,Rx,0,8,00,00,00,00,00,FE,FE,FE,
85886118,17F00044,true,Rx,0,8,20,44,00,00,0F,0D,00,80,
85886399,1A555490,true,Rx,0,8,AA,AA,AA,AA,AA,AA,AA,AA,
85886679,1A555491,true,Rx,0,8,AA,AA,AA,AA,AA,AA,AA,AA,
85886979,1A555499,true,Rx,0,8,AA,AA,AA,00,00,00,00,00,
85917328,17332510,true,Rx,0,8,C5,00,00,00,64,00,FF,0A,
85955263,0000053C,false,Rx,0,8,A9,6E,00,00,C0,00,12,FE,
85955551,12DD5491,true,Rx,0,8,30,0E,00,FC,0F,00,00,00,
85967310,17332510,true,Rx,0,8,C6,00,00,00,00,64,FB,00,
85984645,1B000044,true,Rx,0,8,44,50,04,00,00,81,01,00,
85985281,00000565,false,Rx,0,8,FE,40,00,00,0E,00,C0,00,
85985582,12DD5492,true,Rx,0,8,00,00,00,00,00,FE,FE,FE,
85985894,1A555515,true,Rx,0,8,00,00,00,00,00,00,00,00,
86017320,17332510,true,Rx,0,8,C7,00,00,00,00,00,00,00,
86055246,0000053C,false,Rx,0,8,5C,6F,00,00,C0,00,12,FE,
86055543,12DD5491,true,Rx,0,8,90,0F,00,FC,0F,00,00,00,
86067304,17332510,true,Rx,0,8,C8,00,00,00,03,45,55,52,
86085241,00000565,false,Rx,0,8,FE,40,00,00,0E,00,C0,00,
86085538,12DD5492,true,Rx,0,8,00,00,00,00,00,FE,FE,FE,
86117309,17332510,true,Rx,0,8,C9,01,02,03,04,05,06,07,
86155215,0000053C,false,Rx,0,8,58,60,00,00,C0,00,12,FE,
86155503,12DD5491,true,Rx,0,8,65,00,00,FC,0F,00,00,00,
86167302,17332510,true,Rx,0,8,CA,01,00,00,00,00,00,00,
86184595,1B000044,true,Rx,0,8,44,50,04,00,00,81,01,00,
86185231,00000565,false,Rx,0,8,FE,40,00,00,0E,00,C0,00,
86185533,12DD5492,true,Rx,0,8,00,00,00,00,00,FE,FE,FE,
86185833,1A555515,true,Rx,0,8,00,00,00,00,00,00,00,00,
86217261,17332510,true,Rx,0,6,CB,00,00,64,00,FF,00,00,
86255236,0000053C,false,Rx,0,8,CA,61,00,00,C0,00,12,FE,
86255535,12DD5491,true,Rx,0,8,4A,01,00,FC,0F,00,00,00,
86285231,00000565,false,Rx,0,8,FE,40,00,00,0E,00,C0,00,
86285529,12DD5492,true,Rx,0,8,00,00,00,00,00,FE,FE,FE,
86355268,0000053C,false,Rx,0,8,9F,62,00,00,C0,00,12,FE,
86355565,12DD5491,true,Rx,0,8,AC,02,00,FC,0F,00,00,00,
86384611,1B000044,true,Rx,0,8,44,50,04,00,00,00,01,00,
86385257,00000565,false,Rx,0,8,FE,40,00,00,0E,00,C0,00,
86385507,00000488,false,Rx,0,8,00,00,80,FF,0B,00,00,00,
86385807,12DD5472,true,Rx,0,8,00,00,00,00,00,00,F8,FD,
86386108,12DD5492,true,Rx,0,8,00,00,00,00,00,FE,FE,FE,
86386409,17F00044,true,Rx,0,8,20,44,00,00,0F,0D,00,80,
86386704,1A555457,true,Rx,0,8,81,38,34,4A,20,00,00,00,
86386983,1A555490,true,Rx,0,8,AA,AA,AA,AA,AA,AA,AA,AA,
86387263,1A555491,true,Rx,0,8,AA,AA,AA,AA,AA,AA,AA,AA,
86387555,1A555499,true,Rx,0,8,AA,AA,AA,00,00,00,00,00,
86387865,1A555515,true,Rx,0,8,00,00,00,00,00,00,00,00,
86388176,1A55554D,true,Rx,0,8,00,00,00,00,00,00,00,00,
86388477,1A55554F,true,Rx,0,8,00,00,00,00,00,00,00,00,
86395200,00000564,false,Rx,0,8,E8,06,00,03,F8,17,31,00,
86395466,0000067E,false,Rx,0,8,59,06,00,00,5B,00,00,00,
86397276,17332510,true,Rx,0,8,80,07,49,74,FF,FF,00,00,
86447211,17332510,true,Rx,0,4,C0,01,00,00,00,00,00,00,
86455186,0000053C,false,Rx,0,8,64,63,00,00,C0,00,12,FE,
86455483,12DD5491,true,Rx,0,8,D4,03,00,FC,0F,00,00,00,
86485170,00000565,false,Rx,0,8,FE,40,00,00,0E,00,C0,00,
86485477,12DD5492,true,Rx,0,8,00,00,00,00,00,FE,FE,FE,
86555217,0000053C,false,Rx,0,8,23,64,00,00,C0,00,12,FE,
86555514,12DD5491,true,Rx,0,8,66,04,00,FC,0F,00,00,00,
86557284,17332510,true,Rx,0,8,80,0B,49,6E,FF,00,00,FF,
86584607,1B000044,true,Rx,0,8,44,50,04,00,00,00,01,00,
86585243,00000565,false,Rx,0,8,FE,40,00,00,0E,00,C0,00,
86585545,12DD5492,true,Rx,0,8,00,00,00,00,00,FE,FE,FE,
86585845,1A555515,true,Rx,0,8,00,00,00,00,00,00,00,00,
86607272,17332510,true,Rx,0,8,C0,FF,FF,FF,10,FF,FF,00,
86655216,0000053C,false,Rx,0,8,B4,65,00,00,C0,00,12,FE,
86655515,12DD5491,true,Rx,0,8,E6,05,00,FC,0F,00,00,00,
86685201,00000565,false,Rx,0,8,FE,40,00,00,0E,00,C0,00,
86685499,12DD5492,true,Rx,0,8,00,00,00,00,00,FE,FE,FE,
86755175,0000053C,false,Rx,0,8,D2,66,00,00,C0,00,12,FE,
86755463,12DD5491,true,Rx,0,8,B6,06,00,FC,0F,00,00,00,
86784548,1B000044,true,Rx,0,8,44,50,04,00,00,00,01,00,
86785183,00000565,false,Rx,0,8,FE,40,00,00,0E,00,C0,00,
86785485,12DD5492,true,Rx,0,8,00,00,00,00,00,FE,FE,FE,
86785795,1A555515,true,Rx,0,8,00,00,00,00,00,00,00,00,
86855197,0000053C,false,Rx,0,8,EA,67,00,00,C0,00,12,FE,
86855493,12DD5491,true,Rx,0,8,86,07,00,FC,0F,00,00,00,
86885190,00000565,false,Rx,0,8,FE,40,00,00,0E,00,C0,00,
86885487,12DD5472,true,Rx,0,8,00,00,00,00,00,00,F8,FD,
86885798,12DD5492,true,Rx,0,8,00,00,00,00,00,FE,FE,FE,
86886088,17F00044,true,Rx,0,8,20,44,00,00,0F,0D,00,80,
86886379,1A555490,true,Rx,0,8,AA,AA,AA,AA,AA,AA,AA,AA,
86886649,1A555491,true,Rx,0,8,AA,AA,AA,AA,AA,AA,AA,AA,
86886949,1A555499,true,Rx,0,8,AA,AA,AA,00,00,00,00,00,
86955196,0000053C,false,Rx,0,8,C6,68,00,00,C0,00,12,FE,
86955482,12DD5491,true,Rx,0,8,DE,08,00,FC,0F,00,00,00,
86984569,1B000044,true,Rx,0,8,44,50,04,00,00,00,01,00,
86985215,00000565,false,Rx,0,8,FE,40,00,00,0E,00,C0,00,
86985516,12DD5492,true,Rx,0,8,00,00,00,00,00,FE,FE,FE,
86985817,1A555515,true,Rx,0,8,00,00,00,00,00,00,00,00,
87055144,0000053C,false,Rx,0,8,A3,69,00,00,C0,00,12,FE,
87055441,12DD5491,true,Rx,0,8,0D,09,00,FC,0F,00,00,00,
87085128,00000565,false,Rx,0,8,FE,40,00,00,0E,00,C0,00,
87085435,12DD5492,true,Rx,0,8,00,00,00,00,00,FE,FE,FE,
87155175,0000053C,false,Rx,0,8,8F,6A,00,00,C0,00,12,FE,
87155473,12DD5491,true,Rx,0,8,9F,0A,00,FC,0F,00,00,00,
87184569,1B000044,true,Rx,0,8,44,50,04,00,00,00,01,00,
87185194,00000565,false,Rx,0,8,FE,40,00,00,0E,00,C0,00,
87185496,12DD5492,true,Rx,0,8,00,00,00,00,00,FE,FE,FE,
87185806,1A555515,true,Rx,0,8,00,00,00,00,00,00,00,00,
87255174,0000053C,false,Rx,0,8,3F,6B,00,00,C0,00,12,FE,
87255463,12DD5491,true,Rx,0,8,2E,0B,00,FC,0F,00,00,00,
87285159,00000565,false,Rx,0,8,FE,40,00,00,0E,00,C0,00,
87285457,12DD5492,true,Rx,0,8,00,00,00,00,00,FE,FE,FE,
87355165,0000053C,false,Rx,0,8,83,6C,00,00,C0,00,12,FE,
87355463,12DD5491,true,Rx,0,8,98,0C,00,FC,0F,00,00,00,
87384507,1B000044,true,Rx,0,8,44,50,04,00,00,00,01,00,
87385143,00000565,false,Rx,0,8,FE,40,00,00,0E,00,C0,00,
87385403,00000488,false,Rx,0,8,00,00,80,FF,0B,00,00,00,
87385703,12DD5472,true,Rx,0,8,00,00,00,00,00,00,F8,FD,
87386004,12DD5492,true,Rx,0,8,00,00,00,00,00,FE,FE,FE,
87386304,17F00044,true,Rx,0,8,20,44,00,00,0F,0D,00,80,
87386601,1A555457,true,Rx,0,8,82,30,30,32,32,00,00,00,
87386880,1A555490,true,Rx,0,8,AA,AA,AA,AA,AA,AA,AA,AA,
87387159,1A555491,true,Rx,0,8,AA,AA,AA,AA,AA,AA,AA,AA,
87387451,1A555499,true,Rx,0,8,AA,AA,AA,00,00,00,00,00,
87387751,1A55549D,true,Rx,0,8,00,00,00,00,00,00,00,F4,
87388061,1A555515,true,Rx,0,8,00,00,00,00,00,00,00,00,
87388363,1A55554D,true,Rx,0,8,00,00,00,00,00,00,00,00,
87388672,1A55554F,true,Rx,0,8,00,00,00,00,00,00,00,00,
87395177,00000564,false,Rx,0,8,8C,07,00,03,F8,17,31,00,
87395443,0000067E,false,Rx,0,8,3D,07,00,00,5B,00,00,00,
87455170,0000053C,false,Rx,0,8,11,6D,00,00,C0,00,12,FE,
87455467,12DD5491,true,Rx,0,8,94,0D,00,FC,0F,00,00,00,
87485144,00000565,false,Rx,0,8,FE,40,00,00,0E,00,C0,00,
87485441,12DD5492,true,Rx,0,8,00,00,00,00,00,FE,FE,FE,
87547066,17332510,true,Rx,0,3,39,44,0A,00,00,00,00,00,
87555155,0000053C,false,Rx,0,8,A9,6E,00,00,C0,00,12,FE,
87555443,12DD5491,true,Rx,0,8,30,0E,00,FC,0F,00,00,00,
87584538,1B000044,true,Rx,0,8,44,50,04,00,00,00,01,00,
87585174,00000565,false,Rx,0,8,FE,40,00,00,0E,00,C0,00,
87585487,12DD5492,true,Rx,0,8,00,00,00,00,00,FE,FE,FE,
87585786,1A555515,true,Rx,0,8,00,00,00,00,00,00,00,00,
87655114,0000053C,false,Rx,0,8,5C,6F,00,00,C0,00,12,FE,
87655403,12DD5491,true,Rx,0,8,90,0F,00,FC,0F,00,00,00,
87685087,00000565,false,Rx,0,8,FE,40,00,00,0E,00,C0,00,
87685395,12DD5492,true,Rx,0,8,00,00,00,00,00,FE,FE,FE,
87755143,0000053C,false,Rx,0,8,58,60,00,00,C0,00,12,FE,
87755443,12DD5491,true,Rx,0,8,65,00,00,FC,0F,00,00,00,
87784518,1B000044,true,Rx,0,8,44,50,04,00,00,00,01,00,
87785165,00000565,false,Rx,0,8,FE,40,00,00,0E,00,C0,00,
87785466,12DD5492,true,Rx,0,8,00,00,00,00,00,FE,FE,FE,
87785765,1A555515,true,Rx,0,8,00,00,00,00,00,00,00,00,
87855134,0000053C,false,Rx,0,8,CA,61,00,00,C0,00,12,FE,
87855431,12DD5491,true,Rx,0,8,4A,01,00,FC,0F,00,00,00,
87885118,00000565,false,Rx,0,8,FE,40,00,00,0E,00,C0,00,
87885425,12DD5472,true,Rx,0,8,00,00,00,00,00,00,F8,FD,
87885725,12DD5492,true,Rx,0,8,00,00,00,00,00,FE,FE,FE,
87886026,17F00044,true,Rx,0,8,20,44,00,00,0F,0D,00,80,
87886305,1A555490,true,Rx,0,8,AA,AA,AA,AA,AA,AA,AA,AA,
87886587,1A555491,true,Rx,0,8,AA,AA,AA,AA,AA,AA,AA,AA,
87886887,1A555499,true,Rx,0,8,AA,AA,AA,00,00,00,00,00,
87955082,0000053C,false,Rx,0,8,9F,62,00,00,C0,00,12,FE,
87955379,12DD5491,true,Rx,0,8,AC,02,00,FC,0F,00,00,00,
87984465,1B000044,true,Rx,0,8,44,50,04,00,00,00,01,00,
87985111,00000565,false,Rx,0,8,FE,40,00,00,0E,00,C0,00,
87985412,12DD5492,true,Rx,0,8,00,00,00,00,00,FE,FE,FE,
87985713,1A555515,true,Rx,0,8,00,00,00,00,00,00,00,00,
88055118,0000053C,false,Rx,0,8,64,63,00,00,C0,00,12,FE,
88055415,12DD5491,true,Rx,0,8,D4,03,00,FC,0F,00,00,00,
88085101,00000565,false,Rx,0,8,FE,40,00,00,0E,00,C0,00,
88085398,12DD5492,true,Rx,0,8,00,00,00,00,00,FE,FE,FE,
88155108,0000053C,false,Rx,0,8,23,64,00,00,C0,00,12,FE,
88155407,12DD5491,true,Rx,0,8,66,04,00,FC,0F,00,00,00,
88184490,1B000044,true,Rx,0,8,44,50,04,00,00,00,01,00,
88185126,00000565,false,Rx,0,8,FE,40,00,00,0E,00,C0,00,
88185429,12DD5492,true,Rx,0,8,00,00,00,00,00,FE,FE,FE,
88185739,1A555515,true,Rx,0,8,00,00,00,00,00,00,00,00,
88255061,0000053C,false,Rx,0,8,B4,65,00,00,C0,00,12,FE,
88255359,12DD5491,true,Rx,0,8,E6,05,00,FC,0F,00,00,00,
88285056,00000565,false,Rx,0,8,FE,40,00,00,0E,00,C0,00,
88285354,12DD5492,true,Rx,0,8,00,00,00,00,00,FE,FE,FE,
88355134,0000053C,false,Rx,0,8,D2,66,00,00,C0,00,12,FE,
88355431,12DD5491,true,Rx,0,8,B6,06,00,FC,0F,00,00,00,
88384506,1B000044,true,Rx,0,8,44,50,04,00,00,00,01,00,
88385142,00000565,false,Rx,0,8,FE,40,00,00,0E,00,80,00,
88385402,00000488,false,Rx,0,8,00,00,80,FF,0B,00,00,00,
88385702,12DD5472,true,Rx,0,8,00,00,00,00,00,00,F8,FD,
88386003,12DD5492,true,Rx,0,8,00,00,00,00,00,FE,FE,FE,
88386303,17F00044,true,Rx,0,8,20,44,00,00,0F,0D,00,80,
88386610,1A555457,true,Rx,0,8,83,00,00,00,00,00,00,00,
88386889,1A555490,true,Rx,0,8,AA,AA,AA,AA,AA,AA,AA,AA,
88387168,1A555491,true,Rx,0,8,AA,AA,AA,AA,AA,AA,AA,AA,
88387471,1A555499,true,Rx,0,8,AA,AA,AA,00,00,00,00,00,
88387781,1A555515,true,Rx,0,8,00,00,00,00,00,00,00,00,
88388082,1A55554D,true,Rx,0,8,00,00,00,00,00,00,00,00,
88388393,1A55554F,true,Rx,0,8,00,00,00,00,00,00,00,00,
88395117,00000564,false,Rx,0,8,9A,08,00,02,F8,17,31,00,
88395372,0000067E,false,Rx,0,8,7F,08,00,00,5B,00,00,00,
88455092,0000053C,false,Rx,0,8,EA,67,00,00,C0,00,12,FE,
88455389,12DD5491,true,Rx,0,8,86,07,00,FC,0F,00,00,00,
88485076,00000565,false,Rx,0,8,FE,40,00,00,0E,00,C0,00,
88485383,12DD5492,true,Rx,0,8,00,00,00,00,00,FE,FE,FE,
88546998,17332510,true,Rx,0,3,39,4D,00,00,00,00,00,00,
88555036,0000053C,false,Rx,0,8,C6,68,00,00,C0,00,12,FE,
88555342,12DD5491,true,Rx,0,8,DE,08,00,FC,0F,00,00,00,
88584429,1B000044,true,Rx,0,8,44,50,04,00,00,00,01,00,
88585065,00000565,false,Rx,0,8,FE,40,00,00,0E,00,C0,00,
88585377,12DD5492,true,Rx,0,8,00,00,00,00,00,FE,FE,FE,
88585678,1A555515,true,Rx,0,8,00,00,00,00,00,00,00,00,
88655096,0000053C,false,Rx,0,8,A3,69,00,00,C0,00,12,FE,
88655394,12DD5491,true,Rx,0,8,0D,09,00,FC,0F,00,00,00,
88685061,00000565,false,Rx,0,8,FE,40,00,00,0E,00,C0,00,
88685359,12DD5492,true,Rx,0,8,00,00,00,00,00,FE,FE,FE,
88755066,0000053C,false,Rx,0,8,8F,6A,00,00,C0,00,12,FE,
88755364,12DD5491,true,Rx,0,8,9F,0A,00,FC,0F,00,00,00,
88784451,1B000044,true,Rx,0,8,44,50,04,00,00,00,01,00,
88785097,00000565,false,Rx,0,8,FE,40,00,00,0E,00,C0,00,
88785398,12DD5492,true,Rx,0,8,00,00,00,00,00,FE,FE,FE,
88785698,1A555515,true,Rx,0,8,00,00,00,00,00,00,00,00,
88855024,0000053C,false,Rx,0,8,3F,6B,00,00,C0,00,12,FE,
88855320,12DD5491,true,Rx,0,8,2E,0B,00,FC,0F,00,00,00,
88885010,00000565,false,Rx,0,8,FE,40,00,00,0E,00,C0,00,
88885316,12DD5472,true,Rx,0,8,00,00,00,00,00,00,F8,FD,
88885617,12DD5492,true,Rx,0,8,00,00,00,00,00,FE,FE,FE,
88885918,17F00044,true,Rx,0,8,20,44,00,00,0F,0D,00,80,
88886197,1A555490,true,Rx,0,8,AA,AA,AA,AA,AA,AA,AA,AA,
88886479,1A555491,true,Rx,0,8,AA,AA,AA,AA,AA,AA,AA,AA,
88886769,1A555499,true,Rx,0,8,AA,AA,AA,00,00,00,00,00,
88955056,0000053C,false,Rx,0,8,83,6C,00,00,C0,00,12,FE,
88955353,12DD5491,true,Rx,0,8,98,0C,00,FC,0F,00,00,00,
88984429,1B000044,true,Rx,0,8,44,50,04,00,00,00,01,00,
88985065,00000565,false,Rx,0,8,FE,40,00,00,0E,00,C0,00,
88985376,12DD5492,true,Rx,0,8,00,00,00,00,00,FE,FE,FE,
88985677,1A555515,true,Rx,0,8,00,00,00,00,00,00,00,00,
89055051,0000053C,false,Rx,0,8,11,6D,00,00,C0,00,12,FE,
89055347,12DD5491,true,Rx,0,8,94,0D,00,FC,0F,00,00,00,
89085034,00000565,false,Rx,0,8,FE,40,00,00,0E,00,C0,00,
89085340,12DD5492,true,Rx,0,8,00,00,00,00,00,FE,FE,FE,
89154998,0000053C,false,Rx,0,8,A9,6E,00,00,C0,00,12,FE,
89155295,12DD5491,true,Rx,0,8,30,0E,00,FC,0F,00,00,00,
89184383,1B000044,true,Rx,0,8,44,50,04,00,00,00,01,00,
89185029,00000565,false,Rx,0,8,FE,40,00,00,0E,00,C0,00,
89185330,12DD5492,true,Rx,0,8,00,00,00,00,00,FE,FE,FE,
89185631,1A555515,true,Rx,0,8,00,00,00,00,00,00,00,00,
89255029,0000053C,false,Rx,0,8,5C,6F,00,00,C0,00,12,FE,
89255326,12DD5491,true,Rx,0,8,90,0F,00,FC,0F,00,00,00,
89285014,00000565,false,Rx,0,8,FE,40,00,00,0E,00,C0,00,
89285321,12DD5492,true,Rx,0,8,00,00,00,00,00,FE,FE,FE,
89355061,0000053C,false,Rx,0,8,58,60,00,00,C0,00,12,FE,
89355358,12DD5491,true,Rx,0,8,65,00,00,FC,0F,00,00,00,
89384414,1B000044,true,Rx,0,8,44,50,04,00,00,00,01,00,
89385050,00000565,false,Rx,0,8,FE,40,00,00,0E,00,C0,00,
89385309,00000488,false,Rx,0,8,00,00,80,FF,0B,00,00,00,
89385610,12DD5472,true,Rx,0,8,00,00,00,00,00,00,F8,FD,
89385911,12DD5492,true,Rx,0,8,00,00,00,00,00,FE,FE,FE,
89386211,17F00044,true,Rx,0,8,20,44,00,00,0F,0D,00,80,
89386497,1A555457,true,Rx,0,8,80,35,51,45,36,00,00,00,
89386786,1A555490,true,Rx,0,8,AA,AA,AA,AA,AA,AA,AA,AA,
89387055,1A555491,true,Rx,0,8,AA,AA,AA,AA,AA,AA,AA,AA,
89387357,1A555499,true,Rx,0,8,AA,AA,AA,00,00,00,00,00,
89387657,1A55549D,true,Rx,0,8,00,00,00,00,00,00,00,F4,
89387967,1A555515,true,Rx,0,8,00,00,00,00,00,00,00,00,
89388268,1A55554D,true,Rx,0,8,00,00,00,00,00,00,00,00,
89388578,1A55554F,true,Rx,0,8,00,00,00,00,00,00,00,00,
89394999,00000564,false,Rx,0,8,AA,09,00,03,F8,17,31,00,
89395254,0000067E,false,Rx,0,8,1B,09,00,00,5B,00,00,00,
89454975,0000053C,false,Rx,0,8,CA,61,00,00,C0,00,12,FE,
89455281,12DD5491,true,Rx,0,8,4A,01,00,FC,0F,00,00,00,
89484968,00000565,false,Rx,0,8,FE,40,00,00,0E,00,C0,00,
89485264,12DD5492,true,Rx,0,8,00,00,00,00,00,FE,FE,FE,
89547025,17332510,true,Rx,0,8,39,4E,10,00,00,00,00,00,
89555013,0000053C,false,Rx,0,8,9F,62,00,00,C0,00,12,FE,
89555309,12DD5491,true,Rx,0,8,AC,02,00,FC,0F,00,00,00,
89584408,1B000044,true,Rx,0,8,44,50,04,00,00,00,01,00,
89585045,00000565,false,Rx,0,8,FE,40,00,00,0E,00,C0,00,
89585344,12DD5492,true,Rx,0,8,00,00,00,00,00,FE,FE,FE,
89585657,1A555515,true,Rx,0,8,00,00,00,00,00,00,00,00,
89655009,0000053C,false,Rx,0,8,64,63,00,00,C0,00,12,FE,
89655306,12DD5491,true,Rx,0,8,D4,03,00,FC,0F,00,00,00,
89684993,00000565,false,Rx,0,8,FE,40,00,00,0E,00,C0,00,
89685301,12DD5492,true,Rx,0,8,00,00,00,00,00,FE,FE,FE,
89754957,0000053C,false,Rx,0,8,23,64,00,00,C0,00,12,FE,
89755254,12DD5491,true,Rx,0,8,66,04,00,FC,0F,00,00,00,
89784353,1B000044,true,Rx,0,8,44,50,04,00,00,00,01,00,
89784987,00000565,false,Rx,0,8,FE,40,00,00,0E,00,C0,00,
89785288,12DD5492,true,Rx,0,8,00,00,00,00,00,FE,FE,FE,
89785590,1A555515,true,Rx,0,8,00,00,00,00,00,00,00,00,
89854999,0000053C,false,Rx,0,8,B4,65,00,00,C0,00,12,FE,
89855295,12DD5491,true,Rx,0,8,E6,05,00,FC,0F,00,00,00,
89884973,00000565,false,Rx,0,8,FE,40,00,00,0E,00,C0,00,
89885279,12DD5472,true,Rx,0,8,00,00,00,00,00,00,F8,FD,
89885582,12DD5492,true,Rx,0,8,00,00,00,00,00,FE,FE,FE,
89885883,17F00044,true,Rx,0,8,20,44,00,00,0F,0D,00,80,
89886162,1A555490,true,Rx,0,8,AA,AA,AA,AA,AA,AA,AA,AA,
89886444,1A555491,true,Rx,0,8,AA,AA,AA,AA,AA,AA,AA,AA,
89886743,1A555499,true,Rx,0,8,AA,AA,AA,00,00,00,00,00,
89954989,0000053C,false,Rx,0,8,D2,66,00,00,C0,00,12,FE,
89955284,12DD5491,true,Rx,0,8,B6,06,00,FC,0F,00,00,00,
89984383,1B000044,true,Rx,0,8,44,50,04,00,00,00,01,00,
89985019,00000565,false,Rx,0,8,FE,40,00,00,0E,00,C0,00,
89985319,12DD5492,true,Rx,0,8,00,00,00,00,00,FE,FE,FE,
89985621,1A555515,true,Rx,0,8,00,00,00,00,00,00,00,00,
90054937,0000053C,false,Rx,0,8,EA,67,00,00,C0,00,12,FE,
90055233,12DD5491,true,Rx,0,8,86,07,00,FC,0F,00,00,00,
90084931,00000565,false,Rx,0,8,FE,40,00,00,0E,00,C0,00,
90085227,12DD5492,true,Rx,0,8,00,00,00,00,00,FE,FE,FE,
90154968,0000053C,false,Rx,0,8,C6,68,00,00,C0,00,12,FE,
90155265,12DD5491,true,Rx,0,8,DE,08,00,FC,0F,00,00,00,
90184362,1B000044,true,Rx,0,8,44,50,04,00,00,00,01,00,
90184988,00000565,false,Rx,0,8,FE,40,00,00,0E,00,C0,00,
90185299,12DD5492,true,Rx,0,8,00,00,00,00,00,FE,FE,FE,
90185600,1A555515,true,Rx,0,8,00,00,00,00,00,00,00,00,
90254967,0000053C,false,Rx,0,8,A3,69,00,00,C0,00,12,FE,
90255264,12DD5491,true,Rx,0,8,0D,09,00,FC,0F,00,00,00,
90284950,00000565,false,Rx,0,8,FE,40,00,00,0E,00,C0,00,
90285258,12DD5492,true,Rx,0,8,00,00,00,00,00,FE,FE,FE,
90354958,0000053C,false,Rx,0,8,8F,6A,00,00,C0,00,12,FE,
90355253,12DD5491,true,Rx,0,8,9F,0A,00,FC,0F,00,00,00,
90384310,1B000044,true,Rx,0,8,44,50,04,00,00,00,01,00,
90384947,00000565,false,Rx,0,8,FE,40,00,00,0E,00,80,00,
90385196,00000488,false,Rx,0,8,00,00,80,FF,0B,00,00,00,
90385497,12DD5472,true,Rx,0,8,00,00,00,00,00,00,F8,FD,
90385798,12DD5492,true,Rx,0,8,00,00,00,00,00,FE,FE,FE,
90386098,17F00044,true,Rx,0,8,20,44,00,00,0F,0D,00,80,
90386394,1A555457,true,Rx,0,8,81,38,34,4A,20,00,00,00,
90386673,1A555490,true,Rx,0,8,AA,AA,AA,AA,AA,AA,AA,AA,
90386953,1A555491,true,Rx,0,8,AA,AA,AA,AA,AA,AA,AA,AA,
90387244,1A555499,true,Rx,0,8,AA,AA,AA,00,00,00,00,00,
90387555,1A555515,true,Rx,0,8,00,00,00,00,00,00,00,00,
90387866,1A55554D,true,Rx,0,8,00,00,00,00,00,00,00,00,
90388167,1A55554F,true,Rx,0,8,00,00,00,00,00,00,00,00,
90394974,00000564,false,Rx,0,8,52,0A,00,02,F8,17,31,00,
90395228,0000067E,false,Rx,0,8,B7,0A,00,00,5B,00,00,00,
90454958,0000053C,false,Rx,0,8,3F,6B,00,00,C0,00,12,FE,
90455253,12DD5491,true,Rx,0,8,2E,0B,00,FC,0F,00,00,00,
90484943,00000565,false,Rx,0,8,FE,40,00,00,0E,00,C0,00,
90485249,12DD5492,true,Rx,0,8,00,00,00,00,00,FE,FE,FE,
90546843,17332510,true,Rx,0,3,39,4F,00,00,00,00,00,00,
90554943,0000053C,false,Rx,0,8,83,6C,00,00,C0,00,12,FE,
90555249,12DD5491,true,Rx,0,8,98,0C,00,FC,0F,00,00,00,
90584335,1B000044,true,Rx,0,8,44,50,04,00,00,00,01,00,
90584962,00000565,false,Rx,0,8,FE,40,00,00,0E,00,C0,00,
90585272,12DD5492,true,Rx,0,8,00,00,00,00,00,FE,FE,FE,
90585575,1A555515,true,Rx,0,8,00,00,00,00,00,00,00,00,
90654901,0000053C,false,Rx,0,8,11,6D,00,00,C0,00,12,FE,
90655197,12DD5491,true,Rx,0,8,94,0D,00,FC,0F,00,00,00,
90684885,00000565,false,Rx,0,8,FE,40,00,00,0E,00,C0,00,
90685192,12DD5492,true,Rx,0,8,00,00,00,00,00,FE,FE,FE,
90754942,0000053C,false,Rx,0,8,A9,6E,00,00,C0,00,12,FE,
90755229,12DD5491,true,Rx,0,8,30,0E,00,FC,0F,00,00,00,
90784326,1B000044,true,Rx,0,8,44,50,04,00,00,00,01,00,
90784962,00000565,false,Rx,0,8,FE,40,00,00,0E,00,C0,00,
90785263,12DD5492,true,Rx,0,8,00,00,00,00,00,FE,FE,FE,
90785574,1A555515,true,Rx,0,8,00,00,00,00,00,00,00,00,
90854922,0000053C,false,Rx,0,8,5C,6F,00,00,C0,00,12,FE,
90855218,12DD5491,true,Rx,0,8,90,0F,00,FC,0F,00,00,00,
90884917,00000565,false,Rx,0,8,FE,40,00,00,0E,00,C0,00,
90885212,12DD5472,true,Rx,0,8,00,00,00,00,00,00,F8,FD,
90885524,12DD5492,true,Rx,0,8,00,00,00,00,00,FE,FE,FE,
90885825,17F00044,true,Rx,0,8,20,44,00,00,0F,0D,00,80,
90886105,1A555490,true,Rx,0,8,AA,AA,AA,AA,AA,AA,AA,AA,
90886376,1A555491,true,Rx,0,8,AA,AA,AA,AA,AA,AA,AA,AA,
90886676,1A555499,true,Rx,0,8,AA,AA,AA,00,00,00,00,00,
90954881,0000053C,false,Rx,0,8,58,60,00,00,C0,00,12,FE,
90955176,12DD5491,true,Rx,0,8,65,00,00,FC,0F,00,00,00,
90984263,1B000044,true,Rx,0,8,44,50,04,00,00,00,01,00,
90984902,00000565,false,Rx,0,8,FE,40,00,00,0E,00,C0,00,
90985201,12DD5492,true,Rx,0,8,00,00,00,00,00,FE,FE,FE,
90985504,1A555515,true,Rx,0,8,00,00,00,00,00,00,00,00,
91054911,0000053C,false,Rx,0,8,CA,61,00,00,C0,00,12,FE,
91055207,12DD5491,true,Rx,0,8,4A,01,00,FC,0F,00,00,00,
91084895,00000565,false,Rx,0,8,FE,40,00,00,0E,00,C0,00,
91085201,12DD5492,true,Rx,0,8,00,00,00,00,00,FE,FE,FE,
91154901,0000053C,false,Rx,0,8,9F,62,00,00,C0,00,12,FE,
91155198,12DD5491,true,Rx,0,8,AC,02,00,FC,0F,00,00,00,
91184293,1B000044,true,Rx,0,8,44,50,04,00,00,00,01,00,
91184931,00000565,false,Rx,0,8,FE,40,00,00,0E,00,C0,00,
91185231,12DD5492,true,Rx,0,8,00,00,00,00,00,FE,FE,FE,
91185543,1A555515,true,Rx,0,8,00,00,00,00,00,00,00,00,
91254854,0000053C,false,Rx,0,8,64,63,00,00,C0,00,12,FE,
91255151,12DD5491,true,Rx,0,8,D4,03,00,FC,0F,00,00,00,
91284849,00000565,false,Rx,0,8,FE,40,00,00,0E,00,C0,00,
91285146,12DD5492,true,Rx,0,8,00,00,00,00,00,FE,FE,FE,
91354927,0000053C,false,Rx,0,8,23,64,00,00,C0,00,12,FE,
91355223,12DD5491,true,Rx,0,8,66,04,00,FC,0F,00,00,00,
91384268,1B000044,true,Rx,0,8,44,50,04,00,00,00,01,00,
91384906,00000565,false,Rx,0,8,FE,40,00,00,0E,00,C0,00,
91385164,00000488,false,Rx,0,8,00,00,80,FF,0B,00,00,00,
91385455,12DD5472,true,Rx,0,8,00,00,00,00,00,00,F8,FD,
91385766,12DD5492,true,Rx,0,8,00,00,00,00,00,FE,FE,FE,
91386066,17F00044,true,Rx,0,8,20,44,00,00,0F,0D,00,80,
91386352,1A555457,true,Rx,0,8,82,30,30,32,32,00,00,00,
91386642,1A555490,true,Rx,0,8,AA,AA,AA,AA,AA,AA,AA,AA,
91386921,1A555491,true,Rx,0,8,AA,AA,AA,AA,AA,AA,AA,AA,
91387212,1A555499,true,Rx,0,8,AA,AA,AA,00,00,00,00,00,
91387513,1A55549D,true,Rx,0,8,00,00,00,00,00,00,00,F4,
91387823,1A555515,true,Rx,0,8,00,00,00,00,00,00,00,00,
91388124,1A55554D,true,Rx,0,8,00,00,00,00,00,00,00,00,
91388434,1A55554F,true,Rx,0,8,00,00,00,00,00,00,00,00,
91394906,00000564,false,Rx,0,8,62,0B,00,03,F8,17,31,00,
91395161,0000067E,false,Rx,0,8,D3,0B,00,00,5B,00,00,00,
91454891,0000053C,false,Rx,0,8,B4,65,00,00,C0,00,12,FE,
91455187,12DD5491,true,Rx,0,8,E6,05,00,FC,0F,00,00,00,
91484875,00000565,false,Rx,0,8,FE,40,00,00,0E,00,C0,00,
91485181,12DD5492,true,Rx,0,8,00,00,00,00,00,FE,FE,FE,
91546807,17332510,true,Rx,0,4,39,50,0F,00,00,00,00,00,
91554844,0000053C,false,Rx,0,8,D2,66,00,00,C0,00,12,FE,
91555130,12DD5491,true,Rx,0,8,B6,06,00,FC,0F,00,00,00,
91584227,1B000044,true,Rx,0,8,44,50,04,00,00,00,01,00,
91584865,00000565,false,Rx,0,8,FE,40,00,00,0E,00,C0,00,
91585164,12DD5492,true,Rx,0,8,00,00,00,00,00,FE,FE,FE,
91585477,1A555515,true,Rx,0,8,00,00,00,00,00,00,00,00,
91654875,0000053C,false,Rx,0,8,EA,67,00,00,C0,00,12,FE,
91655171,12DD5491,true,Rx,0,8,86,07,00,FC,0F,00,00,00,
91684859,00000565,false,Rx,0,8,FE,40,00,00,0E,00,00,01,
91685156,12DD5492,true,Rx,0,8,00,00,00,00,00,FE,FE,FE,
91754864,0000053C,false,Rx,0,8,C6,68,00,00,C0,00,12,FE,
91755161,12DD5491,true,Rx,0,8,DE,08,00,FC,0F,00,00,00,
91784249,1B000044,true,Rx,0,8,44,50,04,00,00,00,01,00,
91784885,00000565,false,Rx,0,8,FE,40,00,00,0E,00,C0,00,
91785186,12DD5492,true,Rx,0,8,00,00,00,00,00,FE,FE,FE,
91785497,1A555515,true,Rx,0,8,00,00,00,00,00,00,00,00,
91854813,0000053C,false,Rx,0,8,A3,69,00,00,C0,00,12,FE,
91855109,12DD5491,true,Rx,0,8,0D,09,00,FC,0F,00,00,00,
91884808,00000565,false,Rx,0,8,FE,40,00,00,0E,00,00,01,
91885114,12DD5472,true,Rx,0,8,00,00,00,00,00,00,F8,FD,
91885415,12DD5492,true,Rx,0,8,00,00,00,00,00,FE,FE,FE,
91885715,17F00044,true,Rx,0,8,20,44,00,00,0F,0D,00,80,
91885995,1A555490,true,Rx,0,8,AA,AA,AA,AA,AA,AA,AA,AA,
91886274,1A555491,true,Rx,0,8,AA,AA,AA,AA,AA,AA,AA,AA,
91886576,1A555499,true,Rx,0,8,AA,AA,AA,00,00,00,00,00,
91954854,0000053C,false,Rx,0,8,8F,6A,00,00,C0,00,12,FE,
91955150,12DD5491,true,Rx,0,8,9F,0A,00,FC,0F,00,00,00,
91984246,1B000044,true,Rx,0,8,44,50,04,00,00,00,01,00,
91984883,00000565,false,Rx,0,8,FE,40,00,00,0E,00,C0,00,
91985183,12DD5492,true,Rx,0,8,00,00,00,00,00,FE,FE,FE,
91985485,1A555515,true,Rx,0,8,00,00,00,00,00,00,00,00,
92054850,0000053C,false,Rx,0,8,3F,6B,00,00,C0,00,12,FE,
92055145,12DD5491,true,Rx,0,8,2E,0B,00,FC,0F,00,00,00,
92084833,00000565,false,Rx,0,8,FE,40,00,00,0E,00,C0,00,
92085139,12DD5492,true,Rx,0,8,00,00,00,00,00,FE,FE,FE,
92154797,0000053C,false,Rx,0,8,83,6C,00,00,C0,00,12,FE,
92155105,12DD5491,true,Rx,0,8,98,0C,00,FC,0F,00,00,00,
92184180,1B000044,true,Rx,0,8,44,50,04,00,00,00,01,00,
92184818,00000565,false,Rx,0,8,FE,40,00,00,0E,00,C0,00,
92185119,12DD5492,true,Rx,0,8,00,00,00,00,00,FE,FE,FE,
92185430,1A555515,true,Rx,0,8,00,00,00,00,00,00,00,00,
92254838,0000053C,false,Rx,0,8,11,6D,00,00,C0,00,12,FE,
92255135,12DD5491,true,Rx,0,8,94,0D,00,FC,0F,00,00,00,
92284812,00000565,false,Rx,0,8,FE,40,00,00,0E,00,C0,00,
92285120,12DD5492,true,Rx,0,8,00,00,00,00,00,FE,FE,FE,
92354871,0000053C,false,Rx,0,8,A9,6E,00,00,C0,00,12,FE,
92355166,12DD5491,true,Rx,0,8,30,0E,00,FC,0F,00,00,00,
92384211,1B000044,true,Rx,0,8,44,50,04,00,00,00,01,00,
92384859,00000565,false,Rx,0,8,FE,40,00,00,0E,00,C0,00,
92385107,00000488,false,Rx,0,8,00,00,80,FF,0B,00,00,00,
92385408,12DD5472,true,Rx,0,8,00,00,00,00,00,00,F8,FD,
92385709,12DD5492,true,Rx,0,8,00,00,00,00,00,FE,FE,FE,
92386009,17F00044,true,Rx,0,8,20,44,00,00,0F,0D,00,80,
92386315,1A555457,true,Rx,0,8,83,00,00,00,00,00,00,00,
92386595,1A555490,true,Rx,0,8,AA,AA,AA,AA,AA,AA,AA,AA,
92386875,1A555491,true,Rx,0,8,AA,AA,AA,AA,AA,AA,AA,AA,
92387176,1A555499,true,Rx,0,8,AA,AA,AA,00,00,00,00,00,
92387487,1A555515,true,Rx,0,8,00,00,00,00,00,00,00,00,
92387788,1A55554D,true,Rx,0,8,00,00,00,00,00,00,00,00,
92388098,1A55554F,true,Rx,0,8,00,00,00,00,00,00,00,00,
92394791,00000564,false,Rx,0,8,71,0C,00,03,F8,17,31,00,
92395056,0000067E,false,Rx,0,8,C0,0C,00,00,5B,00,00,00,
92454777,0000053C,false,Rx,0,8,5C,6F,00,00,C0,00,12,FE,
92455073,12DD5491,true,Rx,0,8,90,0F,00,FC,0F,00,00,00,
92484770,00000565,false,Rx,0,8,FE,40,00,00,0E,00,C0,00,
92485076,12DD5492,true,Rx,0,8,00,00,00,00,00,FE,FE,FE,
92546808,17332510,true,Rx,0,8,A0,09,39,51,01,FF,FF,FF,
92554816,0000053C,false,Rx,0,8,58,60,00,00,C0,00,12,FE,
92555112,12DD5491,true,Rx,0,8,65,00,00,FC,0F,00,00,00,
92584190,1B000044,true,Rx,0,8,44,50,04,00,00,00,01,00,
92584827,00000565,false,Rx,0,8,FE,40,00,00,0E,00,00,01,
92585127,12DD5492,true,Rx,0,8,00,00,00,00,00,FE,FE,FE,
92585439,1A555515,true,Rx,0,8,00,00,00,00,00,00,00,00,
92596824,17332510,true,Rx,0,8,A0,09,49,51,07,FF,FF,FF,
92646782,17332510,true,Rx,0,6,E0,00,00,01,00,00,00,00,
92654808,0000053C,false,Rx,0,8,CA,61,00,00,C0,00,12,FE,
92655105,12DD5491,true,Rx,0,8,4A,01,00,FC,0F,00,00,00,
92684792,00000565,false,Rx,0,8,FE,40,00,00,0E,00,C0,00,
92685099,12DD5492,true,Rx,0,8,00,00,00,00,00,FE,FE,FE,
92754755,0000053C,false,Rx,0,8,9F,62,00,00,C0,00,12,FE,
92755052,12DD5491,true,Rx,0,8,AC,02,00,FC,0F,00,00,00,
92784138,1B000044,true,Rx,0,8,44,50,04,00,00,00,01,00,
92784775,00000565,false,Rx,0,8,FE,40,00,00,0E,00,C0,00,
92785086,12DD5492,true,Rx,0,8,00,00,00,00,00,FE,FE,FE,
92785387,1A555515,true,Rx,0,8,00,00,00,00,00,00,00,00,
92854793,0000053C,false,Rx,0,8,64,63,00,00,C0,00,12,FE,
92855088,12DD5491,true,Rx,0,8,D4,03,00,FC,0F,00,00,00,
92884777,00000565,false,Rx,0,8,FE,40,00,00,0E,00,C0,00,
92885072,12DD5472,true,Rx,0,8,00,00,00,00,00,00,F8,FD,
92885384,12DD5492,true,Rx,0,8,00,00,00,00,00,FE,FE,FE,
92885685,17F00044,true,Rx,0,8,20,44,00,00,0F,0D,00,80,
92885964,1A555490,true,Rx,0,8,AA,AA,AA,AA,AA,AA,AA,AA,
92886245,1A555491,true,Rx,0,8,AA,AA,AA,AA,AA,AA,AA,AA,
92886535,1A555499,true,Rx,0,8,AA,AA,AA,00,00,00,00,00,
92954782,0000053C,false,Rx,0,8,23,64,00,00,C0,00,12,FE,
92955078,12DD5491,true,Rx,0,8,66,04,00,FC,0F,00,00,00,
92984165,1B000044,true,Rx,0,8,44,50,04,00,00,00,01,00,
92984802,00000565,false,Rx,0,8,FE,40,00,00,0E,00,C0,00,
92985112,12DD5492,true,Rx,0,8,00,00,00,00,00,FE,FE,FE,
92985415,1A555515,true,Rx,0,8,00,00,00,00,00,00,00,00,
93054740,0000053C,false,Rx,0,8,B4,65,00,00,C0,00,12,FE,
93055036,12DD5491,true,Rx,0,8,E6,05,00,FC,0F,00,00,00,
93084723,00000565,false,Rx,0,8,FE,40,00,00,0E,00,C0,00,
93085029,12DD5492,true,Rx,0,8,00,00,00,00,00,FE,FE,FE,
93154771,0000053C,false,Rx,0,8,D2,66,00,00,C0,00,12,FE,
93155068,12DD5491,true,Rx,0,8,B6,06,00,FC,0F,00,00,00,
93184164,1B000044,true,Rx,0,8,44,50,04,00,00,00,01,00,
93184802,00000565,false,Rx,0,8,FE,40,00,00,0E,00,C0,00,
93185103,12DD5492,true,Rx,0,8,00,00,00,00,00,FE,FE,FE,
93185404,1A555515,true,Rx,0,8,00,00,00,00,00,00,00,00,
93254760,0000053C,false,Rx,0,8,EA,67,00,00,C0,00,12,FE,
93255057,12DD5491,true,Rx,0,8,86,07,00,FC,0F,00,00,00,
93284754,00000565,false,Rx,0,8,FE,40,00,00,0E,00,C0,00,
93285051,12DD5492,true,Rx,0,8,00,00,00,00,00,FE,FE,FE,
93354752,0000053C,false,Rx,0,8,C6,68,00,00,C0,00,12,FE,
93355048,12DD5491,true,Rx,0,8,DE,08,00,FC,0F,00,00,00,
93384104,1B000044,true,Rx,0,8,44,50,04,00,00,00,01,00,
93384741,00000565,false,Rx,0,8,FE,40,00,00,0E,00,C0,00,
93385000,00000488,false,Rx,0,8,00,00,80,FF,0B,00,00,00,
93385300,12DD5472,true,Rx,0,8,00,00,00,00,00,00,F8,FD,
93385602,12DD5492,true,Rx,0,8,00,00,00,00,00,FE,FE,FE,
93385902,17F00044,true,Rx,0,8,20,44,00,00,0F,0D,00,80,
93386197,1A555457,true,Rx,0,8,80,35,51,45,36,00,00,00,
93386468,1A555490,true,Rx,0,8,AA,AA,AA,AA,AA,AA,AA,AA,
93386748,1A555491,true,Rx,0,8,AA,AA,AA,AA,AA,AA,AA,AA,
93387049,1A555499,true,Rx,0,8,AA,AA,AA,00,00,00,00,00,
93387349,1A55549D,true,Rx,0,8,00,00,00,00,00,00,00,F4,
93387660,1A555515,true,Rx,0,8,00,00,00,00,00,00,00,00,
93387961,1A55554D,true,Rx,0,8,00,00,00,00,00,00,00,00,
93388270,1A55554F,true,Rx,0,8,00,00,00,00,00,00,00,00,
93394775,00000564,false,Rx,0,8,15,0D,00,03,F8,17,31,00,
93395030,0000067E,false,Rx,0,8,A4,0D,00,00,5B,00,00,00,
93454751,0000053C,false,Rx,0,8,A3,69,00,00,C0,00,12,FE,
93455047,12DD5491,true,Rx,0,8,0D,09,00,FC,0F,00,00,00,
93484739,00000565,false,Rx,0,8,FE,40,00,00,0E,00,C0,00,
93485035,12DD5492,true,Rx,0,8,00,00,00,00,00,FE,FE,FE,
93546746,17332510,true,Rx,0,8,80,07,39,52,00,00,00,00,
93554744,0000053C,false,Rx,0,8,8F,6A,00,00,C0,00,12,FE,
93555029,12DD5491,true,Rx,0,8,9F,0A,00,FC,0F,00,00,00,
93584137,1B000044,true,Rx,0,8,44,50,04,00,00,00,01,00,
93584775,00000565,false,Rx,0,8,FE,40,00,00,0E,00,C0,00,
93585074,12DD5492,true,Rx,0,8,00,00,00,00,00,FE,FE,FE,
93585387,1A555515,true,Rx,0,8,00,00,00,00,00,00,00,00,
93596689,17332510,true,Rx,0,4,C0,FF,B0,00,00,00,00,00,
93654698,0000053C,false,Rx,0,8,3F,6B,00,00,C0,00,12,FE,
93654995,12DD5491,true,Rx,0,8,2E,0B,00,FC,0F,00,00,00,
93684683,00000565,false,Rx,0,8,FE,40,00,00,0E,00,C0,00,
93684991,12DD5492,true,Rx,0,8,00,00,00,00,00,FE,FE,FE,
93754730,0000053C,false,Rx,0,8,83,6C,00,00,C0,00,12,FE,
93755037,12DD5491,true,Rx,0,8,98,0C,00,FC,0F,00,00,00,
93784113,1B000044,true,Rx,0,8,44,50,04,00,00,00,01,00,
93784749,00000565,false,Rx,0,8,FE,40,00,00,0E,00,C0,00,
93785051,12DD5492,true,Rx,0,8,00,00,00,00,00,FE,FE,FE,
93785352,1A555515,true,Rx,0,8,00,00,00,00,00,00,00,00,
93854726,0000053C,false,Rx,0,8,11,6D,00,00,C0,00,12,FE,
93855021,12DD5491,true,Rx,0,8,94,0D,00,FC,0F,00,00,00,
93884710,00000565,false,Rx,0,8,FE,40,00,00,0E,00,C0,00,
93885016,12DD5472,true,Rx,0,8,00,00,00,00,00,00,F8,FD,
93885316,12DD5492,true,Rx,0,8,00,00,00,00,00,FE,FE,FE,
93885618,17F00044,true,Rx,0,8,20,44,00,00,0F,0D,00,80,
93885898,1A555490,true,Rx,0,8,AA,AA,AA,AA,AA,AA,AA,AA,
93886178,1A555491,true,Rx,0,8,AA,AA,AA,AA,AA,AA,AA,AA,
93886479,1A555499,true,Rx,0,8,AA,AA,AA,00,00,00,00,00,
93954682,0000053C,false,Rx,0,8,A9,6E,00,00,C0,00,12,FE,
93954978,12DD5491,true,Rx,0,8,30,0E,00,FC,0F,00,00,00,
93984064,1B000044,true,Rx,0,8,44,50,04,00,00,00,01,00,
93984701,00000565,false,Rx,0,8,FE,40,00,00,0E,00,C0,00,
93985001,12DD5492,true,Rx,0,8,00,00,00,00,00,FE,FE,FE,
93985313,1A555515,true,Rx,0,8,00,00,00,00,00,00,00,00,
94054709,0000053C,false,Rx,0,8,5C,6F,00,00,C0,00,12,FE,
94055005,12DD5491,true,Rx,0,8,90,0F,00,FC,0F,00,00,00,
94084693,00000565,false,Rx,0,8,FE,40,00,00,0E,00,C0,00,
94084999,12DD5492,true,Rx,0,8,00,00,00,00,00,FE,FE,FE,
94154699,0000053C,false,Rx,0,8,58,60,00,00,C0,00,12,FE,
94154996,12DD5491,true,Rx,0,8,65,00,00,FC,0F,00,00,00,
94184091,1B000044,true,Rx,0,8,44,50,04,00,00,00,01,00,
94184728,00000565,false,Rx,0,8,FE,40,00,00,0E,00,00,01,
94185029,12DD5492,true,Rx,0,8,00,00,00,00,00,FE,FE,FE,
94185339,1A555515,true,Rx,0,8,00,00,00,00,00,00,00,00,
94254652,0000053C,false,Rx,0,8,CA,61,00,00,C0,00,12,FE,
94254959,12DD5491,true,Rx,0,8,4A,01,00,FC,0F,00,00,00,
94284646,00000565,false,Rx,0,8,FE,40,00,00,0E,00,C0,00,
94284943,12DD5492,true,Rx,0,8,00,00,00,00,00,FE,FE,FE,
94354725,0000053C,false,Rx,0,8,9F,62,00,00,C0,00,12,FE,
94355021,12DD5491,true,Rx,0,8,AC,02,00,FC,0F,00,00,00,
94384077,1B000044,true,Rx,0,8,44,50,04,00,00,00,01,00,
94384725,00000565,false,Rx,0,8,FE,40,00,00,0E,00,C0,00,
94384973,00000488,false,Rx,0,8,00,00,80,FF,0B,00,00,00,
94385273,12DD5472,true,Rx,0,8,00,00,00,00,00,00,F8,FD,
94385575,12DD5492,true,Rx,0,8,00,00,00,00,00,FE,FE,FE,
94385875,17F00044,true,Rx,0,8,20,44,00,00,0F,0D,00,80,
94386170,1A555457,true,Rx,0,8,81,38,34,4A,20,00,00,00,
94386451,1A555490,true,Rx,0,8,AA,AA,AA,AA,AA,AA,AA,AA,
94386730,1A555491,true,Rx,0,8,AA,AA,AA,AA,AA,AA,AA,AA,
94387021,1A555499,true,Rx,0,8,AA,AA,AA,00,00,00,00,00,
94387331,1A555515,true,Rx,0,8,00,00,00,00,00,00,00,00,
94387633,1A55554D,true,Rx,0,8,00,00,00,00,00,00,00,00,
94387944,1A55554F,true,Rx,0,8,00,00,00,00,00,00,00,00,
94394699,00000564,false,Rx,0,8,B9,0E,00,03,F8,17,31,00,
94394964,0000067E,false,Rx,0,8,08,0E,00,00,5B,00,00,00,
94454684,0000053C,false,Rx,0,8,64,63,00,00,C0,00,12,FE,
94454980,12DD5491,true,Rx,0,8,D4,03,00,FC,0F,00,00,00,
94484677,00000565,false,Rx,0,8,FE,40,00,00,0E,00,C0,00,
94484983,12DD5492,true,Rx,0,8,00,00,00,00,00,FE,FE,FE,
94546600,17332510,true,Rx,0,4,39,5B,00,00,00,00,00,00,
94554639,0000053C,false,Rx,0,8,23,64,00,00,C0,00,12,FE,
94554924,12DD5491,true,Rx,0,8,66,04,00,FC,0F,00,00,00,
94584019,1B000044,true,Rx,0,8,44,50,04,00,00,00,01,00,
94584657,00000565,false,Rx,0,8,FE,40,00,00,0E,00,C0,00,
94584957,12DD5492,true,Rx,0,8,00,00,00,00,00,FE,FE,FE,
94585268,1A555515,true,Rx,0,8,00,00,00,00,00,00,00,00,
94654674,0000053C,false,Rx,0,8,B4,65,00,00,C0,00,12,FE,
94654971,12DD5491,true,Rx,0,8,E6,05,00,FC,0F,00,00,00,
94684647,00000565,false,Rx,0,8,FE,40,00,00,0E,00,C0,00,
94684954,12DD5492,true,Rx,0,8,00,00,00,00,00,FE,FE,FE,
94754662,0000053C,false,Rx,0,8,D2,66,00,00,C0,00,12,FE,
94754959,12DD5491,true,Rx,0,8,B6,06,00,FC,0F,00,00,00,
94784056,1B000044,true,Rx,0,8,44,50,04,00,00,00,01,00,
94784692,00000565,false,Rx,0,8,FE,40,00,00,0E,00,C0,00,
94784993,12DD5492,true,Rx,0,8,00,00,00,00,00,FE,FE,FE,
94785303,1A555515,true,Rx,0,8,00,00,00,00,00,00,00,00,
94854616,0000053C,false,Rx,0,8,EA,67,00,00,C0,00,12,FE,
94854902,12DD5491,true,Rx,0,8,86,07,00,FC,0F,00,00,00,
94884610,00000565,false,Rx,0,8,FE,40,00,00,0E,00,00,01,
94884905,12DD5472,true,Rx,0,8,00,00,00,00,00,00,F8,FD,
94885205,12DD5492,true,Rx,0,8,00,00,00,00,00,FE,FE,FE,
94885507,17F00044,true,Rx,0,8,20,44,00,00,0F,0D,00,80,
94885787,1A555490,true,Rx,0,8,AA,AA,AA,AA,AA,AA,AA,AA,
94886066,1A555491,true,Rx,0,8,AA,AA,AA,AA,AA,AA,AA,AA,
94886369,1A555499,true,Rx,0,8,AA,AA,AA,00,00,00,00,00,
94954647,0000053C,false,Rx,0,8,C6,68,00,00,C0,00,12,FE,
94954943,12DD5491,true,Rx,0,8,DE,08,00,FC,0F,00,00,00,
94984028,1B000044,true,Rx,0,8,44,50,04,00,00,00,01,00,
94984665,00000565,false,Rx,0,8,FE,40,00,00,0E,00,C0,00,
94984965,12DD5492,true,Rx,0,8,00,00,00,00,00,FE,FE,FE,
94985277,1A555515,true,Rx,0,8,00,00,00,00,00,00,00,00,
95054642,0000053C,false,Rx,0,8,A3,69,00,00,C0,00,12,FE,
95054938,12DD5491,true,Rx,0,8,0D,09,00,FC,0F,00,00,00,
95084636,00000565,false,Rx,0,8,FE,40,00,00,0E,00,C0,00,
95084931,12DD5492,true,Rx,0,8,00,00,00,00,00,FE,FE,FE,
95154590,0000053C,false,Rx,0,8,8F,6A,00,00,C0,00,12,FE,
95154887,12DD5491,true,Rx,0,8,9F,0A,00,FC,0F,00,00,00,
95183983,1B000044,true,Rx,0,8,44,50,04,00,00,00,01,00,
95184620,00000565,false,Rx,0,8,FE,40,00,00,0E,00,C0,00,
95184921,12DD5492,true,Rx,0,8,00,00,00,00,00,FE,FE,FE,
95185231,1A555515,true,Rx,0,8,00,00,00,00,00,00,00,00,
95254636,0000053C,false,Rx,0,8,3F,6B,00,00,C0,00,12,FE,
95254923,12DD5491,true,Rx,0,8,2E,0B,00,FC,0F,00,00,00,
95284609,00000565,false,Rx,0,8,FE,40,00,00,0E,00,C0,00,
95284916,12DD5492,true,Rx,0,8,00,00,00,00,00,FE,FE,FE,
95354668,0000053C,false,Rx,0,8,83,6C,00,00,C0,00,12,FE,
95354964,12DD5491,true,Rx,0,8,98,0C,00,FC,0F,00,00,00,
95384010,1B000044,true,Rx,0,8,44,50,04,00,00,00,01,00,
95384647,00000565,false,Rx,0,8,FE,40,00,00,0E,00,C0,00,
95384906,00000488,false,Rx,0,8,00,00,80,FF,0B,00,00,00,
95385205,12DD5472,true,Rx,0,8,00,00,00,00,00,00,F8,FD,
95385508,12DD5492,true,Rx,0,8,00,00,00,00,00,FE,FE,FE,
95385808,17F00044,true,Rx,0,8,20,44,00,00,0F,0D,00,80,
95386103,1A555457,true,Rx,0,8,82,30,30,32,32,00,00,00,
95386383,1A555490,true,Rx,0,8,AA,AA,AA,AA,AA,AA,AA,AA,
95386663,1A555491,true,Rx,0,8,AA,AA,AA,AA,AA,AA,AA,AA,
95386953,1A555499,true,Rx,0,8,AA,AA,AA,00,00,00,00,00,
95387263,1A55549D,true,Rx,0,8,00,00,00,00,00,00,00,F4,
95387564,1A555515,true,Rx,0,8,00,00,00,00,00,00,00,00,
95387876,1A55554D,true,Rx,0,8,00,00,00,00,00,00,00,00,
95388174,1A55554F,true,Rx,0,8,00,00,00,00,00,00,00,00,
95394597,00000564,false,Rx,0,8,DD,0F,00,03,F8,17,31,00,
95394851,0000067E,false,Rx,0,8,6C,0F,00,00,5B,00,00,00,
95454584,0000053C,false,Rx,0,8,11,6D,00,00,C0,00,12,FE,
95454879,12DD5491,true,Rx,0,8,94,0D,00,FC,0F,00,00,00,
95484568,00000565,false,Rx,0,8,FE,40,00,00,0E,00,C0,00,
95484874,12DD5492,true,Rx,0,8,00,00,00,00,00,FE,FE,FE,
95546512,17332510,true,Rx,0,3,39,5C,31,00,00,00,00,00,
95554612,0000053C,false,Rx,0,8,A9,6E,00,00,C0,00,12,FE,
95554907,12DD5491,true,Rx,0,8,30,0E,00,FC,0F,00,00,00,
95584004,1B000044,true,Rx,0,8,44,50,04,00,00,00,01,00,
95584631,00000565,false,Rx,0,8,FE,40,00,00,0E,00,C0,00,
95584941,12DD5492,true,Rx,0,8,00,00,00,00,00,FE,FE,FE,
95585243,1A555515,true,Rx,0,8,00,00,00,00,00,00,00,00,
95654600,0000053C,false,Rx,0,8,5C,6F,00,00,C0,00,12,FE,
95654897,12DD5491,true,Rx,0,8,90,0F,00,FC,0F,00,00,00,
95684594,00000565,false,Rx,0,8,FE,40,00,00,0E,00,C0,00,
95684902,12DD5492,true,Rx,0,8,00,00,00,00,00,FE,FE,FE,
95754559,0000053C,false,Rx,0,8,58,60,00,00,C0,00,12,FE,
95754856,12DD5491,true,Rx,0,8,65,00,00,FC,0F,00,00,00,
95783941,1B000044,true,Rx,0,8,44,50,04,00,00,00,01,00,
95784577,00000565,false,Rx,0,8,FE,40,00,00,0E,00,C0,00,
95784878,12DD5492,true,Rx,0,8,00,00,00,00,00,FE,FE,FE,
95785178,1A555515,true,Rx,0,8,00,00,00,00,00,00,00,00,
95854585,0000053C,false,Rx,0,8,CA,61,00,00,C0,00,12,FE,
95854892,12DD5491,true,Rx,0,8,4A,01,00,FC,0F,00,00,00,
95884580,00000565,false,Rx,0,8,FE,40,00,00,0E,00,00,01,
95884876,12DD5472,true,Rx,0,8,00,00,00,00,00,00,F8,FD,
95885186,12DD5492,true,Rx,0,8,00,00,00,00,00,FE,FE,FE,
95885479,17F00044,true,Rx,0,8,20,44,00,00,0F,0D,00,80,
95885768,1A555490,true,Rx,0,8,AA,AA,AA,AA,AA,AA,AA,AA,
95886049,1A555491,true,Rx,0,8,AA,AA,AA,AA,AA,AA,AA,AA,
95886339,1A555499,true,Rx,0,8,AA,AA,AA,00,00,00,00,00,
95954586,0000053C,false,Rx,0,8,9F,62,00,00,C0,00,12,FE,
95954882,12DD5491,true,Rx,0,8,AC,02,00,FC,0F,00,00,00,
95983968,1B000044,true,Rx,0,8,44,50,04,00,00,00,01,00,
95984605,00000565,false,Rx,0,8,FE,40,00,00,0E,00,C0,00,
95984915,12DD5492,true,Rx,0,8,00,00,00,00,00,FE,FE,FE,
95985217,1A555515,true,Rx,0,8,00,00,00,00,00,00,00,00,
96054534,0000053C,false,Rx,0,8,64,63,00,00,C0,00,12,FE,
96054829,12DD5491,true,Rx,0,8,D4,03,00,FC,0F,00,00,00,
96084528,00000565,false,Rx,0,8,FE,40,00,00,0E,00,C0,00,
96084834,12DD5492,true,Rx,0,8,00,00,00,00,00,FE,FE,FE,
96154575,0000053C,false,Rx,0,8,23,64,00,00,C0,00,12,FE,
96154861,12DD5491,true,Rx,0,8,66,04,00,FC,0F,00,00,00,
96183947,1B000044,true,Rx,0,8,44,50,04,00,00,00,01,00,
96184584,00000565,false,Rx,0,8,FE,40,00,00,0E,00,C0,00,
96184895,12DD5492,true,Rx,0,8,00,00,00,00,00,FE,FE,FE,
96185195,1A555515,true,Rx,0,8,00,00,00,00,00,00,00,00,
96254564,0000053C,false,Rx,0,8,B4,65,00,00,C0,00,12,FE,
96254860,12DD5491,true,Rx,0,8,E6,05,00,FC,0F,00,00,00,
96284557,00000565,false,Rx,0,8,FE,40,00,00,0E,00,C0,00,
96284854,12DD5492,true,Rx,0,8,00,00,00,00,00,FE,FE,FE,
96354555,0000053C,false,Rx,0,8,D2,66,00,00,C0,00,12,FE,
96354850,12DD5491,true,Rx,0,8,B6,06,00,FC,0F,00,00,00,
96383906,1B000044,true,Rx,0,8,44,50,04,00,00,00,01,00,
96384543,00000565,false,Rx,0,8,FE,40,00,00,0E,00,C0,00,
96384802,00000488,false,Rx,0,8,00,00,80,FF,0B,00,00,00,
96385101,12DD5472,true,Rx,0,8,00,00,00,00,00,00,F8,FD,
96385404,12DD5492,true,Rx,0,8,00,00,00,00,00,FE,FE,FE,
96385704,17F00044,true,Rx,0,8,20,44,00,00,0F,0D,00,80,
96386009,1A555457,true,Rx,0,8,83,00,00,00,00,00,00,00,
96386288,1A555490,true,Rx,0,8,AA,AA,AA,AA,AA,AA,AA,AA,
96386559,1A555491,true,Rx,0,8,AA,AA,AA,AA,AA,AA,AA,AA,
96386860,1A555499,true,Rx,0,8,AA,AA,AA,00,00,00,00,00,
96387160,1A555515,true,Rx,0,8,00,00,00,00,00,00,00,00,
96387471,1A55554D,true,Rx,0,8,00,00,00,00,00,00,00,00,
96387772,1A55554F,true,Rx,0,8,00,00,00,00,00,00,00,00,
96394579,00000564,false,Rx,0,8,9F,00,00,03,F8,17,31,00,
96394844,0000067E,false,Rx,0,8,2E,00,00,00,5B,00,00,00,
96454554,0000053C,false,Rx,0,8,EA,67,00,00,C0,00,12,FE,
96454850,12DD5491,true,Rx,0,8,86,07,00,FC,0F,00,00,00,
96484528,00000565,false,Rx,0,8,FE,40,00,00,0E,00,C0,00,
96484834,12DD5492,true,Rx,0,8,00,00,00,00,00,FE,FE,FE,
96546513,17332510,true,Rx,0,4,39,66,01,01,00,00,00,00,
96554542,0000053C,false,Rx,0,8,C6,68,00,00,C0,00,12,FE,
96554837,12DD5491,true,Rx,0,8,DE,08,00,FC,0F,00,00,00,
96583926,1B000044,true,Rx,0,8,44,50,04,00,00,00,01,00,
96584563,00000565,false,Rx,0,8,FE,40,00,00,0E,00,C0,00,
96584863,12DD5492,true,Rx,0,8,00,00,00,00,00,FE,FE,FE,
96585174,1A555515,true,Rx,0,8,00,00,00,00,00,00,00,00,
96654497,0000053C,false,Rx,0,8,A3,69,00,00,C0,00,12,FE,
96654794,12DD5491,true,Rx,0,8,0D,09,00,FC,0F,00,00,00,
96684481,00000565,false,Rx,0,8,FE,40,00,00,0E,00,C0,00,
96684788,12DD5492,true,Rx,0,8,00,00,00,00,00,FE,FE,FE,
96754528,0000053C,false,Rx,0,8,8F,6A,00,00,C0,00,12,FE,
96754825,12DD5491,true,Rx,0,8,9F,0A,00,FC,0F,00,00,00,
96783922,1B000044,true,Rx,0,8,44,50,04,00,00,00,01,00,
96784558,00000565,false,Rx,0,8,FE,40,00,00,0E,00,C0,00,
96784859,12DD5492,true,Rx,0,8,00,00,00,00,00,FE,FE,FE,
96785169,1A555515,true,Rx,0,8,00,00,00,00,00,00,00,00,
96854523,0000053C,false,Rx,0,8,3F,6B,00,00,C0,00,12,FE,
96854819,12DD5491,true,Rx,0,8,2E,0B,00,FC,0F,00,00,00,
96884506,00000565,false,Rx,0,8,FE,40,00,00,0E,00,C0,00,
96884812,12DD5472,true,Rx,0,8,00,00,00,00,00,00,F8,FD,
96885112,12DD5492,true,Rx,0,8,00,00,00,00,00,FE,FE,FE,
96885414,17F00044,true,Rx,0,8,20,44,00,00,0F,0D,00,80,
96885694,1A555490,true,Rx,0,8,AA,AA,AA,AA,AA,AA,AA,AA,
96885974,1A555491,true,Rx,0,8,AA,AA,AA,AA,AA,AA,AA,AA,
96886274,1A555499,true,Rx,0,8,AA,AA,AA,00,00,00,00,00,
96954471,0000053C,false,Rx,0,8,83,6C,00,00,C0,00,12,FE,
96954777,12DD5491,true,Rx,0,8,98,0C,00,FC,0F,00,00,00,
96983863,1B000044,true,Rx,0,8,44,50,04,00,00,00,01,00,
96984490,00000565,false,Rx,0,8,FE,40,00,00,0E,00,00,01,
96984800,12DD5492,true,Rx,0,8,00,00,00,00,00,FE,FE,FE,
96985101,1A555515,true,Rx,0,8,00,00,00,00,00,00,00,00,
97054507,0000053C,false,Rx,0,8,11,6D,00,00,C0,00,12,FE,
97054813,12DD5491,true,Rx,0,8,94,0D,00,FC,0F,00,00,00,
97084491,00000565,false,Rx,0,8,FE,40,00,00,0E,00,C0,00,
97084797,12DD5492,true,Rx,0,8,00,00,00,00,00,FE,FE,FE,
97154507,0000053C,false,Rx,0,8,A9,6E,00,00,C0,00,12,FE,
97154794,12DD5491,true,Rx,0,8,30,0E,00,FC,0F,00,00,00,
97183889,1B000044,true,Rx,0,8,44,50,04,00,00,00,01,00,
97184527,00000565,false,Rx,0,8,FE,40,00,00,0E,00,C0,00,
97184828,12DD5492,true,Rx,0,8,00,00,00,00,00,FE,FE,FE,
97185138,1A555515,true,Rx,0,8,00,00,00,00,00,00,00,00,
97254451,0000053C,false,Rx,0,8,5C,6F,00,00,C0,00,12,FE,
97254748,12DD5491,true,Rx,0,8,90,0F,00,FC,0F,00,00,00,
97284445,00000565,false,Rx,0,8,FE,40,00,00,0E,00,C0,00,
97284752,12DD5492,true,Rx,0,8,00,00,00,00,00,FE,FE,FE,
97354523,0000053C,false,Rx,0,8,58,60,00,00,C0,00,12,FE,
97354819,12DD5491,true,Rx,0,8,65,00,00,FC,0F,00,00,00,
97383873,1B000044,true,Rx,0,8,44,50,04,00,00,00,01,00,
97384511,00000565,false,Rx,0,8,FE,40,00,00,0E,00,C0,00,
97384769,00000488,false,Rx,0,8,00,00,80,FF,0B,00,00,00,
97385069,12DD5472,true,Rx,0,8,00,00,00,00,00,00,F8,FD,
97385371,12DD5492,true,Rx,0,8,00,00,00,00,00,FE,FE,FE,
97385671,17F00044,true,Rx,0,8,20,44,00,00,0F,0D,00,80,
97385956,1A555457,true,Rx,0,8,80,35,51,45,36,00,00,00,
97386246,1A555490,true,Rx,0,8,AA,AA,AA,AA,AA,AA,AA,AA,
97386516,1A555491,true,Rx,0,8,AA,AA,AA,AA,AA,AA,AA,AA,
97386817,1A555499,true,Rx,0,8,AA,AA,AA,00,00,00,00,00,
97387117,1A55549D,true,Rx,0,8,00,00,00,00,00,00,00,F4,
97387428,1A555515,true,Rx,0,8,00,00,00,00,00,00,00,00,
97387729,1A55554D,true,Rx,0,8,00,00,00,00,00,00,00,00,
97388038,1A55554F,true,Rx,0,8,00,00,00,00,00,00,00,00,
97394502,00000564,false,Rx,0,8,FB,01,00,03,F8,17,31,00,
97394756,0000067E,false,Rx,0,8,4A,01,00,00,5B,00,00,00,
97454487,0000053C,false,Rx,0,8,CA,61,00,00,C0,00,12,FE,
97454783,12DD5491,true,Rx,0,8,4A,01,00,FC,0F,00,00,00,
97484470,00000565,false,Rx,0,8,FE,40,00,00,0E,00,C0,00,
97484776,12DD5492,true,Rx,0,8,00,00,00,00,00,FE,FE,FE,
97546487,17332510,true,Rx,0,8,39,69,FE,FE,FE,FE,FE,FE,
97554433,0000053C,false,Rx,0,8,9F,62,00,00,C0,00,12,FE,
97554729,12DD5491,true,Rx,0,8,AC,02,00,FC,0F,00,00,00,
97583827,1B000044,true,Rx,0,8,44,50,04,00,00,00,01,00,
97584465,00000565,false,Rx,0,8,FE,40,00,00,0E,00,C0,00,
97584764,12DD5492,true,Rx,0,8,00,00,00,00,00,FE,FE,FE,
97585076,1A555515,true,Rx,0,8,00,00,00,00,00,00,00,00,
97654471,0000053C,false,Rx,0,8,64,63,00,00,C0,00,12,FE,
97654768,12DD5491,true,Rx,0,8,D4,03,00,FC,0F,00,00,00,
97684454,00000565,false,Rx,0,8,FE,40,00,00,0E,00,C0,00,
97684761,12DD5492,true,Rx,0,8,00,00,00,00,00,FE,FE,FE,
97754460,0000053C,false,Rx,0,8,23,64,00,00,C0,00,12,FE,
97754758,12DD5491,true,Rx,0,8,66,04,00,FC,0F,00,00,00,
97783855,1B000044,true,Rx,0,8,44,50,04,00,00,00,01,00,
97784491,00000565,false,Rx,0,8,FE,40,00,00,0E,00,C0,00,
97784792,12DD5492,true,Rx,0,8,00,00,00,00,00,FE,FE,FE,
97785102,1A555515,true,Rx,0,8,00,00,00,00,00,00,00,00,
97854420,0000053C,false,Rx,0,8,B4,65,00,00,C0,00,12,FE,
97854716,12DD5491,true,Rx,0,8,E6,05,00,FC,0F,00,00,00,
97884405,00000565,false,Rx,0,8,FE,40,00,00,0E,00,00,01,
97884701,12DD5472,true,Rx,0,8,00,00,00,00,00,00,F8,FD,
97885011,12DD5492,true,Rx,0,8,00,00,00,00,00,FE,FE,FE,
97885312,17F00044,true,Rx,0,8,20,44,00,00,0F,0D,00,80,
97885592,1A555490,true,Rx,0,8,AA,AA,AA,AA,AA,AA,AA,AA,
97885872,1A555491,true,Rx,0,8,AA,AA,AA,AA,AA,AA,AA,AA,
97886162,1A555499,true,Rx,0,8,AA,AA,AA,00,00,00,00,00,
97954451,0000053C,false,Rx,0,8,D2,66,00,00,C0,00,12,FE,
97954736,12DD5491,true,Rx,0,8,B6,06,00,FC,0F,00,00,00,
97983842,1B000044,true,Rx,0,8,44,50,04,00,00,00,01,00,
97984480,00000565,false,Rx,0,8,FE,40,00,00,0E,00,C0,00,
97984779,12DD5492,true,Rx,0,8,00,00,00,00,00,FE,FE,FE,
97985091,1A555515,true,Rx,0,8,00,00,00,00,00,00,00,00,
98054445,0000053C,false,Rx,0,8,EA,67,00,00,C0,00,12,FE,
98054731,12DD5491,true,Rx,0,8,86,07,00,FC,0F,00,00,00,
98084428,00000565,false,Rx,0,8,FE,40,00,00,0E,00,00,01,
98084734,12DD5492,true,Rx,0,8,00,00,00,00,00,FE,FE,FE,
98154392,0000053C,false,Rx,0,8,C6,68,00,00,C0,00,12,FE,
98154688,12DD5491,true,Rx,0,8,DE,08,00,FC,0F,00,00,00,
98183785,1B000044,true,Rx,0,8,44,50,04,00,00,00,01,00,
98184422,00000565,false,Rx,0,8,FE,40,00,00,0E,00,C0,00,
98184723,12DD5492,true,Rx,0,8,00,00,00,00,00,FE,FE,FE,
98185023,1A555515,true,Rx,0,8,00,00,00,00,00,00,00,00,
98254429,0000053C,false,Rx,0,8,A3,69,00,00,C0,00,12,FE,
98254726,12DD5491,true,Rx,0,8,0D,09,00,FC,0F,00,00,00,
98284414,00000565,false,Rx,0,8,FE,40,00,00,0E,00,C0,00,
98284711,12DD5492,true,Rx,0,8,00,00,00,00,00,FE,FE,FE,
98354461,0000053C,false,Rx,0,8,8F,6A,00,00,C0,00,12,FE,
98354747,12DD5491,true,Rx,0,8,9F,0A,00,FC,0F,00,00,00,
98383813,1B000044,true,Rx,0,8,44,50,04,00,00,00,01,00,
98384450,00000565,false,Rx,0,8,FE,40,00,00,0E,00,C0,00,
98384709,00000488,false,Rx,0,8,00,00,80,FF,0B,00,00,00,
98385008,12DD5472,true,Rx,0,8,00,00,00,00,00,00,F8,FD,
98385310,12DD5492,true,Rx,0,8,00,00,00,00,00,FE,FE,FE,
98385611,17F00044,true,Rx,0,8,20,44,00,00,0F,0D,00,80,
98385896,1A555457,true,Rx,0,8,81,38,34,4A,20,00,00,00,
98386185,1A555490,true,Rx,0,8,AA,AA,AA,AA,AA,AA,AA,AA,
98386466,1A555491,true,Rx,0,8,AA,AA,AA,AA,AA,AA,AA,AA,
98386757,1A555499,true,Rx,0,8,AA,AA,AA,00,00,00,00,00,
98387067,1A555515,true,Rx,0,8,00,00,00,00,00,00,00,00,
98387368,1A55554D,true,Rx,0,8,00,00,00,00,00,00,00,00,
98387679,1A55554F,true,Rx,0,8,00,00,00,00,00,00,00,00,
98394393,00000564,false,Rx,0,8,57,02,00,03,F8,17,31,00,
98394647,0000067E,false,Rx,0,8,E6,02,00,00,5B,00,00,00,
98454377,0000053C,false,Rx,0,8,3F,6B,00,00,C0,00,12,FE,
98454673,12DD5491,true,Rx,0,8,2E,0B,00,FC,0F,00,00,00,
98484361,00000565,false,Rx,0,8,FE,40,00,00,0E,00,C0,00,
98484667,12DD5492,true,Rx,0,8,00,00,00,00,00,FE,FE,FE,
98546367,17332510,true,Rx,0,5,39,6A,01,00,00,00,00,00,
98554407,0000053C,false,Rx,0,8,83,6C,00,00,C0,00,12,FE,
98554713,12DD5491,true,Rx,0,8,98,0C,00,FC,0F,00,00,00,
98583792,1B000044,true,Rx,0,8,44,50,04,00,00,00,01,00,
98584429,00000565,false,Rx,0,8,FE,40,00,00,0E,00,C0,00,
98584729,12DD5492,true,Rx,0,8,00,00,00,00,00,FE,FE,FE,
98585040,1A555515,true,Rx,0,8,00,00,00,00,00,00,00,00,
98654399,0000053C,false,Rx,0,8,11,6D,00,00,C0,00,12,FE,
98654696,12DD5491,true,Rx,0,8,94,0D,00,FC,0F,00,00,00,
98684393,00000565,false,Rx,0,8,FE,40,00,00,0E,00,C0,00,
98684690,12DD5492,true,Rx,0,8,00,00,00,00,00,FE,FE,FE,
98754357,0000053C,false,Rx,0,8,A9,6E,00,00,C0,00,12,FE,
98754654,12DD5491,true,Rx,0,8,30,0E,00,FC,0F,00,00,00,
98783741,1B000044,true,Rx,0,8,44,50,04,00,00,00,01,00,
98784387,00000565,false,Rx,0,8,FE,40,00,00,0E,00,C0,00,
98784688,12DD5492,true,Rx,0,8,00,00,00,00,00,FE,FE,FE,
98784988,1A555515,true,Rx,0,8,00,00,00,00,00,00,00,00,
98854389,0000053C,false,Rx,0,8,5C,6F,00,00,C0,00,12,FE,
98854674,12DD5491,true,Rx,0,8,90,0F,00,FC,0F,00,00,00,
98884373,00000565,false,Rx,0,8,FE,40,00,00,0E,00,C0,00,
98884679,12DD5472,true,Rx,0,8,00,00,00,00,00,00,F8,FD,
98884979,12DD5492,true,Rx,0,8,00,00,00,00,00,FE,FE,FE,
98885280,17F00044,true,Rx,0,8,20,44,00,00,0F,0D,00,80,
98885561,1A555490,true,Rx,0,8,AA,AA,AA,AA,AA,AA,AA,AA,
98885841,1A555491,true,Rx,0,8,AA,AA,AA,AA,AA,AA,AA,AA,
98886131,1A555499,true,Rx,0,8,AA,AA,AA,00,00,00,00,00,
98954378,0000053C,false,Rx,0,8,58,60,00,00,C0,00,12,FE,
98954674,12DD5491,true,Rx,0,8,65,00,00,FC,0F,00,00,00,
98983771,1B000044,true,Rx,0,8,44,50,04,00,00,00,01,00,
98984398,00000565,false,Rx,0,8,FE,40,00,00,0E,00,C0,00,
98984708,12DD5492,true,Rx,0,8,00,00,00,00,00,FE,FE,FE,
98985009,1A555515,true,Rx,0,8,00,00,00,00,00,00,00,00,
99054341,0000053C,false,Rx,0,8,CA,61,00,00,C0,00,12,FE,
99054627,12DD5491,true,Rx,0,8,4A,01,00,FC,0F,00,00,00,
99084325,00000565,false,Rx,0,8,FE,40,00,00,0E,00,C0,00,
99084632,12DD5492,true,Rx,0,8,00,00,00,00,00,FE,FE,FE,
99154362,0000053C,false,Rx,0,8,9F,62,00,00,C0,00,12,FE,
99154659,12DD5491,true,Rx,0,8,AC,02,00,FC,0F,00,00,00,
99183755,1B000044,true,Rx,0,8,44,50,04,00,00,00,01,00,
99184392,00000565,false,Rx,0,8,FE,40,00,00,0E,00,C0,00,
99184693,12DD5492,true,Rx,0,8,00,00,00,00,00,FE,FE,FE,
99185003,1A555515,true,Rx,0,8,00,00,00,00,00,00,00,00,
99254357,0000053C,false,Rx,0,8,64,63,00,00,C0,00,12,FE,
99254654,12DD5491,true,Rx,0,8,D4,03,00,FC,0F,00,00,00,
99284349,00000565,false,Rx,0,8,FE,40,00,00,0E,00,C0,00,
99284647,12DD5492,true,Rx,0,8,00,00,00,00,00,FE,FE,FE,
99354358,0000053C,false,Rx,0,8,23,64,00,00,C0,00,12,FE,
99354643,12DD5491,true,Rx,0,8,66,04,00,FC,0F,00,00,00,
99383697,1B000044,true,Rx,0,8,44,50,04,00,00,00,01,00,
99384333,00000565,false,Rx,0,8,FE,40,00,00,0E,00,C0,00,
99384593,00000488,false,Rx,0,8,00,00,80,FF,0B,00,00,00,
99384893,12DD5472,true,Rx,0,8,00,00,00,00,00,00,F8,FD,
99385194,12DD5492,true,Rx,0,8,00,00,00,00,00,FE,FE,FE,
99385495,17F00044,true,Rx,0,8,20,44,00,00,0F,0D,00,80,
99385789,1A555457,true,Rx,0,8,82,30,30,32,32,00,00,00,
99386070,1A555490,true,Rx,0,8,AA,AA,AA,AA,AA,AA,AA,AA,
99386351,1A555491,true,Rx,0,8,AA,AA,AA,AA,AA,AA,AA,AA,
99386642,1A555499,true,Rx,0,8,AA,AA,AA,00,00,00,00,00,
99386952,1A55549D,true,Rx,0,8,00,00,00,00,00,00,00,F4,
99387252,1A555515,true,Rx,0,8,00,00,00,00,00,00,00,00,
