Time Stamp,ID,Extended,Dir,Bus,LEN,D1,D2,D3,D4,D5,D6,D7,D8
4395033,00000097,false,Rx,0,8,2D,C4,7F,CF,05,03,00,00,
4395269,00000124,false,Rx,0,8,AA,09,98,4F,4A,15,00,5D,
4405028,00000097,false,Rx,0,8,B9,C5,7F,CF,05,03,00,00,
4415035,00000097,false,Rx,0,8,0F,C6,7F,CF,05,03,00,00,
4415270,00000124,false,Rx,0,8,D8,0A,98,4F,4A,15,00,5D,
4425030,00000097,false,Rx,0,8,85,C7,7F,CF,05,03,00,00,
4435038,00000097,false,Rx,0,8,67,C8,7F,CF,05,03,00,00,
4435274,00000124,false,Rx,0,8,F3,0B,98,4F,4A,15,00,5D,
4445033,00000097,false,Rx,0,8,5A,C9,7F,CF,05,03,00,00,
4455040,00000097,false,Rx,0,8,82,CA,7F,CF,05,03,00,00,
4455276,00000124,false,Rx,0,8,DD,0C,98,4F,4A,15,00,5D,
4465034,00000097,false,Rx,0,8,9D,CB,7F,CF,05,03,00,00,
4465279,00000187,false,Rx,0,8,5C,04,12,00,00,00,30,00,
4465528,000003A6,false,Rx,0,8,50,05,10,00,00,01,00,00,
4465757,000003AF,false,Rx,0,8,72,65,09,21,D8,B1,00,00,
4466005,00000489,false,Rx,0,8,F8,05,00,F4,25,CE,2F,00,
4475028,00000097,false,Rx,0,8,ED,CC,7F,CF,05,03,00,00,
4475274,00000124,false,Rx,0,8,6C,0D,98,4F,4A,15,00,5D,
4485033,00000097,false,Rx,0,8,34,CD,7F,CF,05,03,00,00,
4495030,00000097,false,Rx,0,8,A2,CE,7F,CF,05,03,00,00,
4495265,00000124,false,Rx,0,8,AC,0E,98,4F,4A,15,00,5D,
4505034,00000097,false,Rx,0,8,E0,CF,7F,CF,05,03,00,00,
4515030,00000097,false,Rx,0,8,68,C0,7F,CF,05,03,00,00,
4515277,00000124,false,Rx,0,8,41,0F,98,4F,4A,15,00,5D,
4525035,00000097,false,Rx,0,8,CE,C1,7F,CF,05,03,00,00,
4535031,00000097,false,Rx,0,8,09,C2,7F,CF,05,03,00,00,
4535267,00000124,false,Rx,0,8,CE,00,98,4F,4A,15,00,5D,
4545035,00000097,false,Rx,0,8,13,C3,7F,CF,05,03,00,00,
4555032,00000097,false,Rx,0,8,2D,C4,7F,CF,05,03,00,00,
4555268,00000124,false,Rx,0,8,D4,01,98,4F,4A,15,00,5D,
4565035,00000097,false,Rx,0,8,B9,C5,7F,CF,05,03,00,00,
4565281,00000187,false,Rx,0,8,B8,05,12,00,00,00,30,00,
4565531,000003A6,false,Rx,0,8,D2,06,10,00,00,01,00,00,
4565769,000003AF,false,Rx,0,8,EA,66,09,21,D8,B1,00,00,
4566007,00000489,false,Rx,0,8,C5,06,00,F4,25,CE,2F,00,
4566248,000006A3,false,Rx,0,8,23,ED,15,3E,6C,66,03,00,
4566496,000006A4,false,Rx,0,8,3C,0D,42,3F,43,03,00,00,
4575038,00000097,false,Rx,0,8,0F,C6,7F,CF,05,03,00,00,
4575274,00000124,false,Rx,0,8,97,02,98,4F,4A,15,00,5D,
4585033,00000097,false,Rx,0,8,85,C7,7F,CF,05,03,00,00,
4595040,00000097,false,Rx,0,8,67,C8,7F,CF,05,03,00,00,
4595275,00000124,false,Rx,0,8,DE,03,98,4F,4A,15,00,5D,
4605033,00000097,false,Rx,0,8,5A,C9,7F,CF,05,03,00,00,
4615040,00000097,false,Rx,0,8,82,CA,7F,CF,05,03,00,00,
4615276,00000124,false,Rx,0,8,61,04,98,4F,4A,15,00,5D,
4625034,00000097,false,Rx,0,8,9D,CB,7F,CF,05,03,00,00,
4635030,00000097,false,Rx,0,8,ED,CC,7F,CF,05,03,00,00,
4635265,00000124,false,Rx,0,8,9C,05,98,4F,4A,15,00,5D,
4645033,00000097,false,Rx,0,8,34,CD,7F,CF,05,03,00,00,
4655029,00000097,false,Rx,0,8,A2,CE,7F,CF,05,03,00,00,
4655275,00000124,false,Rx,0,8,1F,06,98,4F,4A,15,00,5D,
4665033,00000097,false,Rx,0,8,E0,CF,7F,CF,05,03,00,00,
4665280,00000187,false,Rx,0,8,1E,06,12,00,00,00,30,00,
4665529,000003A6,false,Rx,0,8,3A,07,10,00,00,01,00,00,
4665767,000003AF,false,Rx,0,8,86,67,09,21,D8,B1,00,00,
4666005,00000489,false,Rx,0,8,92,07,00,F4,25,CE,2F,00,
4675038,00000097,false,Rx,0,8,68,C0,7F,CF,05,03,00,00,
4675275,00000124,false,Rx,0,8,63,07,98,4F,4A,15,00,5D,
4685034,00000097,false,Rx,0,8,CE,C1,7F,CF,05,03,00,00,
4695030,00000097,false,Rx,0,8,09,C2,7F,CF,05,03,00,00,
4695277,00000124,false,Rx,0,8,58,08,98,4F,4A,15,00,5D,
4705034,00000097,false,Rx,0,8,13,C3,7F,CF,05,03,00,00,
4715032,00000097,false,Rx,0,8,2D,C4,7F,CF,05,03,00,00,
4715269,00000124,false,Rx,0,8,AA,09,98,4F,4A,15,00,5D,
4725036,00000097,false,Rx,0,8,B9,C5,7F,CF,05,03,00,00,
4735033,00000097,false,Rx,0,8,0F,C6,7F,CF,05,03,00,00,
4735269,00000124,false,Rx,0,8,D8,0A,98,4F,4A,15,00,5D,
4745027,00000097,false,Rx,0,8,85,C7,7F,CF,05,03,00,00,
4755034,00000097,false,Rx,0,8,67,C8,7F,CF,05,03,00,00,
4755281,00000124,false,Rx,0,8,F3,0B,98,4F,4A,15,00,5D,
4765038,00000097,false,Rx,0,8,5A,C9,7F,CF,05,03,00,00,
4765285,00000187,false,Rx,0,8,7C,07,12,00,00,00,30,00,
4765533,000003A6,false,Rx,0,8,95,08,10,00,00,01,00,00,
4765771,000003AF,false,Rx,0,8,59,68,09,21,D8,B1,00,00,
4766011,00000489,false,Rx,0,8,B0,08,00,F4,25,CE,2F,00,
4775033,00000097,false,Rx,0,8,82,CA,7F,CF,05,03,00,00,
4775280,00000124,false,Rx,0,8,DD,0C,98,4F,4A,15,00,5D,
4785027,00000097,false,Rx,0,8,9D,CB,7F,CF,05,03,00,00,
4795034,00000097,false,Rx,0,8,ED,CC,7F,CF,05,03,00,00,
4795271,00000124,false,Rx,0,8,6C,0D,98,4F,4A,15,00,5D,
4805038,00000097,false,Rx,0,8,34,CD,7F,CF,05,03,00,00,
4815035,00000097,false,Rx,0,8,A2,CE,7F,CF,05,03,00,00,
4815272,00000124,false,Rx,0,8,AC,0E,98,4F,4A,15,00,5D,
4825030,00000097,false,Rx,0,8,E0,CF,7F,CF,05,03,00,00,
4835036,00000097,false,Rx,0,8,68,C0,7F,CF,05,03,00,00,
4835281,00000124,false,Rx,0,8,41,0F,98,4F,4A,15,00,5D,
4845039,00000097,false,Rx,0,8,CE,C1,7F,CF,05,03,00,00,
4855035,00000097,false,Rx,0,8,09,C2,7F,CF,05,03,00,00,
4855270,00000124,false,Rx,0,8,CE,00,98,4F,4A,15,00,5D,
4865028,00000097,false,Rx,0,8,13,C3,7F,CF,05,03,00,00,
4865274,00000187,false,Rx,0,8,4D,08,12,00,00,00,30,00,
4865533,000003A6,false,Rx,0,8,F8,09,10,00,00,01,00,00,
4865772,000003AF,false,Rx,0,8,33,69,09,21,D8,B1,00,00,
4866010,00000489,false,Rx,0,8,2A,09,00,F4,25,CE,2F,00,
4875033,00000097,false,Rx,0,8,2D,C4,7F,CF,05,03,00,00,
4875279,00000124,false,Rx,0,8,D4,01,98,4F,4A,15,00,5D,
4885038,00000097,false,Rx,0,8,B9,C5,7F,CF,05,03,00,00,
4895035,00000097,false,Rx,0,8,0F,C6,7F,CF,05,03,00,00,
4895270,00000124,false,Rx,0,8,97,02,98,4F,4A,15,00,5D,
4905029,00000097,false,Rx,0,8,85,C7,7F,CF,05,03,00,00,
4915035,00000097,false,Rx,0,8,67,C8,7F,CF,05,03,00,00,
4915281,00000124,false,Rx,0,8,DE,03,98,4F,4A,15,00,5D,
4925039,00000097,false,Rx,0,8,5A,C9,7F,CF,05,03,00,00,
4935035,00000097,false,Rx,0,8,82,CA,7F,CF,05,03,00,00,
4935271,00000124,false,Rx,0,8,61,04,98,4F,4A,15,00,5D,
4945028,00000097,false,Rx,0,8,9D,CB,7F,CF,05,03,00,00,
4955037,00000097,false,Rx,0,8,ED,CC,7F,CF,05,03,00,00,
4955272,00000124,false,Rx,0,8,9C,05,98,4F,4A,15,00,5D,
4965040,00000097,false,Rx,0,8,34,CD,7F,CF,05,03,00,00,
4965277,00000187,false,Rx,0,8,D7,09,12,00,00,00,30,00,
4965535,000003A6,false,Rx,0,8,18,0A,10,00,00,01,00,00,
4965775,000003AF,false,Rx,0,8,06,6A,09,21,D8,B1,00,00,
4966013,00000489,false,Rx,0,8,93,0A,00,F4,25,CE,2F,00,
4975036,00000097,false,Rx,0,8,A2,CE,7F,CF,05,03,00,00,
4975272,00000124,false,Rx,0,8,1F,06,98,4F,4A,15,00,5D,
4985030,00000097,false,Rx,0,8,E0,CF,7F,CF,05,03,00,00,
4995038,00000097,false,Rx,0,8,68,C0,7F,CF,05,03,00,00,
4995273,00000124,false,Rx,0,8,63,07,98,4F,4A,15,00,5D,
5005041,00000097,false,Rx,0,8,CE,C1,7F,CF,05,03,00,00,
5015038,00000097,false,Rx,0,8,09,C2,7F,CF,05,03,00,00,
5015273,00000124,false,Rx,0,8,58,08,98,4F,4A,15,00,5D,
5025031,00000097,false,Rx,0,8,13,C3,7F,CF,05,03,00,00,
5035038,00000097,false,Rx,0,8,2D,C4,7F,CF,05,03,00,00,
5035273,00000124,false,Rx,0,8,AA,09,98,4F,4A,15,00,5D,
5045033,00000097,false,Rx,0,8,B9,C5,7F,CF,05,03,00,00,
5055040,00000097,false,Rx,0,8,0F,C6,7F,CF,05,03,00,00,
5055275,00000124,false,Rx,0,8,D8,0A,98,4F,4A,15,00,5D,
5065033,00000097,false,Rx,0,8,85,C7,7F,CF,05,03,00,00,
5065279,00000187,false,Rx,0,8,27,0A,12,00,00,00,30,00,
5065528,000003A6,false,Rx,0,8,74,0B,10,00,00,01,00,00,
5065767,000003AF,false,Rx,0,8,3A,6B,09,21,D8,B1,00,00,
5066005,00000489,false,Rx,0,8,78,0B,00,F4,25,CE,2F,00,
5066244,000006A3,false,Rx,0,8,79,EE,15,3E,6C,66,03,00,
5066484,000006A4,false,Rx,0,8,95,0E,42,3F,43,03,00,00,
5075038,00000097,false,Rx,0,8,67,C8,7F,CF,05,03,00,00,
5075273,00000124,false,Rx,0,8,F3,0B,98,4F,4A,15,00,5D,
5085033,00000097,false,Rx,0,8,5A,C9,7F,CF,05,03,00,00,
5095040,00000097,false,Rx,0,8,82,CA,7F,CF,05,03,00,00,
5095276,00000124,false,Rx,0,8,DD,0C,98,4F,4A,15,00,5D,
5105034,00000097,false,Rx,0,8,9D,CB,7F,CF,05,03,00,00,
5115030,00000097,false,Rx,0,8,ED,CC,7F,CF,05,03,00,00,
5115277,00000124,false,Rx,0,8,6C,0D,98,4F,4A,15,00,5D,
5125035,00000097,false,Rx,0,8,34,CD,7F,CF,05,03,00,00,
5135033,00000097,false,Rx,0,8,A2,CE,7F,CF,05,03,00,00,
5135268,00000124,false,Rx,0,8,AC,0E,98,4F,4A,15,00,5D,
5145028,00000097,false,Rx,0,8,E0,CF,7F,CF,05,03,00,00,
5155035,00000097,false,Rx,0,8,68,C0,7F,CF,05,03,00,00,
5155281,00000124,false,Rx,0,8,41,0F,98,4F,4A,15,00,5D,
5165038,00000097,false,Rx,0,8,CE,C1,7F,CF,05,03,00,00,
5165285,00000187,false,Rx,0,8,F3,0B,12,00,00,00,30,00,
5165533,000003A6,false,Rx,0,8,E7,0C,10,00,00,01,00,00,
5165771,000003AF,false,Rx,0,8,24,6C,09,21,D8,B1,00,00,
5166011,00000489,false,Rx,0,8,F5,0C,00,F4,25,CE,2F,00,
5175034,00000097,false,Rx,0,8,09,C2,7F,CF,05,03,00,00,
5175270,00000124,false,Rx,0,8,CE,00,98,4F,4A,15,00,5D,
5185028,00000097,false,Rx,0,8,13,C3,7F,CF,05,03,00,00,
5195034,00000097,false,Rx,0,8,2D,C4,7F,CF,05,03,00,00,
5195271,00000124,false,Rx,0,8,D4,01,98,4F,4A,15,00,5D,
5205038,00000097,false,Rx,0,8,B9,C5,7F,CF,05,03,00,00,
5215035,00000097,false,Rx,0,8,0F,C6,7F,CF,05,03,00,00,
5215272,00000124,false,Rx,0,8,97,02,98,4F,4A,15,00,5D,
5225029,00000097,false,Rx,0,8,85,C7,7F,CF,05,03,00,00,
5235036,00000097,false,Rx,0,8,67,C8,7F,CF,05,03,00,00,
5235273,00000124,false,Rx,0,8,DE,03,98,4F,4A,15,00,5D,
5245040,00000097,false,Rx,0,8,5A,C9,7F,CF,05,03,00,00,
5255038,00000097,false,Rx,0,8,82,CA,7F,CF,05,03,00,00,
5255274,00000124,false,Rx,0,8,61,04,98,4F,4A,15,00,5D,
5265032,00000097,false,Rx,0,8,9D,CB,7F,CF,05,03,00,00,
5265289,00000187,false,Rx,0,8,32,0C,12,00,00,00,30,00,
5265538,000003A6,false,Rx,0,8,10,0D,10,00,00,01,00,00,
5265776,000003AF,false,Rx,0,8,F8,6D,09,21,D8,B1,00,00,
5266015,00000489,false,Rx,0,8,58,0D,00,F4,25,CE,2F,00,
5275027,00000097,false,Rx,0,8,ED,CC,7F,CF,05,03,00,00,
5275264,00000124,false,Rx,0,8,9C,05,98,4F,4A,15,00,5D,
5285042,00000097,false,Rx,0,8,34,CD,7F,CF,05,03,00,00,
5295040,00000097,false,Rx,0,8,A2,CE,7F,CF,05,03,00,00,
5295276,00000124,false,Rx,0,8,1F,06,98,4F,4A,15,00,5D,
5305033,00000097,false,Rx,0,8,E0,CF,7F,CF,05,03,00,00,
5315030,00000097,false,Rx,0,8,68,C0,7F,CF,05,03,00,00,
5315275,00000124,false,Rx,0,8,63,07,98,4F,4A,15,00,5D,
5325033,00000097,false,Rx,0,8,CE,C1,7F,CF,05,03,00,00,
5335030,00000097,false,Rx,0,8,09,C2,7F,CF,05,03,00,00,
5335277,00000124,false,Rx,0,8,58,08,98,4F,4A,15,00,5D,
5345035,00000097,false,Rx,0,8,13,C3,7F,CF,05,03,00,00,
5355031,00000097,false,Rx,0,8,2D,C4,7F,CF,05,03,00,00,
5355266,00000124,false,Rx,0,8,AA,09,98,4F,4A,15,00,5D,
5365035,00000097,false,Rx,0,8,B9,C5,7F,CF,05,03,00,00,
5365280,00000187,false,Rx,0,8,0A,0D,12,00,00,00,30,00,
5365539,000003A6,false,Rx,0,8,44,0E,10,00,00,01,00,00,
5365768,000003AF,false,Rx,0,8,A6,6E,09,21,D8,B1,00,00,
5366006,00000489,false,Rx,0,8,70,0E,00,F4,25,CE,2F,00,
5375040,00000097,false,Rx,0,8,0F,C6,7F,CF,05,03,00,00,
5375275,00000124,false,Rx,0,8,D8,0A,98,4F,4A,15,00,5D,
5385033,00000097,false,Rx,0,8,85,C7,7F,CF,05,03,00,00,
5395040,00000097,false,Rx,0,8,67,C8,7F,CF,05,03,00,00,
5395275,00000124,false,Rx,0,8,F3,0B,98,4F,4A,15,00,5D,
5405033,00000097,false,Rx,0,8,5A,C9,7F,CF,05,03,00,00,
5415040,00000097,false,Rx,0,8,82,CA,7F,CF,05,03,00,00,
5415275,00000124,false,Rx,0,8,DD,0C,98,4F,4A,15,00,5D,
5425034,00000097,false,Rx,0,8,9D,CB,7F,CF,05,03,00,00,
5435030,00000097,false,Rx,0,8,ED,CC,7F,CF,05,03,00,00,
5435265,00000124,false,Rx,0,8,6C,0D,98,4F,4A,15,00,5D,
5445044,00000097,false,Rx,0,8,34,CD,7F,CF,05,03,00,00,
5455030,00000097,false,Rx,0,8,A2,CE,7F,CF,05,03,00,00,
5455275,00000124,false,Rx,0,8,AC,0E,98,4F,4A,15,00,5D,
5465035,00000097,false,Rx,0,8,E0,CF,7F,CF,05,03,00,00,
5465280,00000187,false,Rx,0,8,17,0E,12,00,00,00,30,00,
5465530,000003A6,false,Rx,0,8,52,0F,10,00,00,01,00,00,
5465768,000003AF,false,Rx,0,8,71,6F,09,21,D8,B1,00,00,
5466016,00000489,false,Rx,0,8,00,0F,00,F4,25,CE,2F,00,
5475030,00000097,false,Rx,0,8,68,C0,7F,CF,05,03,00,00,
5475275,00000124,false,Rx,0,8,41,0F,98,4F,4A,15,00,5D,
5485034,00000097,false,Rx,0,8,CE,C1,7F,CF,05,03,00,00,
5495041,00000097,false,Rx,0,8,09,C2,7F,CF,05,03,00,00,
5495277,00000124,false,Rx,0,8,CE,00,98,4F,4A,15,00,5D,
5505034,00000097,false,Rx,0,8,13,C3,7F,CF,05,03,00,00,
5515030,00000097,false,Rx,0,8,2D,C4,7F,CF,05,03,00,00,
5515266,00000124,false,Rx,0,8,D4,01,98,4F,4A,15,00,5D,
5525035,00000097,false,Rx,0,8,B9,C5,7F,CF,05,03,00,00,
5535041,00000097,false,Rx,0,8,0F,C6,7F,CF,05,03,00,00,
5535276,00000124,false,Rx,0,8,97,02,98,4F,4A,15,00,5D,
5545034,00000097,false,Rx,0,8,85,C7,7F,CF,05,03,00,00,
5555031,00000097,false,Rx,0,8,67,C8,7F,CF,05,03,00,00,
5555277,00000124,false,Rx,0,8,DE,03,98,4F,4A,15,00,5D,
5565045,00000187,false,Rx,0,8,E2,0F,12,00,00,00,30,00,
5565290,000003A6,false,Rx,0,8,92,00,10,00,00,01,00,00,
5565530,000003AF,false,Rx,0,8,DA,60,09,21,D8,B1,00,00,
5565768,00000489,false,Rx,0,8,DC,00,00,F4,25,CE,2F,00,
5566006,000006A3,false,Rx,0,8,A3,EF,15,3E,6C,66,03,00,
5566257,000006A4,false,Rx,0,8,6D,0F,42,3F,43,03,00,00,
5566495,00000097,false,Rx,0,8,5A,C9,7F,CF,05,03,00,00,
5575038,00000097,false,Rx,0,8,82,CA,7F,CF,05,03,00,00,
5575273,00000124,false,Rx,0,8,61,04,98,4F,4A,15,00,5D,
5585032,00000097,false,Rx,0,8,9D,CB,7F,CF,05,03,00,00,
5595029,00000097,false,Rx,0,8,ED,CC,7F,CF,05,03,00,00,
5595274,00000124,false,Rx,0,8,9C,05,98,4F,4A,15,00,5D,
5605043,00000097,false,Rx,0,8,34,CD,7F,CF,05,03,00,00,
5615040,00000097,false,Rx,0,8,A2,CE,7F,CF,05,03,00,00,
5615275,00000124,false,Rx,0,8,1F,06,98,4F,4A,15,00,5D,
5625033,00000097,false,Rx,0,8,E0,CF,7F,CF,05,03,00,00,
5635030,00000097,false,Rx,0,8,68,C0,7F,CF,05,03,00,00,
5635276,00000124,false,Rx,0,8,63,07,98,4F,4A,15,00,5D,
5645044,00000097,false,Rx,0,8,CE,C1,7F,CF,05,03,00,00,
5655041,00000097,false,Rx,0,8,09,C2,7F,CF,05,03,00,00,
5655277,00000124,false,Rx,0,8,58,08,98,4F,4A,15,00,5D,
5665034,00000097,false,Rx,0,8,13,C3,7F,CF,05,03,00,00,
5665291,00000187,false,Rx,0,8,92,00,12,00,00,00,30,00,
5665540,000003A6,false,Rx,0,8,6F,01,10,00,00,01,00,00,
5665768,000003AF,false,Rx,0,8,D3,61,09,21,D8,B1,00,00,
5666007,00000489,false,Rx,0,8,55,01,00,F4,25,CE,2F,00,
5675039,00000097,false,Rx,0,8,2D,C4,7F,CF,05,03,00,00,
5675266,00000124,false,Rx,0,8,AA,09,98,4F,4A,15,00,5D,
5685043,00000097,false,Rx,0,8,B9,C5,7F,CF,05,03,00,00,
5695040,00000097,false,Rx,0,8,0F,C6,7F,CF,05,03,00,00,
5695276,00000124,false,Rx,0,8,D8,0A,98,4F,4A,15,00,5D,
5705033,00000097,false,Rx,0,8,85,C7,7F,CF,05,03,00,00,
5715040,00000097,false,Rx,0,8,67,C8,7F,CF,05,03,00,00,
5715276,00000124,false,Rx,0,8,F3,0B,98,4F,4A,15,00,5D,
5725044,00000097,false,Rx,0,8,5A,C9,7F,CF,05,03,00,00,
5735043,00000097,false,Rx,0,8,82,CA,7F,CF,05,03,00,00,
5735280,00000124,false,Rx,0,8,DD,0C,98,4F,4A,15,00,5D,
5745038,00000097,false,Rx,0,8,9D,CB,7F,CF,05,03,00,00,
5755034,00000097,false,Rx,0,8,ED,CC,7F,CF,05,03,00,00,
5755271,00000124,false,Rx,0,8,6C,0D,98,4F,4A,15,00,5D,
5765050,00000187,false,Rx,0,8,E5,01,12,00,00,00,30,00,
5765295,000003A6,false,Rx,0,8,AC,02,10,00,00,01,00,00,
5765533,000003AF,false,Rx,0,8,4E,62,09,21,D8,B1,00,00,
5765772,00000489,false,Rx,0,8,42,02,00,F4,25,CE,2F,00,
5766011,00000097,false,Rx,0,8,34,CD,7F,CF,05,03,00,00,
5775034,00000097,false,Rx,0,8,A2,CE,7F,CF,05,03,00,00,
5775270,00000124,false,Rx,0,8,AC,0E,98,4F,4A,15,00,5D,
5785038,00000097,false,Rx,0,8,E0,CF,7F,CF,05,03,00,00,
5795035,00000097,false,Rx,0,8,68,C0,7F,CF,05,03,00,00,
5795271,00000124,false,Rx,0,8,41,0F,98,4F,4A,15,00,5D,
5805039,00000097,false,Rx,0,8,CE,C1,7F,CF,05,03,00,00,
5815035,00000097,false,Rx,0,8,09,C2,7F,CF,05,03,00,00,
5815281,00000124,false,Rx,0,8,CE,00,98,4F,4A,15,00,5D,
5825039,00000097,false,Rx,0,8,13,C3,7F,CF,05,03,00,00,
5835035,00000097,false,Rx,0,8,2D,C4,7F,CF,05,03,00,00,
5835271,00000124,false,Rx,0,8,D4,01,98,4F,4A,15,00,5D,
5845028,00000097,false,Rx,0,8,B9,C5,7F,CF,05,03,00,00,
5855045,00000097,false,Rx,0,8,0F,C6,7F,CF,05,03,00,00,
5855281,00000124,false,Rx,0,8,97,02,98,4F,4A,15,00,5D,
5865039,00000097,false,Rx,0,8,85,C7,7F,CF,05,03,00,00,
5865285,00000187,false,Rx,0,8,98,02,12,00,00,00,30,00,
5865544,000003A6,false,Rx,0,8,E0,03,10,00,00,01,00,00,
5865783,000003AF,false,Rx,0,8,0D,63,09,21,D8,B1,00,00,
5866011,00000489,false,Rx,0,8,A7,03,00,F4,25,CE,2F,00,
5875035,00000097,false,Rx,0,8,67,C8,7F,CF,05,03,00,00,
5875281,00000124,false,Rx,0,8,DE,03,98,4F,4A,15,00,5D,
5885039,00000097,false,Rx,0,8,5A,C9,7F,CF,05,03,00,00,
5895046,00000097,false,Rx,0,8,82,CA,7F,CF,05,03,00,00,
5895281,00000124,false,Rx,0,8,61,04,98,4F,4A,15,00,5D,
5905039,00000097,false,Rx,0,8,9D,CB,7F,CF,05,03,00,00,
5915035,00000097,false,Rx,0,8,ED,CC,7F,CF,05,03,00,00,
5915271,00000124,false,Rx,0,8,9C,05,98,4F,4A,15,00,5D,
5925039,00000097,false,Rx,0,8,34,CD,7F,CF,05,03,00,00,
5935035,00000097,false,Rx,0,8,A2,CE,7F,CF,05,03,00,00,
5935280,00000124,false,Rx,0,8,1F,06,98,4F,4A,15,00,5D,
5945039,00000097,false,Rx,0,8,E0,CF,7F,CF,05,03,00,00,
5955036,00000097,false,Rx,0,8,68,C0,7F,CF,05,03,00,00,
5955272,00000124,false,Rx,0,8,63,07,98,4F,4A,15,00,5D,
5965040,00000097,false,Rx,0,8,CE,C1,7F,CF,05,03,00,00,
5965286,00000187,false,Rx,0,8,C4,03,12,00,00,00,30,00,
5965535,000003A6,false,Rx,0,8,A0,04,10,00,00,01,00,00,
5965773,000003AF,false,Rx,0,8,7E,64,09,21,D8,B1,00,00,
5966022,00000489,false,Rx,0,8,2C,04,00,F4,25,CE,2F,00,
5975045,00000097,false,Rx,0,8,09,C2,7F,CF,05,03,00,00,
5975280,00000124,false,Rx,0,8,58,08,98,4F,4A,15,00,5D,
5985039,00000097,false,Rx,0,8,13,C3,7F,CF,05,03,00,00,
5995036,00000097,false,Rx,0,8,2D,C4,7F,CF,05,03,00,00,
5995272,00000124,false,Rx,0,8,AA,09,98,4F,4A,15,00,5D,
6005029,00000097,false,Rx,0,8,B9,C5,7F,CF,05,03,00,00,
6015048,00000097,false,Rx,0,8,0F,C6,7F,CF,05,03,00,00,
6015283,00000124,false,Rx,0,8,D8,0A,98,4F,4A,15,00,5D,
6025042,00000097,false,Rx,0,8,85,C7,7F,CF,05,03,00,00,
6035038,00000097,false,Rx,0,8,67,C8,7F,CF,05,03,00,00,
6035273,00000124,false,Rx,0,8,F3,0B,98,4F,4A,15,00,5D,
6045033,00000097,false,Rx,0,8,5A,C9,7F,CF,05,03,00,00,
6055050,00000097,false,Rx,0,8,82,CA,7F,CF,05,03,00,00,
6055286,00000124,false,Rx,0,8,DD,0C,98,4F,4A,15,00,5D,
6065033,00000097,false,Rx,0,8,9D,CB,7F,CF,05,03,00,00,
6065289,00000187,false,Rx,0,8,5C,04,12,00,00,00,30,00,
6065529,000003A6,false,Rx,0,8,50,05,10,00,00,01,00,00,
6065767,000003AF,false,Rx,0,8,72,65,09,21,D8,B1,00,00,
6066005,00000489,false,Rx,0,8,F8,05,00,F4,25,CE,2F,00,
6066244,000006A3,false,Rx,0,8,96,E0,15,3E,6C,66,03,00,
6066494,000006A4,false,Rx,0,8,2D,00,42,3F,43,03,00,00,
6075036,00000097,false,Rx,0,8,ED,CC,7F,CF,05,03,00,00,
6075272,00000124,false,Rx,0,8,6C,0D,98,4F,4A,15,00,5D,
6085040,00000097,false,Rx,0,8,34,CD,7F,CF,05,03,00,00,
6095038,00000097,false,Rx,0,8,A2,CE,7F,CF,05,03,00,00,
6095273,00000124,false,Rx,0,8,AC,0E,98,4F,4A,15,00,5D,
6105043,00000097,false,Rx,0,8,E0,CF,7F,CF,05,03,00,00,
6115040,00000097,false,Rx,0,8,68,C0,7F,CF,05,03,00,00,
6115276,00000124,false,Rx,0,8,41,0F,98,4F,4A,15,00,5D,
6121936,12DD5472,true,Rx,0,8,00,00,00,00,00,00,F8,FD,
6122181,00000594,false,Rx,0,8,00,E0,1F,83,7F,00,00,1E,
6122472,17F00044,true,Rx,0,8,20,44,00,00,00,00,00,80,
6125036,00000097,false,Rx,0,8,CE,C1,7F,CF,05,03,00,00,
6127065,1B000044,true,Rx,0,8,44,00,01,00,04,00,00,00,
6131885,0000038B,false,Rx,0,8,FE,01,FE,BC,F2,CA,AB,7F,
6132171,12DD5472,true,Rx,0,8,00,00,00,00,00,00,F8,FD,
6132411,00000565,false,Rx,0,8,FE,E0,00,7E,0A,08,80,FF,
6132649,0000067E,false,Rx,0,8,1D,01,FE,01,3B,00,00,38,
6132919,1A555457,true,Rx,0,8,00,35,51,45,36,00,00,00,
6133188,1A555490,true,Rx,0,8,AA,AA,08,AA,A2,2A,AA,02,
6133479,1A555491,true,Rx,0,8,AA,5A,AA,02,00,00,00,80,
6135032,00000097,false,Rx,0,8,09,C2,7F,CF,05,03,00,00,
6135273,00000124,false,Rx,0,8,CE,00,98,4F,4A,15,00,5D,
6145039,00000097,false,Rx,0,8,13,C3,7F,CF,05,03,00,00,
6147067,12DD5472,true,Rx,0,8,00,00,00,00,00,00,00,00,
6147354,12DD5472,true,Rx,0,8,00,00,00,00,00,00,00,00,
6155039,00000097,false,Rx,0,8,2D,C4,7F,CF,05,03,00,00,
6155277,00000124,false,Rx,0,8,D4,01,98,4F,4A,15,00,5D,
6165034,00000097,false,Rx,0,8,B9,C5,7F,CF,05,03,00,00,
6165281,00000187,false,Rx,0,8,B8,05,12,00,00,00,30,00,
6165529,000003A6,false,Rx,0,8,D2,06,10,00,00,01,00,00,
6165767,000003AF,false,Rx,0,8,EA,66,09,21,D8,B1,00,00,
6166007,00000489,false,Rx,0,8,C5,06,00,F4,25,CE,2F,00,
6175039,00000097,false,Rx,0,8,0F,C6,7F,CF,05,03,00,00,
6175277,00000124,false,Rx,0,8,97,02,98,4F,4A,15,00,5D,
6185034,00000097,false,Rx,0,8,85,C7,7F,CF,05,03,00,00,
6187031,00000565,false,Rx,0,8,00,20,00,00,0C,08,80,FF,
6195038,00000097,false,Rx,0,8,67,C8,7F,CF,05,03,00,00,
6195285,00000124,false,Rx,0,8,DE,03,98,4F,4A,15,00,5D,
6205043,00000097,false,Rx,0,8,5A,C9,7F,CF,05,03,00,00,
6215040,00000097,false,Rx,0,8,82,CA,7F,CF,05,03,00,00,
6215276,00000124,false,Rx,0,8,61,04,98,4F,4A,15,00,5D,
6221914,0000038B,false,Rx,0,8,FE,01,FE,BC,F2,CA,AB,7F,
6225040,00000097,false,Rx,0,8,9D,CB,7F,CF,05,03,00,00,
6235037,00000097,false,Rx,0,8,ED,CC,7F,CF,05,03,00,00,
6235273,00000124,false,Rx,0,8,9C,05,98,4F,4A,15,00,5D,
6237093,00000566,false,Rx,0,8,B7,01,FE,01,FB,07,00,00,
6245038,00000097,false,Rx,0,8,34,CD,7F,CF,05,03,00,00,
6253409,17331102,true,Rx,0,4,40,00,01,3C,00,00,00,00,
6255034,00000097,false,Rx,0,8,A2,CE,7F,CF,05,03,00,00,
6255273,00000124,false,Rx,0,8,1F,06,98,4F,4A,15,00,5D,
6258130,17332510,true,Rx,0,8,09,42,03,00,25,00,04,04,
6258293,17331102,true,Rx,0,2,14,42,00,00,00,00,00,00,
6265044,00000097,false,Rx,0,8,E0,CF,7F,CF,05,03,00,00,
6265289,00000187,false,Rx,0,8,1E,06,12,00,00,00,30,00,
6265538,000003A6,false,Rx,0,8,3A,07,10,00,00,01,00,00,
6265776,000003AF,false,Rx,0,8,86,67,09,21,D8,B1,00,00,
6266015,00000489,false,Rx,0,8,92,07,00,F4,25,CE,2F,00,
6275039,00000097,false,Rx,0,8,68,C0,7F,CF,05,03,00,00,
6275274,00000124,false,Rx,0,8,63,07,98,4F,4A,15,00,5D,
6285034,00000097,false,Rx,0,8,CE,C1,7F,CF,05,03,00,00,
6295030,00000097,false,Rx,0,8,09,C2,7F,CF,05,03,00,00,
6295277,00000124,false,Rx,0,8,58,08,98,4F,4A,15,00,5D,
6305035,00000097,false,Rx,0,8,13,C3,7F,CF,05,03,00,00,
6315041,00000097,false,Rx,0,8,2D,C4,7F,CF,05,03,00,00,
6315277,00000124,false,Rx,0,8,AA,09,98,4F,4A,15,00,5D,
6321957,0000038B,false,Rx,0,8,FE,01,FE,BC,F2,CA,AB,7F,
6325031,00000097,false,Rx,0,8,B9,C5,7F,CF,05,03,00,00,
6327183,1B000044,true,Rx,0,8,44,00,41,00,04,00,00,00,
6335045,00000097,false,Rx,0,8,0F,C6,7F,CF,05,03,00,00,
6335281,00000124,false,Rx,0,8,D8,0A,98,4F,4A,15,00,5D,
6337142,00000566,false,Rx,0,8,33,02,FE,01,FB,07,00,00,
6345035,00000097,false,Rx,0,8,85,C7,7F,CF,05,03,00,00,
6355044,00000097,false,Rx,0,8,67,C8,7F,CF,05,03,00,00,
6355279,00000124,false,Rx,0,8,F3,0B,98,4F,4A,15,00,5D,
6365038,00000097,false,Rx,0,8,5A,C9,7F,CF,05,03,00,00,
6365284,00000187,false,Rx,0,8,7C,07,12,00,00,00,30,00,
6365532,000003A6,false,Rx,0,8,95,08,10,00,00,01,00,00,
6365772,000003AF,false,Rx,0,8,59,68,09,21,D8,B1,00,00,
6366010,00000489,false,Rx,0,8,B0,08,00,F4,25,CE,2F,00,
6375044,00000097,false,Rx,0,8,82,CA,7F,CF,05,03,00,00,
6375279,00000124,false,Rx,0,8,DD,0C,98,4F,4A,15,00,5D,
6385038,00000097,false,Rx,0,8,9D,CB,7F,CF,05,03,00,00,
6395035,00000097,false,Rx,0,8,ED,CC,7F,CF,05,03,00,00,
6395280,00000124,false,Rx,0,8,6C,0D,98,4F,4A,15,00,5D,
6405039,00000097,false,Rx,0,8,34,CD,7F,CF,05,03,00,00,
6415038,00000097,false,Rx,0,8,A2,CE,7F,CF,05,03,00,00,
6415273,00000124,false,Rx,0,8,AC,0E,98,4F,4A,15,00,5D,
6421995,0000038B,false,Rx,0,8,FE,01,FE,BC,F2,CA,AB,7F,
6425039,00000097,false,Rx,0,8,E0,CF,7F,CF,05,03,00,00,
6435035,00000097,false,Rx,0,8,68,C0,7F,CF,05,03,00,00,
6435281,00000124,false,Rx,0,8,41,0F,98,4F,4A,15,00,5D,
6437184,00000566,false,Rx,0,8,F5,03,FE,01,FB,07,00,00,
6445035,00000097,false,Rx,0,8,CE,C1,7F,CF,05,03,00,00,
6455043,00000097,false,Rx,0,8,09,C2,7F,CF,05,03,00,00,
6455278,00000124,false,Rx,0,8,CE,00,98,4F,4A,15,00,5D,
6465035,00000097,false,Rx,0,8,13,C3,7F,CF,05,03,00,00,
6465281,00000187,false,Rx,0,8,4D,08,12,00,00,00,30,00,
6465531,000003A6,false,Rx,0,8,F8,09,10,00,00,01,00,00,
6465769,000003AF,false,Rx,0,8,33,69,09,21,D8,B1,00,00,
6466007,00000489,false,Rx,0,8,2A,09,00,F4,25,CE,2F,00,
6475040,00000097,false,Rx,0,8,2D,C4,7F,CF,05,03,00,00,
6475275,00000124,false,Rx,0,8,D4,01,98,4F,4A,15,00,5D,
6485033,00000097,false,Rx,0,8,B9,C5,7F,CF,05,03,00,00,
6495040,00000097,false,Rx,0,8,0F,C6,7F,CF,05,03,00,00,
6495275,00000124,false,Rx,0,8,97,02,98,4F,4A,15,00,5D,
6505033,00000097,false,Rx,0,8,85,C7,7F,CF,05,03,00,00,
6515041,00000097,false,Rx,0,8,67,C8,7F,CF,05,03,00,00,
6515287,00000124,false,Rx,0,8,DE,03,98,4F,4A,15,00,5D,
6522039,0000038B,false,Rx,0,8,FE,01,FE,BC,F2,CA,AB,7F,
6525041,00000097,false,Rx,0,8,5A,C9,7F,CF,05,03,00,00,
6527287,1B000044,true,Rx,0,8,44,00,41,00,04,00,00,00,
6535044,00000097,false,Rx,0,8,82,CA,7F,CF,05,03,00,00,
6535280,00000124,false,Rx,0,8,61,04,98,4F,4A,15,00,5D,
6537235,00000566,false,Rx,0,8,78,04,FE,01,FB,07,00,00,
6545034,00000097,false,Rx,0,8,9D,CB,7F,CF,05,03,00,00,
6555042,00000097,false,Rx,0,8,ED,CC,7F,CF,05,03,00,00,
6555277,00000124,false,Rx,0,8,9C,05,98,4F,4A,15,00,5D,
6565045,00000097,false,Rx,0,8,34,CD,7F,CF,05,03,00,00,
6565290,00000187,false,Rx,0,8,D7,09,12,00,00,00,30,00,
6565540,000003A6,false,Rx,0,8,18,0A,10,00,00,01,00,00,
6565778,000003AF,false,Rx,0,8,06,6A,09,21,D8,B1,00,00,
6566016,00000489,false,Rx,0,8,93,0A,00,F4,25,CE,2F,00,
6566257,000006A3,false,Rx,0,8,1D,E1,15,3E,6C,66,03,00,
6566495,000006A4,false,Rx,0,8,7D,01,42,3F,43,03,00,00,
6572063,00000564,false,Rx,0,8,D9,01,00,00,F8,07,2D,00,
6575044,00000097,false,Rx,0,8,A2,CE,7F,CF,05,03,00,00,
6575279,00000124,false,Rx,0,8,1F,06,98,4F,4A,15,00,5D,
6585038,00000097,false,Rx,0,8,E0,CF,7F,CF,05,03,00,00,
6595035,00000097,false,Rx,0,8,68,C0,7F,CF,05,03,00,00,
6595282,00000124,false,Rx,0,8,63,07,98,4F,4A,15,00,5D,
6605038,00000097,false,Rx,0,8,CE,C1,7F,CF,05,03,00,00,
6615045,00000097,false,Rx,0,8,09,C2,7F,CF,05,03,00,00,
6615282,00000124,false,Rx,0,8,58,08,98,4F,4A,15,00,5D,
6622075,0000038B,false,Rx,0,8,FE,01,00,BC,F2,CA,AB,7F,
6622363,12DD5472,true,Rx,0,8,00,00,00,00,00,00,00,00,
6622611,00000565,false,Rx,0,8,00,20,00,00,0C,08,80,FF,
6622859,00000594,false,Rx,0,8,00,00,00,00,00,00,30,09,
6623150,17F00044,true,Rx,0,8,20,44,00,00,00,00,00,80,
6623421,1A555490,true,Rx,0,8,AA,AA,08,A8,A2,2A,AA,02,
6623701,1A555491,true,Rx,0,8,AA,5A,AA,02,00,00,00,80,
6625038,00000097,false,Rx,0,8,13,C3,7F,CF,05,03,00,00,
6635039,00000097,false,Rx,0,8,2D,C4,7F,CF,05,03,00,00,
6635276,00000124,false,Rx,0,8,AA,09,98,4F,4A,15,00,5D,
6637261,00000566,false,Rx,0,8,8A,05,FE,01,FB,E7,15,00,
6645039,00000097,false,Rx,0,8,B9,C5,7F,CF,05,03,00,00,
6655038,00000097,false,Rx,0,8,0F,C6,7F,CF,05,03,00,00,
6655274,00000124,false,Rx,0,8,D8,0A,98,4F,4A,15,00,5D,
6665042,00000187,false,Rx,0,8,27,0A,12,00,00,00,30,00,
6665288,000003A6,false,Rx,0,8,74,0B,10,00,00,01,00,00,
6665537,000003AF,false,Rx,0,8,3A,6B,09,21,D8,B1,00,00,
6665775,00000489,false,Rx,0,8,78,0B,00,F4,25,CE,2F,00,
6666015,00000097,false,Rx,0,8,85,C7,7F,CF,05,03,00,00,
6675038,00000097,false,Rx,0,8,67,C8,7F,CF,05,03,00,00,
6675285,00000124,false,Rx,0,8,F3,0B,98,4F,4A,15,00,5D,
6685043,00000097,false,Rx,0,8,5A,C9,7F,CF,05,03,00,00,
6687310,00000565,false,Rx,0,8,00,00,00,00,0C,08,80,FF,
6695038,00000097,false,Rx,0,8,82,CA,7F,CF,05,03,00,00,
6695285,00000124,false,Rx,0,8,DD,0C,98,4F,4A,15,00,5D,
6705032,00000097,false,Rx,0,8,9D,CB,7F,CF,05,03,00,00,
6715039,00000097,false,Rx,0,8,ED,CC,7F,CF,05,03,00,00,
6715277,00000124,false,Rx,0,8,6C,0D,98,4F,4A,15,00,5D,
6722112,0000038B,false,Rx,0,8,FE,01,00,BC,F2,CA,AB,7F,
6725042,00000097,false,Rx,0,8,34,CD,7F,CF,05,03,00,00,
6727340,1B000044,true,Rx,0,8,44,00,41,00,04,00,00,00,
6735047,00000097,false,Rx,0,8,A2,CE,7F,CF,05,03,00,00,
6735272,00000124,false,Rx,0,8,AC,0E,98,4F,4A,15,00,5D,
6737298,00000566,false,Rx,0,8,DC,06,FE,01,FA,E7,15,00,
6745036,00000097,false,Rx,0,8,E0,CF,7F,CF,05,03,00,00,
6755045,00000097,false,Rx,0,8,68,C0,7F,CF,05,03,00,00,
6755280,00000124,false,Rx,0,8,41,0F,98,4F,4A,15,00,5D,
6765040,00000097,false,Rx,0,8,CE,C1,7F,CF,05,03,00,00,
6765286,00000187,false,Rx,0,8,F3,0B,12,00,00,00,30,00,
6765534,000003A6,false,Rx,0,8,E7,0C,10,00,00,01,00,00,
6765773,000003AF,false,Rx,0,8,24,6C,09,21,D8,B1,00,00,
6766012,00000489,false,Rx,0,8,F5,0C,00,F4,25,CE,2F,00,
6775035,00000097,false,Rx,0,8,09,C2,7F,CF,05,03,00,00,
6775281,00000124,false,Rx,0,8,CE,00,98,4F,4A,15,00,5D,
6785039,00000097,false,Rx,0,8,13,C3,7F,CF,05,03,00,00,
6795046,00000097,false,Rx,0,8,2D,C4,7F,CF,05,03,00,00,
6795281,00000124,false,Rx,0,8,D4,01,98,4F,4A,15,00,5D,
6805038,00000097,false,Rx,0,8,B9,C5,7F,CF,05,03,00,00,
6815045,00000097,false,Rx,0,8,0F,C6,7F,CF,05,03,00,00,
6815281,00000124,false,Rx,0,8,97,02,98,4F,4A,15,00,5D,
6822158,0000038B,false,Rx,0,8,FE,01,00,BC,F2,CA,AB,7F,
6825046,00000097,false,Rx,0,8,85,C7,7F,CF,05,03,00,00,
6835045,00000097,false,Rx,0,8,67,C8,7F,CF,05,03,00,00,
6835280,00000124,false,Rx,0,8,DE,03,98,4F,4A,15,00,5D,
6837349,00000566,false,Rx,0,8,28,07,FE,01,FA,E7,15,00,
6845045,00000097,false,Rx,0,8,5A,C9,7F,CF,05,03,00,00,
6855040,00000097,false,Rx,0,8,82,CA,7F,CF,05,03,00,00,
6855277,00000124,false,Rx,0,8,61,04,98,4F,4A,15,00,5D,
6858479,17331102,true,Rx,0,2,14,42,00,00,00,00,00,00,
6865040,00000097,false,Rx,0,8,9D,CB,7F,CF,05,03,00,00,
6865285,00000187,false,Rx,0,8,32,0C,12,00,00,00,30,00,
6865544,000003A6,false,Rx,0,8,10,0D,10,00,00,01,00,00,
6865783,000003AF,false,Rx,0,8,F8,6D,09,21,D8,B1,00,00,
6866022,00000489,false,Rx,0,8,58,0D,00,F4,25,CE,2F,00,
6875045,00000097,false,Rx,0,8,ED,CC,7F,CF,05,03,00,00,
6875281,00000124,false,Rx,0,8,9C,05,98,4F,4A,15,00,5D,
6885039,00000097,false,Rx,0,8,34,CD,7F,CF,05,03,00,00,
6895038,00000097,false,Rx,0,8,A2,CE,7F,CF,05,03,00,00,
6895273,00000124,false,Rx,0,8,1F,06,98,4F,4A,15,00,5D,
6905041,00000097,false,Rx,0,8,E0,CF,7F,CF,05,03,00,00,
6915048,00000097,false,Rx,0,8,68,C0,7F,CF,05,03,00,00,
6915284,00000124,false,Rx,0,8,63,07,98,4F,4A,15,00,5D,
6922192,0000038B,false,Rx,0,8,FE,01,00,BC,F2,CA,AB,7F,
6925039,00000097,false,Rx,0,8,CE,C1,7F,CF,05,03,00,00,
6927440,1B000044,true,Rx,0,8,44,00,41,00,04,00,00,00,
6935043,00000097,false,Rx,0,8,09,C2,7F,CF,05,03,00,00,
6935278,00000124,false,Rx,0,8,58,08,98,4F,4A,15,00,5D,
6937388,00000566,false,Rx,0,8,FD,08,FE,01,FA,E7,15,00,
6945033,00000097,false,Rx,0,8,13,C3,7F,CF,05,03,00,00,
6955040,00000097,false,Rx,0,8,2D,C4,7F,CF,05,03,00,00,
6955275,00000124,false,Rx,0,8,AA,09,98,4F,4A,15,00,5D,
6965044,00000097,false,Rx,0,8,B9,C5,7F,CF,05,03,00,00,
6965290,00000187,false,Rx,0,8,0A,0D,12,00,00,00,30,00,
6965539,000003A6,false,Rx,0,8,44,0E,10,00,00,01,00,00,
6965777,000003AF,false,Rx,0,8,A6,6E,09,21,D8,B1,00,00,
6966016,00000489,false,Rx,0,8,70,0E,00,F4,25,CE,2F,00,
6975038,00000097,false,Rx,0,8,0F,C6,7F,CF,05,03,00,00,
6975274,00000124,false,Rx,0,8,D8,0A,98,4F,4A,15,00,5D,
6985033,00000097,false,Rx,0,8,85,C7,7F,CF,05,03,00,00,
6995050,00000097,false,Rx,0,8,67,C8,7F,CF,05,03,00,00,
6995286,00000124,false,Rx,0,8,F3,0B,98,4F,4A,15,00,5D,
7005044,00000097,false,Rx,0,8,5A,C9,7F,CF,05,03,00,00,
7015040,00000097,false,Rx,0,8,82,CA,7F,CF,05,03,00,00,
7015286,00000124,false,Rx,0,8,DD,0C,98,4F,4A,15,00,5D,
7022235,0000038B,false,Rx,0,8,FE,01,00,BC,F2,CA,AB,7F,
7025041,00000097,false,Rx,0,8,9D,CB,7F,CF,05,03,00,00,
7035038,00000097,false,Rx,0,8,ED,CC,7F,CF,05,03,00,00,
7035283,00000124,false,Rx,0,8,6C,0D,98,4F,4A,15,00,5D,
7037414,00000566,false,Rx,0,8,05,09,FE,01,FA,E7,15,00,
7045039,00000097,false,Rx,0,8,34,CD,7F,CF,05,03,00,00,
7055038,00000097,false,Rx,0,8,A2,CE,7F,CF,05,03,00,00,
7055273,00000124,false,Rx,0,8,AC,0E,98,4F,4A,15,00,5D,
7065041,00000097,false,Rx,0,8,E0,CF,7F,CF,05,03,00,00,
7065288,00000187,false,Rx,0,8,17,0E,12,00,00,00,30,00,
7065536,000003A6,false,Rx,0,8,52,0F,10,00,00,01,00,00,
7065775,000003AF,false,Rx,0,8,71,6F,09,21,D8,B1,00,00,
7066023,00000489,false,Rx,0,8,00,0F,00,F4,25,CE,2F,00,
7066263,000006A3,false,Rx,0,8,FE,E2,15,3E,6C,66,03,00,
7066502,000006A4,false,Rx,0,8,DA,02,42,3F,43,03,00,00,
7075034,00000097,false,Rx,0,8,68,C0,7F,CF,05,03,00,00,
7075280,00000124,false,Rx,0,8,41,0F,98,4F,4A,15,00,5D,
7085038,00000097,false,Rx,0,8,CE,C1,7F,CF,05,03,00,00,
7095045,00000097,false,Rx,0,8,09,C2,7F,CF,05,03,00,00,
7095282,00000124,false,Rx,0,8,CE,00,98,4F,4A,15,00,5D,
7105039,00000097,false,Rx,0,8,13,C3,7F,CF,05,03,00,00,
7115038,00000097,false,Rx,0,8,2D,C4,7F,CF,05,03,00,00,
7115274,00000124,false,Rx,0,8,D4,01,98,4F,4A,15,00,5D,
7122277,0000038B,false,Rx,0,8,FE,01,00,BC,F2,CA,AB,7F,
7122572,12DD5472,true,Rx,0,8,00,00,00,00,00,00,00,00,
7122811,00000565,false,Rx,0,8,00,00,00,00,0C,08,80,FF,
7123060,00000594,false,Rx,0,8,00,00,00,00,00,00,10,09,
7123351,17F00044,true,Rx,0,8,20,44,00,00,00,00,00,80,
7123600,0000067E,false,Rx,0,8,FA,02,00,00,3B,00,00,40,
7123870,1A555457,true,Rx,0,8,01,38,32,41,4B,00,00,00,
7124149,1A555490,true,Rx,0,8,AA,AA,08,80,A2,2A,AA,02,
7124429,1A555491,true,Rx,0,8,AA,58,A8,02,00,00,00,80,
7125038,00000097,false,Rx,0,8,B9,C5,7F,CF,05,03,00,00,
7127502,1B000044,true,Rx,0,8,44,00,41,00,04,00,00,00,
7135038,00000097,false,Rx,0,8,0F,C6,7F,CF,05,03,00,00,
7135274,00000124,false,Rx,0,8,97,02,98,4F,4A,15,00,5D,
7137455,00000566,false,Rx,0,8,4A,0A,FE,01,FA,E7,15,00,
7145038,00000097,false,Rx,0,8,85,C7,7F,CF,05,03,00,00,
7155045,00000097,false,Rx,0,8,67,C8,7F,CF,05,03,00,00,
7155281,00000124,false,Rx,0,8,DE,03,98,4F,4A,15,00,5D,
7165048,00000097,false,Rx,0,8,5A,C9,7F,CF,05,03,00,00,
7165295,00000187,false,Rx,0,8,E2,0F,12,00,00,00,30,00,
7165543,000003A6,false,Rx,0,8,92,00,10,00,00,01,00,00,
7165782,000003AF,false,Rx,0,8,DA,60,09,21,D8,B1,00,00,
7166021,00000489,false,Rx,0,8,DC,00,00,F4,25,CE,2F,00,
7175043,00000097,false,Rx,0,8,82,CA,7F,CF,05,03,00,00,
7175280,00000124,false,Rx,0,8,61,04,98,4F,4A,15,00,5D,
7178626,17332510,true,Rx,0,4,49,50,1F,00,00,00,00,00,
7185033,00000097,false,Rx,0,8,9D,CB,7F,CF,05,03,00,00,
7195039,00000097,false,Rx,0,8,ED,CC,7F,CF,05,03,00,00,
7195277,00000124,false,Rx,0,8,9C,05,98,4F,4A,15,00,5D,
7205044,00000097,false,Rx,0,8,34,CD,7F,CF,05,03,00,00,
7215044,00000097,false,Rx,0,8,A2,CE,7F,CF,05,03,00,00,
7215279,00000124,false,Rx,0,8,1F,06,98,4F,4A,15,00,5D,
7222314,0000038B,false,Rx,0,8,FE,01,00,BC,F2,CA,AB,7F,
7225045,00000097,false,Rx,0,8,E0,CF,7F,CF,05,03,00,00,
7235042,00000097,false,Rx,0,8,68,C0,7F,CF,05,03,00,00,
7235277,00000124,false,Rx,0,8,63,07,98,4F,4A,15,00,5D,
7237500,00000566,false,Rx,0,8,AC,2B,FE,01,FA,E7,15,00,
7245041,00000097,false,Rx,0,8,CE,C1,7F,CF,05,03,00,00,
7255039,00000097,false,Rx,0,8,09,C2,7F,CF,05,03,00,00,
7255285,00000124,false,Rx,0,8,58,08,98,4F,4A,15,00,5D,
7265044,00000097,false,Rx,0,8,13,C3,7F,CF,05,03,00,00,
7265289,00000187,false,Rx,0,8,92,00,12,00,00,00,30,00,
7265538,000003A6,false,Rx,0,8,6F,01,10,00,00,01,00,00,
7265777,000003AF,false,Rx,0,8,D3,61,09,21,D8,B1,00,00,
7266005,00000489,false,Rx,0,8,55,01,00,F4,25,CE,2F,00,
7275039,00000097,false,Rx,0,8,2D,C4,7F,CF,05,03,00,00,
7275274,00000124,false,Rx,0,8,AA,09,98,4F,4A,15,00,5D,
7277518,00000565,false,Rx,0,8,00,00,00,15,0C,08,80,FF,
7285040,00000097,false,Rx,0,8,B9,C5,7F,CF,05,03,00,00,
7295039,00000097,false,Rx,0,8,0F,C6,7F,CF,05,03,00,00,
7295285,00000124,false,Rx,0,8,D8,0A,98,4F,4A,15,00,5D,
7305044,00000097,false,Rx,0,8,85,C7,7F,CF,05,03,00,00,
7308646,17332510,true,Rx,0,3,49,5C,21,00,00,00,00,00,
7315045,00000097,false,Rx,0,8,67,C8,7F,CF,05,03,00,00,
7315281,00000124,false,Rx,0,8,F3,0B,98,4F,4A,15,00,5D,
7322355,0000038B,false,Rx,0,8,FE,01,00,BC,F2,CA,AB,7F,
7325045,00000097,false,Rx,0,8,5A,C9,7F,CF,05,03,00,00,
7327603,1B000044,true,Rx,0,8,44,00,41,00,04,00,00,00,
7332366,00000565,false,Rx,0,8,00,20,00,15,0C,08,80,FF,
7335048,00000097,false,Rx,0,8,82,CA,7F,CF,05,03,00,00,
7335283,00000124,false,Rx,0,8,DD,0C,98,4F,4A,15,00,5D,
7337548,00000566,false,Rx,0,8,6D,2C,FE,01,FA,E7,15,00,
7345038,00000097,false,Rx,0,8,9D,CB,7F,CF,05,03,00,00,
7355035,00000097,false,Rx,0,8,ED,CC,7F,CF,05,03,00,00,
7355281,00000124,false,Rx,0,8,6C,0D,98,4F,4A,15,00,5D,
7358637,17332510,true,Rx,0,3,49,5E,03,00,00,00,00,00,
7365045,00000097,false,Rx,0,8,34,CD,7F,CF,05,03,00,00,
7365301,00000187,false,Rx,0,8,E5,01,12,00,00,00,30,00,
7365549,000003A6,false,Rx,0,8,AC,02,10,00,00,01,00,00,
7365788,000003AF,false,Rx,0,8,4E,62,09,21,D8,B1,00,00,
7366016,00000489,false,Rx,0,8,42,02,00,F4,25,CE,2F,00,
7375040,00000097,false,Rx,0,8,A2,CE,7F,CF,05,03,00,00,
7375275,00000124,false,Rx,0,8,AC,0E,98,4F,4A,15,00,5D,
7385043,00000097,false,Rx,0,8,E0,CF,7F,CF,05,03,00,00,
7395040,00000097,false,Rx,0,8,68,C0,7F,CF,05,03,00,00,
7395275,00000124,false,Rx,0,8,41,0F,98,4F,4A,15,00,5D,
7405044,00000097,false,Rx,0,8,CE,C1,7F,CF,05,03,00,00,
7408720,17332510,true,Rx,0,4,49,50,1F,01,00,00,00,00,
7415038,00000097,false,Rx,0,8,09,C2,7F,CF,05,03,00,00,
7415283,00000124,false,Rx,0,8,CE,00,98,4F,4A,15,00,5D,
7422400,0000038B,false,Rx,0,8,FE,01,00,BC,F2,CA,AB,7F,
7425047,00000097,false,Rx,0,8,13,C3,7F,CF,05,03,00,00,
7435044,00000097,false,Rx,0,8,2D,C4,7F,CF,05,03,00,00,
7435280,00000124,false,Rx,0,8,D4,01,98,4F,4A,15,00,5D,
7437575,00000566,false,Rx,0,8,CA,2D,FE,01,FA,E7,15,00,
7445045,00000097,false,Rx,0,8,B9,C5,7F,CF,05,03,00,00,
7455042,00000097,false,Rx,0,8,0F,C6,7F,CF,05,03,00,00,
7455278,00000124,false,Rx,0,8,97,02,98,4F,4A,15,00,5D,
7458748,17331102,true,Rx,0,2,14,42,00,00,00,00,00,00,
7465041,00000097,false,Rx,0,8,85,C7,7F,CF,05,03,00,00,
7465287,00000187,false,Rx,0,8,98,02,12,00,00,00,30,00,
7465536,000003A6,false,Rx,0,8,E0,03,10,00,00,01,00,00,
7465785,000003AF,false,Rx,0,8,0D,63,09,21,D8,B1,00,00,
7466012,00000489,false,Rx,0,8,A7,03,00,F4,25,CE,2F,00,
7475039,00000097,false,Rx,0,8,67,C8,7F,CF,05,03,00,00,
7475284,00000124,false,Rx,0,8,DE,03,98,4F,4A,15,00,5D,
7485043,00000097,false,Rx,0,8,5A,C9,7F,CF,05,03,00,00,
7495050,00000097,false,Rx,0,8,82,CA,7F,CF,05,03,00,00,
7495285,00000124,false,Rx,0,8,61,04,98,4F,4A,15,00,5D,
7505034,00000097,false,Rx,0,8,9D,CB,7F,CF,05,03,00,00,
7515041,00000097,false,Rx,0,8,ED,CC,7F,CF,05,03,00,00,
7515277,00000124,false,Rx,0,8,9C,05,98,4F,4A,15,00,5D,
7522435,0000038B,false,Rx,0,8,FE,01,01,BC,F2,CA,AB,7F,
7525041,00000097,false,Rx,0,8,34,CD,7F,CF,05,03,00,00,
7527661,1B000044,true,Rx,0,8,44,00,41,00,04,00,00,00,
7535034,00000097,false,Rx,0,8,A2,CE,7F,CF,05,03,00,00,
7535280,00000124,false,Rx,0,8,1F,06,98,4F,4A,15,00,5D,
7537618,00000566,false,Rx,0,8,54,2E,FE,01,FA,E7,15,00,
7545045,00000097,false,Rx,0,8,E0,CF,7F,CF,05,03,00,00,
7555043,00000097,false,Rx,0,8,68,C0,7F,CF,05,03,00,00,
7555279,00000124,false,Rx,0,8,63,07,98,4F,4A,15,00,5D,
7565048,00000097,false,Rx,0,8,CE,C1,7F,CF,05,03,00,00,
7565295,00000187,false,Rx,0,8,C4,03,12,00,00,00,30,00,
7565543,000003A6,false,Rx,0,8,A0,04,10,00,00,01,00,00,
7565781,000003AF,false,Rx,0,8,7E,64,09,21,D8,B1,00,00,
7566031,00000489,false,Rx,0,8,2C,04,00,F4,25,CE,2F,00,
7566270,000006A3,false,Rx,0,8,D7,E3,15,3E,6C,66,03,00,
7566518,000006A4,false,Rx,0,8,F0,03,42,3F,43,03,00,00,
7572461,00000564,false,Rx,0,8,1D,02,79,00,F8,17,28,01,
7575047,00000097,false,Rx,0,8,09,C2,7F,CF,05,03,00,00,
7575284,00000124,false,Rx,0,8,58,08,98,4F,4A,15,00,5D,
7585040,00000097,false,Rx,0,8,13,C3,7F,CF,05,03,00,00,
7595048,00000097,false,Rx,0,8,2D,C4,7F,CF,05,03,00,00,
7595274,00000124,false,Rx,0,8,AA,09,98,4F,4A,15,00,5D,
7605041,00000097,false,Rx,0,8,B9,C5,7F,CF,05,03,00,00,
7615048,00000097,false,Rx,0,8,0F,C6,7F,CF,05,03,00,00,
7615285,00000124,false,Rx,0,8,D8,0A,98,4F,4A,15,00,5D,
7622473,0000038B,false,Rx,0,8,FE,01,01,BC,F2,CA,AB,7F,
7622769,12DD5472,true,Rx,0,8,00,00,00,00,00,00,00,00,
7623008,00000565,false,Rx,0,8,00,20,00,15,0C,08,80,FF,
7623258,00000594,false,Rx,0,8,00,00,00,00,00,12,20,09,
7623547,17F00044,true,Rx,0,8,20,44,00,00,00,00,00,80,
7623818,1A555490,true,Rx,0,8,AA,AA,08,80,A2,2A,AA,02,
7624097,1A555491,true,Rx,0,8,AA,58,A8,02,00,00,00,80,
7625043,00000097,false,Rx,0,8,85,C7,7F,CF,05,03,00,00,
7635043,00000097,false,Rx,0,8,67,C8,7F,CF,05,03,00,00,
7635279,00000124,false,Rx,0,8,F3,0B,98,4F,4A,15,00,5D,
7637667,00000566,false,Rx,0,8,A9,2F,FE,01,FA,E7,15,00,
7645043,00000097,false,Rx,0,8,5A,C9,7F,CF,05,03,00,00,
7655050,00000097,false,Rx,0,8,82,CA,7F,CF,05,03,00,00,
7655287,00000124,false,Rx,0,8,DD,0C,98,4F,4A,15,00,5D,
7665044,00000097,false,Rx,0,8,9D,CB,7F,CF,05,03,00,00,
7665291,00000187,false,Rx,0,8,5C,04,12,00,00,00,30,00,
7665539,000003A6,false,Rx,0,8,50,05,10,00,00,01,00,00,
7665767,000003AF,false,Rx,0,8,72,65,09,21,D8,B1,00,00,
7666006,00000489,false,Rx,0,8,F8,05,00,F4,25,CE,2F,00,
7675039,00000097,false,Rx,0,8,ED,CC,7F,CF,05,03,00,00,
7675285,00000124,false,Rx,0,8,6C,0D,98,4F,4A,15,00,5D,
7678889,17332510,true,Rx,0,8,80,09,49,51,11,00,FF,FF,
7685051,00000097,false,Rx,0,8,34,CD,7F,CF,05,03,00,00,
7695039,00000097,false,Rx,0,8,A2,CE,7F,CF,05,03,00,00,
7695274,00000124,false,Rx,0,8,AC,0E,98,4F,4A,15,00,5D,
7705042,00000097,false,Rx,0,8,E0,CF,7F,CF,05,03,00,00,
7715049,00000097,false,Rx,0,8,68,C0,7F,CF,05,03,00,00,
7715284,00000124,false,Rx,0,8,41,0F,98,4F,4A,15,00,5D,
7722515,0000038B,false,Rx,0,8,FE,01,01,BC,F2,CA,AB,7F,
7725040,00000097,false,Rx,0,8,CE,C1,7F,CF,05,03,00,00,
7727761,1B000044,true,Rx,0,8,44,00,41,00,04,00,00,00,
7728893,17332510,true,Rx,0,4,49,50,1F,21,00,00,00,00,
7735048,00000097,false,Rx,0,8,09,C2,7F,CF,05,03,00,00,
7735284,00000124,false,Rx,0,8,CE,00,98,4F,4A,15,00,5D,
7737713,00000566,false,Rx,0,8,8E,20,FE,01,FB,E7,15,00,
7745049,00000097,false,Rx,0,8,13,C3,7F,CF,05,03,00,00,
7755045,00000097,false,Rx,0,8,2D,C4,7F,CF,05,03,00,00,
7755281,00000124,false,Rx,0,8,D4,01,98,4F,4A,15,00,5D,
7765038,00000097,false,Rx,0,8,B9,C5,7F,CF,05,03,00,00,
7765284,00000187,false,Rx,0,8,B8,05,12,00,00,00,30,00,
7765532,000003A6,false,Rx,0,8,D2,06,10,00,00,01,00,00,
7765772,000003AF,false,Rx,0,8,EA,66,09,21,D8,B1,00,00,
7766010,00000489,false,Rx,0,8,C5,06,00,F4,25,CE,2F,00,
7775044,00000097,false,Rx,0,8,0F,C6,7F,CF,05,03,00,00,
7775279,00000124,false,Rx,0,8,97,02,98,4F,4A,15,00,5D,
7778915,17332510,true,Rx,0,6,C0,FF,FF,01,FF,01,00,00,
7785045,00000097,false,Rx,0,8,85,C7,7F,CF,05,03,00,00,
7795041,00000097,false,Rx,0,8,67,C8,7F,CF,05,03,00,00,
7795287,00000124,false,Rx,0,8,DE,03,98,4F,4A,15,00,5D,
7805045,00000097,false,Rx,0,8,5A,C9,7F,CF,05,03,00,00,
7815054,00000097,false,Rx,0,8,82,CA,7F,CF,05,03,00,00,
7815289,00000124,false,Rx,0,8,61,04,98,4F,4A,15,00,5D,
7822563,0000038B,false,Rx,0,8,FE,01,01,BC,F2,CA,AB,7F,
7825035,00000097,false,Rx,0,8,9D,CB,7F,CF,05,03,00,00,
7835044,00000097,false,Rx,0,8,ED,CC,7F,CF,05,03,00,00,
7835279,00000124,false,Rx,0,8,9C,05,98,4F,4A,15,00,5D,
7837739,00000566,false,Rx,0,8,D0,21,FE,01,FB,E7,15,00,
7845044,00000097,false,Rx,0,8,34,CD,7F,CF,05,03,00,00,
7855040,00000097,false,Rx,0,8,A2,CE,7F,CF,05,03,00,00,
7855275,00000124,false,Rx,0,8,1F,06,98,4F,4A,15,00,5D,
7865044,00000097,false,Rx,0,8,E0,CF,7F,CF,05,03,00,00,
7865290,00000187,false,Rx,0,8,1E,06,12,00,00,00,30,00,
7865539,000003A6,false,Rx,0,8,3A,07,10,00,00,01,00,00,
7865777,000003AF,false,Rx,0,8,86,67,09,21,D8,B1,00,00,
7866016,00000489,false,Rx,0,8,92,07,00,F4,25,CE,2F,00,
7875049,00000097,false,Rx,0,8,68,C0,7F,CF,05,03,00,00,
7875285,00000124,false,Rx,0,8,63,07,98,4F,4A,15,00,5D,
7885044,00000097,false,Rx,0,8,CE,C1,7F,CF,05,03,00,00,
7895040,00000097,false,Rx,0,8,09,C2,7F,CF,05,03,00,00,
7895277,00000124,false,Rx,0,8,58,08,98,4F,4A,15,00,5D,
7905045,00000097,false,Rx,0,8,13,C3,7F,CF,05,03,00,00,
7915043,00000097,false,Rx,0,8,2D,C4,7F,CF,05,03,00,00,
7915278,00000124,false,Rx,0,8,AA,09,98,4F,4A,15,00,5D,
7922601,0000038B,false,Rx,0,8,FE,01,01,BC,F2,CA,AB,7F,
7925042,00000097,false,Rx,0,8,B9,C5,7F,CF,05,03,00,00,
7927817,1B000044,true,Rx,0,8,44,00,41,00,04,00,00,00,
7935046,00000097,false,Rx,0,8,0F,C6,7F,CF,05,03,00,00,
7935281,00000124,false,Rx,0,8,D8,0A,98,4F,4A,15,00,5D,
7937772,00000566,false,Rx,0,8,54,22,FE,01,FB,E7,15,00,
7945046,00000097,false,Rx,0,8,85,C7,7F,CF,05,03,00,00,
7955043,00000097,false,Rx,0,8,67,C8,7F,CF,05,03,00,00,
7955289,00000124,false,Rx,0,8,F3,0B,98,4F,4A,15,00,5D,
7965038,00000097,false,Rx,0,8,5A,C9,7F,CF,05,03,00,00,
7965294,00000187,false,Rx,0,8,7C,07,12,00,00,00,30,00,
7965544,000003A6,false,Rx,0,8,95,08,10,00,00,01,00,00,
7965771,000003AF,false,Rx,0,8,59,68,09,21,D8,B1,00,00,
7966010,00000489,false,Rx,0,8,B0,08,00,F4,25,CE,2F,00,
7975044,00000097,false,Rx,0,8,82,CA,7F,CF,05,03,00,00,
7975289,00000124,false,Rx,0,8,DD,0C,98,4F,4A,15,00,5D,
7985048,00000097,false,Rx,0,8,9D,CB,7F,CF,05,03,00,00,
7995045,00000097,false,Rx,0,8,ED,CC,7F,CF,05,03,00,00,
7995280,00000124,false,Rx,0,8,6C,0D,98,4F,4A,15,00,5D,
8005049,00000097,false,Rx,0,8,34,CD,7F,CF,05,03,00,00,
8015045,00000097,false,Rx,0,8,A2,CE,7F,CF,05,03,00,00,
8015280,00000124,false,Rx,0,8,AC,0E,98,4F,4A,15,00,5D,
8022645,0000038B,false,Rx,0,8,FE,01,01,BC,F2,CA,AB,7F,
8025046,00000097,false,Rx,0,8,E0,CF,7F,CF,05,03,00,00,
8035043,00000097,false,Rx,0,8,68,C0,7F,CF,05,03,00,00,
8035279,00000124,false,Rx,0,8,41,0F,98,4F,4A,15,00,5D,
8037821,00000566,false,Rx,0,8,92,23,FE,01,FB,E7,15,00,
8045043,00000097,false,Rx,0,8,CE,C1,7F,CF,05,03,00,00,
8055050,00000097,false,Rx,0,8,09,C2,7F,CF,05,03,00,00,
8055287,00000124,false,Rx,0,8,CE,00,98,4F,4A,15,00,5D,
8059086,17331102,true,Rx,0,2,14,42,00,00,00,00,00,00,
8065039,00000097,false,Rx,0,8,13,C3,7F,CF,05,03,00,00,
8065286,00000187,false,Rx,0,8,4D,08,12,00,00,00,30,00,
8065534,000003A6,false,Rx,0,8,F8,09,10,00,00,01,00,00,
8065772,000003AF,false,Rx,0,8,33,69,09,21,D8,B1,00,00,
8066012,00000489,false,Rx,0,8,2A,09,00,F4,25,CE,2F,00,
8066261,000006A3,false,Rx,0,8,2F,E4,15,3E,6C,66,03,00,
8066500,000006A4,false,Rx,0,8,5D,04,42,3F,43,03,00,00,
8075043,00000097,false,Rx,0,8,2D,C4,7F,CF,05,03,00,00,
8075279,00000124,false,Rx,0,8,D4,01,98,4F,4A,15,00,5D,
8085046,00000097,false,Rx,0,8,B9,C5,7F,CF,05,03,00,00,
8095043,00000097,false,Rx,0,8,0F,C6,7F,CF,05,03,00,00,
8095279,00000124,false,Rx,0,8,97,02,98,4F,4A,15,00,5D,
8105036,00000097,false,Rx,0,8,85,C7,7F,CF,05,03,00,00,
8115054,00000097,false,Rx,0,8,67,C8,7F,CF,05,03,00,00,
8115290,00000124,false,Rx,0,8,DE,03,98,4F,4A,15,00,5D,
8122676,0000038B,false,Rx,0,8,FE,01,01,BC,F2,CA,AB,7F,
8122973,12DD5472,true,Rx,0,8,00,00,00,00,00,00,00,00,
8123211,00000565,false,Rx,0,8,00,20,00,15,0C,08,80,FF,
8123452,00000594,false,Rx,0,8,00,00,00,00,00,12,30,09,
8123742,17F00044,true,Rx,0,8,20,44,00,00,00,00,00,80,
8123980,0000067E,false,Rx,0,8,63,03,16,00,3B,00,00,04,
8124271,1A555457,true,Rx,0,8,02,30,33,30,30,00,00,00,
8124531,1A555490,true,Rx,0,8,AA,AA,08,80,A2,2A,AA,02,
8124819,1A555491,true,Rx,0,8,AA,58,A8,02,00,00,00,80,
8125057,00000097,false,Rx,0,8,5A,C9,7F,CF,05,03,00,00,
8127922,1B000044,true,Rx,0,8,44,00,41,00,04,00,00,00,
8135054,00000097,false,Rx,0,8,82,CA,7F,CF,05,03,00,00,
8135281,00000124,false,Rx,0,8,61,04,98,4F,4A,15,00,5D,
8137875,00000566,false,Rx,0,8,1F,24,FE,01,FB,E7,15,00,
8145045,00000097,false,Rx,0,8,9D,CB,7F,CF,05,03,00,00,
8155042,00000097,false,Rx,0,8,ED,CC,7F,CF,05,03,00,00,
8155279,00000124,false,Rx,0,8,9C,05,98,4F,4A,15,00,5D,
8165047,00000097,false,Rx,0,8,34,CD,7F,CF,05,03,00,00,
8165292,00000187,false,Rx,0,8,D7,09,12,00,00,00,30,00,
8165541,000003A6,false,Rx,0,8,18,0A,10,00,00,01,00,00,
8165779,000003AF,false,Rx,0,8,06,6A,09,21,D8,B1,00,00,
8166018,00000489,false,Rx,0,8,93,0A,00,F4,25,CE,2F,00,
8175041,00000097,false,Rx,0,8,A2,CE,7F,CF,05,03,00,00,
8175276,00000124,false,Rx,0,8,1F,06,98,4F,4A,15,00,5D,
8185045,00000097,false,Rx,0,8,E0,CF,7F,CF,05,03,00,00,
8187890,00000594,false,Rx,0,8,00,00,00,00,02,32,30,09,
8195049,00000097,false,Rx,0,8,68,C0,7F,CF,05,03,00,00,
8195284,00000124,false,Rx,0,8,63,07,98,4F,4A,15,00,5D,
8205041,00000097,false,Rx,0,8,CE,C1,7F,CF,05,03,00,00,
8215050,00000097,false,Rx,0,8,09,C2,7F,CF,05,03,00,00,
8215285,00000124,false,Rx,0,8,58,08,98,4F,4A,15,00,5D,
8222723,0000038B,false,Rx,0,8,FE,01,00,BC,F2,CA,AB,7F,
8225040,00000097,false,Rx,0,8,13,C3,7F,CF,05,03,00,00,
8235039,00000097,false,Rx,0,8,2D,C4,7F,CF,05,03,00,00,
8235284,00000124,false,Rx,0,8,AA,09,98,4F,4A,15,00,5D,
8237899,00000566,false,Rx,0,8,68,25,FE,21,FB,E7,15,00,
8245040,00000097,false,Rx,0,8,B9,C5,7F,CF,05,03,00,00,
8255049,00000097,false,Rx,0,8,0F,C6,7F,CF,05,03,00,00,
8255284,00000124,false,Rx,0,8,D8,0A,98,4F,4A,15,00,5D,
8265044,00000097,false,Rx,0,8,85,C7,7F,CF,05,03,00,00,
8265290,00000187,false,Rx,0,8,27,0A,12,00,00,00,30,00,
8265538,000003A6,false,Rx,0,8,74,0B,10,00,00,01,00,00,
8265788,000003AF,false,Rx,0,8,3A,6B,09,21,D8,B1,00,00,
8266016,00000489,false,Rx,0,8,78,0B,00,F4,25,CE,2F,00,
8275050,00000097,false,Rx,0,8,67,C8,7F,CF,05,03,00,00,
8275285,00000124,false,Rx,0,8,F3,0B,98,4F,4A,15,00,5D,
8285044,00000097,false,Rx,0,8,83,C9,7F,CF,15,03,00,00,
8295040,00000097,false,Rx,0,8,5B,CA,7F,CF,15,03,00,00,
8295276,00000124,false,Rx,0,8,DD,0C,98,4F,4A,15,00,5D,
8305044,00000097,false,Rx,0,8,44,CB,7F,CF,15,03,00,00,
8315040,00000097,false,Rx,0,8,34,CC,7F,CF,15,03,00,00,
8315277,00000124,false,Rx,0,8,6C,0D,98,4F,4A,15,00,5D,
8322756,0000038B,false,Rx,0,8,FE,01,00,BC,F2,CA,AB,7F,
8325043,00000097,false,Rx,0,8,ED,CD,7F,CF,15,03,00,00,
8327983,1B000044,true,Rx,0,8,44,00,41,00,04,00,00,00,
8335038,00000097,false,Rx,0,8,7B,CE,7F,CF,15,03,00,00,
8335273,00000124,false,Rx,0,8,AC,0E,98,4F,4A,15,00,5D,
8337929,00000566,false,Rx,0,8,93,26,FE,21,FB,E7,15,00,
8345038,00000097,false,Rx,0,8,39,CF,7F,CF,15,03,00,00,
8355045,00000097,false,Rx,0,8,B1,C0,7F,CF,15,03,00,00,
8355280,00000124,false,Rx,0,8,41,0F,98,4F,4A,15,00,5D,
8365049,00000097,false,Rx,0,8,17,C1,7F,CF,15,03,00,00,
8365294,00000187,false,Rx,0,8,70,8B,12,00,00,00,30,00,
8365544,000003A6,false,Rx,0,8,3A,0C,41,00,04,01,00,00,
8365782,000003AF,false,Rx,0,8,24,6C,09,21,D8,B1,00,00,
8366020,00000489,false,Rx,0,8,F5,0C,00,F4,25,CE,2F,00,
8375043,00000097,false,Rx,0,8,1C,C2,7F,CF,45,03,00,00,
8375279,00000124,false,Rx,0,8,CE,00,98,4F,4A,15,00,5D,
8385038,00000097,false,Rx,0,8,06,C3,7F,CF,45,03,00,00,
8395045,00000097,false,Rx,0,8,38,C4,7F,CF,45,03,00,00,
8395280,00000124,false,Rx,0,8,D4,01,98,4F,4A,15,00,5D,
8397967,00000565,false,Rx,0,8,00,20,00,95,0C,08,80,FF,
8405045,00000097,false,Rx,0,8,AC,C5,7F,CF,45,03,00,00,
8415041,00000097,false,Rx,0,8,1A,C6,7F,CF,45,03,00,00,
8415276,00000124,false,Rx,0,8,97,02,98,4F,4A,15,00,5D,
8422796,0000038B,false,Rx,0,8,FE,01,00,BC,F2,CA,AB,7F,
8425041,00000097,false,Rx,0,8,90,C7,7F,CF,45,03,00,00,
8429224,17332510,true,Rx,0,3,49,5C,13,00,00,00,00,00,
8435044,00000097,false,Rx,0,8,72,C8,7F,CF,45,03,00,00,
8435279,00000124,false,Rx,0,8,DE,03,98,4F,4A,15,00,5D,
8437976,00000566,false,Rx,0,8,F2,27,FE,25,FF,E7,15,00,
8445044,00000097,false,Rx,0,8,4F,C9,7F,CF,45,03,00,00,
8452823,00000565,false,Rx,0,8,00,60,00,95,0C,08,80,FF,
8455047,00000097,false,Rx,0,8,97,CA,7F,CF,45,03,00,00,
8455283,00000124,false,Rx,0,8,61,04,98,4F,4A,15,00,5D,
8465040,00000097,false,Rx,0,8,88,CB,7F,CF,45,03,00,00,
8465287,00000187,false,Rx,0,8,B1,8C,12,00,00,00,30,00,
8465537,000003A6,false,Rx,0,8,CD,0D,41,00,04,01,00,00,
8465775,000003AF,false,Rx,0,8,F8,6D,09,21,D8,B1,00,00,
8466013,00000489,false,Rx,0,8,58,0D,00,F4,25,CE,2F,00,
8475038,00000097,false,Rx,0,8,F8,CC,7F,CF,45,03,00,00,
8475284,00000124,false,Rx,0,8,9C,05,98,4F,4A,15,00,5D,
8479302,17332510,true,Rx,0,8,80,09,49,51,12,00,00,00,
8485038,00000097,false,Rx,0,8,21,CD,7F,CF,45,03,00,00,
8495044,00000097,false,Rx,0,8,B7,CE,7F,CF,45,03,00,00,
8495280,00000124,false,Rx,0,8,1F,06,98,4F,4A,15,00,5D,
8505038,00000097,false,Rx,0,8,F5,CF,7F,CF,45,03,00,00,
8515045,00000097,false,Rx,0,8,7D,C0,7F,CF,45,03,00,00,
8515282,00000124,false,Rx,0,8,63,07,98,4F,4A,15,00,5D,
8522841,0000038B,false,Rx,0,8,FE,01,00,BC,F2,CA,AB,7F,
8525045,00000097,false,Rx,0,8,DB,C1,7F,CF,45,03,00,00,
8528080,1B000044,true,Rx,0,8,44,00,41,00,04,00,00,00,
8529367,17332510,true,Rx,0,6,C0,FF,FF,01,FF,51,00,00,
8535046,00000097,false,Rx,0,8,1C,C2,7F,CF,45,03,00,00,
8535283,00000124,false,Rx,0,8,58,08,98,4F,4A,15,00,5D,
8538030,00000566,false,Rx,0,8,F7,28,FE,25,0B,E8,15,00,
8545048,00000097,false,Rx,0,8,06,C3,7F,CF,45,03,00,00,
8555045,00000097,false,Rx,0,8,38,C4,7F,CF,45,03,00,00,
8555281,00000124,false,Rx,0,8,AA,09,98,4F,4A,15,00,5D,
8565048,00000187,false,Rx,0,8,81,8D,12,00,00,00,30,5D,
8565285,000003A6,false,Rx,0,8,99,0E,41,00,04,01,00,00,
8565523,000003AF,false,Rx,0,8,A6,6E,09,21,D8,B1,00,00,
8565761,00000489,false,Rx,0,8,70,0E,00,F4,25,CE,2F,00,
8566001,000006A3,false,Rx,0,8,D9,E5,15,3E,6C,66,03,00,
8566251,000006A4,false,Rx,0,8,C3,05,42,3F,43,03,00,00,
8566489,00000097,false,Rx,0,8,AC,C5,7F,CF,45,03,00,00,
8572866,00000564,false,Rx,0,8,F6,13,72,00,F8,27,28,00,
8575038,00000097,false,Rx,0,8,1A,C6,7F,CF,45,03,00,00,
8575274,00000124,false,Rx,0,8,D8,0A,98,4F,4A,15,00,5D,
8585044,00000097,false,Rx,0,8,90,C7,7F,CF,45,03,00,00,
8595041,00000097,false,Rx,0,8,72,C8,7F,CF,45,03,00,00,
8595277,00000124,false,Rx,0,8,F3,0B,98,4F,4A,15,00,5D,
8605045,00000097,false,Rx,0,8,4F,C9,7F,CF,45,03,00,00,
8615043,00000097,false,Rx,0,8,97,CA,7F,CF,45,03,00,00,
8615280,00000124,false,Rx,0,8,DD,0C,98,4F,4A,15,00,5D,
8622873,0000038B,false,Rx,0,8,FE,01,00,BC,F2,CA,AB,7F,
8623168,12DD5472,true,Rx,0,8,00,00,00,00,00,00,00,00,
8623408,00000565,false,Rx,0,8,00,60,00,95,0C,08,80,FF,
8623647,00000594,false,Rx,0,8,00,00,00,00,02,32,30,09,
8623937,17F00044,true,Rx,0,8,20,44,00,00,00,00,00,80,
8624216,1A555490,true,Rx,0,8,AA,0A,08,80,82,2A,A2,02,
8624498,1A555491,true,Rx,0,8,AA,58,A8,02,00,00,00,80,
8625041,00000097,false,Rx,0,8,88,CB,7F,CF,45,03,00,00,
8635049,00000097,false,Rx,0,8,F8,CC,7F,CF,45,03,00,00,
8635286,00000124,false,Rx,0,8,6C,0D,98,4F,4A,15,00,5D,
8638054,00000566,false,Rx,0,8,C7,29,FE,25,17,E8,15,00,
8645039,00000097,false,Rx,0,8,21,CD,7F,CF,45,03,00,00,
8655049,00000097,false,Rx,0,8,B7,CE,7F,CF,45,03,00,00,
8655284,00000124,false,Rx,0,8,AC,0E,98,4F,4A,15,00,5D,
8659332,17331102,true,Rx,0,2,14,42,00,00,00,00,00,00,
8665038,00000097,false,Rx,0,8,F5,CF,7F,CF,45,03,00,00,
8665284,00000187,false,Rx,0,8,94,8E,12,00,00,00,30,00,
8665532,000003A6,false,Rx,0,8,8F,0F,41,00,04,01,00,00,
8665770,000003AF,false,Rx,0,8,71,6F,09,21,D8,B1,00,00,
8666010,00000489,false,Rx,0,8,00,0F,00,F4,25,CE,2F,00,
8675045,00000097,false,Rx,0,8,7D,C0,7F,CF,45,03,00,00,
8675280,00000124,false,Rx,0,8,41,0F,98,4F,4A,15,00,5D,
8685049,00000097,false,Rx,0,8,DB,C1,7F,CF,45,03,00,00,
8695045,00000097,false,Rx,0,8,1C,C2,7F,CF,45,03,00,00,
8695281,00000124,false,Rx,0,8,CE,00,98,4F,4A,15,00,5D,
8705049,00000097,false,Rx,0,8,06,C3,7F,CF,45,03,00,00,
8715046,00000097,false,Rx,0,8,38,C4,7F,CF,45,03,00,00,
8715281,00000124,false,Rx,0,8,D4,01,98,4F,4A,15,00,5D,
8722915,0000038B,false,Rx,0,8,FE,01,00,BC,F2,CA,AB,7F,
8725046,00000097,false,Rx,0,8,AC,C5,7F,CF,45,03,00,00,
8728141,1B000044,true,Rx,0,8,44,00,41,00,04,00,00,00,
8735040,00000097,false,Rx,0,8,1A,C6,7F,CF,45,03,00,00,
8735275,00000124,false,Rx,0,8,97,02,98,4F,4A,15,00,5D,
8738096,00000566,false,Rx,0,8,26,2A,FE,25,23,E8,15,00,
8745041,00000097,false,Rx,0,8,90,C7,7F,CF,45,03,00,00,
8755039,00000097,false,Rx,0,8,72,C8,7F,CF,45,03,00,00,
8755284,00000124,false,Rx,0,8,DE,03,98,4F,4A,15,00,5D,
8765044,00000097,false,Rx,0,8,4F,C9,7F,CF,45,03,00,00,
8765290,00000187,false,Rx,0,8,61,8F,12,00,00,00,30,00,
8765528,000003A6,false,Rx,0,8,4F,00,41,00,04,01,00,00,
8765767,000003AF,false,Rx,0,8,DA,60,09,21,D8,B1,00,00,
8766015,00000489,false,Rx,0,8,DC,00,00,F4,25,CE,2F,00,
8775049,00000097,false,Rx,0,8,97,CA,7F,CF,45,03,00,00,
8775284,00000124,false,Rx,0,8,61,04,98,4F,4A,15,00,5D,
8785044,00000097,false,Rx,0,8,88,CB,7F,CF,45,03,00,00,
8795040,00000097,false,Rx,0,8,F8,CC,7F,CF,45,03,00,00,
8795276,00000124,false,Rx,0,8,9C,05,98,4F,4A,15,00,5D,
8805044,00000097,false,Rx,0,8,21,CD,7F,CF,45,03,00,00,
8815050,00000097,false,Rx,0,8,B7,CE,7F,CF,45,03,00,00,
8815286,00000124,false,Rx,0,8,1F,06,98,4F,4A,15,00,5D,
8822961,0000038B,false,Rx,0,8,FE,01,00,BC,F2,CA,AB,7F,
8825040,00000097,false,Rx,0,8,F5,CF,7F,CF,45,03,00,00,
8835039,00000097,false,Rx,0,8,7D,C0,7F,CF,45,03,00,00,
8835285,00000124,false,Rx,0,8,63,07,98,4F,4A,15,00,5D,
8838136,00000566,false,Rx,0,8,BA,2B,FE,25,2F,E8,15,00,
8845050,00000097,false,Rx,0,8,DB,C1,7F,CF,45,03,00,00,
8855048,00000097,false,Rx,0,8,1C,C2,7F,CF,45,03,00,00,
8855284,00000124,false,Rx,0,8,58,08,98,4F,4A,15,00,5D,
8865042,00000097,false,Rx,0,8,06,C3,7F,CF,45,03,00,00,
8865298,00000187,false,Rx,0,8,11,80,12,00,00,00,30,00,
8865547,000003A6,false,Rx,0,8,B2,01,41,00,04,01,00,00,
8865775,000003AF,false,Rx,0,8,D3,61,09,21,D8,B1,00,00,
8866013,00000489,false,Rx,0,8,55,01,00,F4,25,CE,2F,00,
8875048,00000097,false,Rx,0,8,38,C4,7F,CF,45,03,00,00,
8875284,00000124,false,Rx,0,8,AA,09,98,4F,4A,15,00,5D,
8885044,00000097,false,Rx,0,8,AC,C5,7F,CF,45,03,00,00,
8895040,00000097,false,Rx,0,8,1A,C6,7F,CF,45,03,00,00,
8895275,00000124,false,Rx,0,8,D8,0A,98,4F,4A,15,00,5D,
8905044,00000097,false,Rx,0,8,90,C7,7F,CF,45,03,00,00,
8915050,00000097,false,Rx,0,8,72,C8,7F,CF,45,03,00,00,
8915286,00000124,false,Rx,0,8,F3,0B,98,4F,4A,15,00,5D,
8923002,0000038B,false,Rx,0,8,FE,01,00,BC,F2,CA,AB,7F,
8925040,00000097,false,Rx,0,8,4F,C9,7F,CF,45,03,00,00,
8928250,1B000044,true,Rx,0,8,44,00,41,00,04,00,00,00,
8935044,00000097,false,Rx,0,8,97,CA,7F,CF,45,03,00,00,
8935280,00000124,false,Rx,0,8,DD,0C,98,4F,4A,15,00,5D,
8938182,00000566,false,Rx,0,8,59,2C,FE,25,37,E8,15,00,
8945045,00000097,false,Rx,0,8,88,CB,7F,CF,45,03,00,00,
8955042,00000097,false,Rx,0,8,F8,CC,7F,CF,45,03,00,00,
8955277,00000124,false,Rx,0,8,6C,0D,98,4F,4A,15,00,5D,
8965055,00000187,false,Rx,0,8,8F,81,12,00,00,00,30,01,
8965301,000003A6,false,Rx,0,8,71,02,41,00,04,01,00,00,
8965540,000003AF,false,Rx,0,8,4E,62,09,21,D8,B1,00,00,
8965778,00000489,false,Rx,0,8,42,02,00,F4,25,CE,2F,00,
8966017,00000097,false,Rx,0,8,21,CD,7F,CF,45,03,00,00,
8975050,00000097,false,Rx,0,8,B7,CE,7F,CF,45,03,00,00,
8975286,00000124,false,Rx,0,8,AC,0E,98,4F,4A,15,00,5D,
8985043,00000097,false,Rx,0,8,F5,CF,7F,CF,45,03,00,00,
8995050,00000097,false,Rx,0,8,7D,C0,7F,CF,45,03,00,00,
8995287,00000124,false,Rx,0,8,41,0F,98,4F,4A,15,00,5D,
9005043,00000097,false,Rx,0,8,DB,C1,7F,CF,45,03,00,00,
9015050,00000097,false,Rx,0,8,1C,C2,7F,CF,45,03,00,00,
9015287,00000124,false,Rx,0,8,CE,00,98,4F,4A,15,00,5D,
9023034,0000038B,false,Rx,0,8,FE,01,00,BC,F2,CA,AB,7F,
9025041,00000097,false,Rx,0,8,06,C3,7F,CF,45,03,00,00,
9035049,00000097,false,Rx,0,8,38,C4,7F,CF,45,03,00,00,
9035285,00000124,false,Rx,0,8,D4,01,98,4F,4A,15,00,5D,
9038218,00000566,false,Rx,0,8,45,2D,FE,25,43,E8,15,00,
9045050,00000097,false,Rx,0,8,AC,C5,7F,CF,45,03,00,00,
9055038,00000097,false,Rx,0,8,1A,C6,7F,CF,45,03,00,00,
9055274,00000124,false,Rx,0,8,97,02,98,4F,4A,15,00,5D,
9065041,00000097,false,Rx,0,8,90,C7,7F,CF,45,03,00,00,
9065288,00000187,false,Rx,0,8,E6,82,12,00,00,00,30,02,
9065547,000003A6,false,Rx,0,8,3D,03,41,00,04,01,00,00,
9065785,000003AF,false,Rx,0,8,0D,63,09,21,D8,B1,00,00,
9066014,00000489,false,Rx,0,8,A7,03,00,F4,25,CE,2F,00,
9066254,000006A3,false,Rx,0,8,9B,E6,15,3E,6C,66,03,00,
9066502,000006A4,false,Rx,0,8,D6,06,42,3F,43,03,00,00,
9075044,00000097,false,Rx,0,8,72,C8,7F,CF,45,03,00,00,
9075281,00000124,false,Rx,0,8,DE,03,98,4F,4A,15,00,5D,
9085048,00000097,false,Rx,0,8,4F,C9,7F,CF,45,03,00,00,
9095044,00000097,false,Rx,0,8,97,CA,7F,CF,45,03,00,00,
9095281,00000124,false,Rx,0,8,61,04,98,4F,4A,15,00,5D,
9105048,00000097,false,Rx,0,8,88,CB,7F,CF,45,03,00,00,
9115045,00000097,false,Rx,0,8,F8,CC,7F,CF,45,03,00,00,
9115282,00000124,false,Rx,0,8,9C,05,98,4F,4A,15,00,5D,
9123081,0000038B,false,Rx,0,8,FE,01,00,BC,F2,CA,AB,7F,
9123367,12DD5472,true,Rx,0,8,00,00,00,00,00,00,00,00,
9123607,00000565,false,Rx,0,8,00,60,00,95,0C,08,80,FF,
9123855,00000594,false,Rx,0,8,00,00,00,00,02,32,30,09,
9124145,17F00044,true,Rx,0,8,20,44,00,00,00,00,00,80,
9124376,0000067E,false,Rx,0,8,B2,24,16,00,7B,00,00,42,
9124655,1A555457,true,Rx,0,8,03,4B,59,46,41,00,00,00,
9124935,1A555490,true,Rx,0,8,AA,0A,08,80,82,2A,A2,02,
9125162,00000097,false,Rx,0,8,21,CD,7F,CF,45,03,00,00,
9125443,1A555491,true,Rx,0,8,AA,58,A8,02,00,00,00,80,
9128308,1B000044,true,Rx,0,8,44,00,41,00,04,00,00,00,
9135045,00000097,false,Rx,0,8,B7,CE,7F,CF,45,03,00,00,
9135280,00000124,false,Rx,0,8,1F,06,98,4F,4A,15,00,5D,
9138257,00000566,false,Rx,0,8,CA,2E,FE,25,4F,E8,15,00,
9145046,00000097,false,Rx,0,8,F5,CF,7F,CF,45,03,00,00,
9155044,00000097,false,Rx,0,8,7D,C0,7F,CF,45,03,00,00,
9155289,00000124,false,Rx,0,8,63,07,98,4F,4A,15,00,5D,
9165038,00000097,false,Rx,0,8,DB,C1,7F,CF,45,03,00,00,
9165294,00000187,false,Rx,0,8,53,83,12,00,00,00,30,03,
9165543,000003A6,false,Rx,0,8,7D,04,41,00,04,01,00,00,
9165782,000003AF,false,Rx,0,8,7E,64,09,21,D8,B1,00,00,
9166020,00000489,false,Rx,0,8,2C,04,00,F4,25,CE,2F,00,
9175054,00000097,false,Rx,0,8,1C,C2,7F,CF,45,03,00,00,
9175290,00000124,false,Rx,0,8,58,08,98,4F,4A,15,00,5D,
9185049,00000097,false,Rx,0,8,06,C3,7F,CF,45,03,00,00,
9195045,00000097,false,Rx,0,8,38,C4,7F,CF,45,03,00,00,
9195281,00000124,false,Rx,0,8,AA,09,98,4F,4A,15,00,5D,
9205039,00000097,false,Rx,0,8,AC,C5,7F,CF,45,03,00,00,
9215046,00000097,false,Rx,0,8,1A,C6,7F,CF,45,03,00,00,
9215281,00000124,false,Rx,0,8,D8,0A,98,4F,4A,15,00,5D,
9223122,0000038B,false,Rx,0,8,FE,01,00,BC,F2,CA,AB,7F,
9225047,00000097,false,Rx,0,8,90,C7,7F,CF,45,03,00,00,
9235044,00000097,false,Rx,0,8,72,C8,7F,CF,45,03,00,00,
9235279,00000124,false,Rx,0,8,F3,0B,98,4F,4A,15,00,5D,
9238306,00000566,false,Rx,0,8,EE,2F,FE,25,5F,E8,15,00,
9245044,00000097,false,Rx,0,8,4F,C9,7F,CF,45,03,00,00,
9255051,00000097,false,Rx,0,8,97,CA,7F,CF,45,03,00,00,
9255287,00000124,false,Rx,0,8,DD,0C,98,4F,4A,15,00,5D,
9265044,00000097,false,Rx,0,8,88,CB,7F,CF,45,03,00,00,
9265290,00000187,false,Rx,0,8,0A,84,12,00,00,00,30,04,
9265539,000003A6,false,Rx,0,8,8D,05,41,00,04,01,00,00,
9265768,000003AF,false,Rx,0,8,72,65,09,21,D8,B1,00,00,
9266016,00000489,false,Rx,0,8,F8,05,00,F4,25,CE,2F,00,
9275050,00000097,false,Rx,0,8,F8,CC,7F,CF,45,03,00,00,
9275286,00000124,false,Rx,0,8,6C,0D,98,4F,4A,15,00,5D,
9285044,00000097,false,Rx,0,8,21,CD,7F,CF,45,03,00,00,
9295050,00000097,false,Rx,0,8,B7,CE,7F,CF,45,03,00,00,
9295286,00000124,false,Rx,0,8,AC,0E,98,4F,4A,15,00,5D,
9305043,00000097,false,Rx,0,8,F5,CF,7F,CF,45,03,00,00,
9315050,00000097,false,Rx,0,8,7D,C0,7F,CF,45,03,00,00,
9315286,00000124,false,Rx,0,8,41,0F,98,4F,4A,15,00,5D,
9323157,0000038B,false,Rx,0,8,FE,01,00,BC,F2,CA,AB,7F,
9325041,00000097,false,Rx,0,8,DB,C1,7F,CF,45,03,00,00,
9328405,1B000044,true,Rx,0,8,44,00,41,00,04,00,00,00,
9335054,00000097,false,Rx,0,8,1C,C2,7F,CF,45,03,00,00,
9335289,00000124,false,Rx,0,8,CE,00,98,4F,4A,15,00,5D,
9338349,00000566,false,Rx,0,8,DB,20,FE,25,67,E8,15,00,
9345045,00000097,false,Rx,0,8,06,C3,7F,CF,45,03,00,00,
9355043,00000097,false,Rx,0,8,38,C4,7F,CF,45,03,00,00,
9355278,00000124,false,Rx,0,8,D4,01,98,4F,4A,15,00,5D,
9365047,00000097,false,Rx,0,8,AC,C5,7F,CF,45,03,00,00,
9365292,00000187,false,Rx,0,8,07,85,12,00,00,00,30,05,
9365542,000003A6,false,Rx,0,8,0F,06,41,00,04,01,00,00,
9365780,000003AF,false,Rx,0,8,EA,66,09,21,D8,B1,00,00,
9366018,00000489,false,Rx,0,8,C5,06,00,F4,25,CE,2F,00,
9375043,00000097,false,Rx,0,8,1A,C6,7F,CF,45,03,00,00,
9375278,00000124,false,Rx,0,8,97,02,98,4F,4A,15,00,5D,
9385046,00000097,false,Rx,0,8,90,C7,7F,CF,45,03,00,00,
9395043,00000097,false,Rx,0,8,72,C8,7F,CF,45,03,00,00,
9395289,00000124,false,Rx,0,8,DE,03,98,4F,4A,15,00,5D,
9405049,00000097,false,Rx,0,8,4F,C9,7F,CF,45,03,00,00,
9415045,00000097,false,Rx,0,8,97,CA,7F,CF,45,03,00,00,
9415281,00000124,false,Rx,0,8,61,04,98,4F,4A,15,00,5D,
9419723,17332510,true,Rx,0,8,39,42,03,00,25,00,04,04,
9423201,0000038B,false,Rx,0,8,FE,01,00,BC,F2,CA,AB,7F,
9425044,00000097,false,Rx,0,8,88,CB,7F,CF,45,03,00,00,
9435050,00000097,false,Rx,0,8,F8,CC,7F,CF,45,03,00,00,
9435285,00000124,false,Rx,0,8,9C,05,98,4F,4A,15,00,5D,
9438375,00000566,false,Rx,0,8,7E,21,FE,25,6F,E8,15,00,
9445050,00000097,false,Rx,0,8,21,CD,7F,CF,45,03,00,00,
9455048,00000097,false,Rx,0,8,B7,CE,7F,CF,45,03,00,00,
9455284,00000124,false,Rx,0,8,1F,06,98,4F,4A,15,00,5D,
9465043,00000097,false,Rx,0,8,F5,CF,7F,CF,45,03,00,00,
9465290,00000187,false,Rx,0,8,B5,86,12,00,00,00,30,06,
9465528,000003A6,false,Rx,0,8,E7,07,41,00,04,01,00,00,
9465766,000003AF,false,Rx,0,8,86,67,09,21,D8,B1,00,00,
9466004,00000489,false,Rx,0,8,92,07,00,F4,25,CE,2F,00,
9475048,00000097,false,Rx,0,8,7D,C0,7F,CF,45,03,00,00,
9475285,00000124,false,Rx,0,8,63,07,98,4F,4A,15,00,5D,
9485044,00000097,false,Rx,0,8,DB,C1,7F,CF,45,03,00,00,
9495050,00000097,false,Rx,0,8,1C,C2,7F,CF,45,03,00,00,
9495287,00000124,false,Rx,0,8,58,08,98,4F,4A,15,00,5D,
9505044,00000097,false,Rx,0,8,06,C3,7F,CF,45,03,00,00,
9515050,00000097,false,Rx,0,8,38,C4,7F,CF,45,03,00,00,
9515277,00000124,false,Rx,0,8,AA,09,98,4F,4A,15,00,5D,
9523240,0000038B,false,Rx,0,8,FE,01,00,BC,F2,CA,AB,7F,
9525051,00000097,false,Rx,0,8,AC,C5,7F,CF,45,03,00,00,
9528469,1B000044,true,Rx,0,8,44,00,41,00,04,00,00,00,
9535045,00000097,false,Rx,0,8,1A,C6,7F,CF,45,03,00,00,
9535283,00000124,false,Rx,0,8,D8,0A,98,4F,4A,15,00,5D,
9538423,00000566,false,Rx,0,8,FA,22,FE,25,6F,E8,15,00,
9545048,00000097,false,Rx,0,8,90,C7,7F,CF,45,03,00,00,
9555045,00000097,false,Rx,0,8,72,C8,7F,CF,45,03,00,00,
9555281,00000124,false,Rx,0,8,F3,0B,98,4F,4A,15,00,5D,
9565048,00000097,false,Rx,0,8,4F,C9,7F,CF,45,03,00,00,
9565295,00000187,false,Rx,0,8,3E,87,12,00,00,00,30,07,
9565543,000003A6,false,Rx,0,8,48,08,41,00,04,01,00,00,
9565782,000003AF,false,Rx,0,8,59,68,09,21,D8,B1,00,00,
9566021,00000489,false,Rx,0,8,B0,08,00,F4,25,CE,2F,00,
9566260,000006A3,false,Rx,0,8,FD,E7,15,3E,6C,66,03,00,
9566509,000006A4,false,Rx,0,8,DE,07,42,3F,43,03,00,00,
9573270,00000564,false,Rx,0,8,E5,14,72,00,F8,27,28,00,
9575048,00000097,false,Rx,0,8,97,CA,7F,CF,45,03,00,00,
9575289,00000124,false,Rx,0,8,DD,0C,98,4F,4A,15,00,5D,
9585048,00000097,false,Rx,0,8,88,CB,7F,CF,45,03,00,00,
9595044,00000097,false,Rx,0,8,F8,CC,7F,CF,45,03,00,00,
9595281,00000124,false,Rx,0,8,6C,0D,98,4F,4A,15,00,5D,
9605049,00000097,false,Rx,0,8,21,CD,7F,CF,45,03,00,00,
9615046,00000097,false,Rx,0,8,B7,CE,7F,CF,45,03,00,00,
9615281,00000124,false,Rx,0,8,AC,0E,98,4F,4A,15,00,5D,
9623277,0000038B,false,Rx,0,8,FE,01,00,BC,F2,CA,AB,7F,
9623574,12DD5472,true,Rx,0,8,00,00,00,00,00,00,00,00,
9623813,00000565,false,Rx,0,8,00,60,00,95,0C,08,80,FF,
9624051,00000594,false,Rx,0,8,00,00,00,00,02,32,30,09,
9624343,17F00044,true,Rx,0,8,20,44,00,00,00,00,00,80,
9624622,1A555490,true,Rx,0,8,AA,02,08,80,82,2A,A2,02,
9624901,1A555491,true,Rx,0,8,AA,58,A8,02,00,00,00,80,
9625130,00000097,false,Rx,0,8,F5,CF,7F,CF,45,03,00,00,
9635047,00000097,false,Rx,0,8,7D,C0,7F,CF,45,03,00,00,
9635282,00000124,false,Rx,0,8,41,0F,98,4F,4A,15,00,5D,
9638463,00000566,false,Rx,0,8,3C,23,FE,25,6F,E8,15,00,
9645047,00000097,false,Rx,0,8,DB,C1,7F,CF,45,03,00,00,
9655045,00000097,false,Rx,0,8,1C,C2,7F,CF,45,03,00,00,
9655290,00000124,false,Rx,0,8,CE,00,98,4F,4A,15,00,5D,
9665049,00000097,false,Rx,0,8,06,C3,7F,CF,45,03,00,00,
9665295,00000187,false,Rx,0,8,4B,88,12,00,00,00,30,08,
9665543,000003A6,false,Rx,0,8,25,09,41,00,04,01,00,00,
9665772,000003AF,false,Rx,0,8,33,69,09,21,D8,B1,00,00,
9666010,00000489,false,Rx,0,8,2A,09,00,F4,25,CE,2F,00,
9675044,00000097,false,Rx,0,8,38,C4,7F,CF,45,03,00,00,
9675279,00000124,false,Rx,0,8,D4,01,98,4F,4A,15,00,5D,
9685048,00000097,false,Rx,0,8,AC,C5,7F,CF,45,03,00,00,
9695045,00000097,false,Rx,0,8,1A,C6,7F,CF,45,03,00,00,
9695280,00000124,false,Rx,0,8,97,02,98,4F,4A,15,00,5D,
9705049,00000097,false,Rx,0,8,90,C7,7F,CF,45,03,00,00,
9715045,00000097,false,Rx,0,8,72,C8,7F,CF,45,03,00,00,
9715281,00000124,false,Rx,0,8,DE,03,98,4F,4A,15,00,5D,
9723320,0000038B,false,Rx,0,8,FE,01,00,BC,F2,CA,AB,7F,
9725048,00000097,false,Rx,0,8,4F,C9,7F,CF,45,03,00,00,
9728566,1B000044,true,Rx,0,8,44,00,41,00,04,00,00,00,
9735051,00000097,false,Rx,0,8,97,CA,7F,CF,45,03,00,00,
9735287,00000124,false,Rx,0,8,61,04,98,4F,4A,15,00,5D,
9738509,00000566,false,Rx,0,8,B1,24,FE,25,6F,E8,15,00,
9745052,00000097,false,Rx,0,8,88,CB,7F,CF,45,03,00,00,
9755040,00000097,false,Rx,0,8,F8,CC,7F,CF,45,03,00,00,
9755285,00000124,false,Rx,0,8,9C,05,98,4F,4A,15,00,5D,
9765044,00000097,false,Rx,0,8,21,CD,7F,CF,45,03,00,00,
9765289,00000187,false,Rx,0,8,38,89,12,00,00,00,30,09,
9765538,000003A6,false,Rx,0,8,C5,0A,41,00,04,01,00,00,
9765777,000003AF,false,Rx,0,8,06,6A,09,21,D8,B1,00,00,
9766005,00000489,false,Rx,0,8,93,0A,00,F4,25,CE,2F,00,
9775049,00000097,false,Rx,0,8,B7,CE,7F,CF,45,03,00,00,
9775284,00000124,false,Rx,0,8,1F,06,98,4F,4A,15,00,5D,
9785044,00000097,false,Rx,0,8,F5,CF,7F,CF,45,03,00,00,
9795051,00000097,false,Rx,0,8,7D,C0,7F,CF,45,03,00,00,
9795287,00000124,false,Rx,0,8,63,07,98,4F,4A,15,00,5D,
9805045,00000097,false,Rx,0,8,DB,C1,7F,CF,45,03,00,00,
9815052,00000097,false,Rx,0,8,1C,C2,7F,CF,45,03,00,00,
9815287,00000124,false,Rx,0,8,58,08,98,4F,4A,15,00,5D,
9823357,0000038B,false,Rx,0,8,FE,01,00,BC,F2,CA,AB,7F,
9825044,00000097,false,Rx,0,8,06,C3,7F,CF,45,03,00,00,
9835048,00000097,false,Rx,0,8,38,C4,7F,CF,45,03,00,00,
9835284,00000124,false,Rx,0,8,AA,09,98,4F,4A,15,00,5D,
9838538,00000566,false,Rx,0,8,4F,25,FE,25,6F,E8,15,00,
9845049,00000097,false,Rx,0,8,AC,C5,7F,CF,45,03,00,00,
9855045,00000097,false,Rx,0,8,1A,C6,7F,CF,45,03,00,00,
9855281,00000124,false,Rx,0,8,D8,0A,98,4F,4A,15,00,5D,
9865049,00000187,false,Rx,0,8,DC,8A,12,00,00,00,30,0A,
9865294,000003A6,false,Rx,0,8,A9,0B,41,00,04,01,00,00,
9865534,000003AF,false,Rx,0,8,3A,6B,09,21,D8,B1,00,00,
9865772,00000489,false,Rx,0,8,78,0B,00,F4,25,CE,2F,00,
9866010,00000097,false,Rx,0,8,90,C7,7F,CF,45,03,00,00,
9875045,00000097,false,Rx,0,8,72,C8,7F,CF,45,03,00,00,
9875280,00000124,false,Rx,0,8,F3,0B,98,4F,4A,15,00,5D,
9885048,00000097,false,Rx,0,8,4F,C9,7F,CF,45,03,00,00,
9895046,00000097,false,Rx,0,8,97,CA,7F,CF,45,03,00,00,
9895291,00000124,false,Rx,0,8,DD,0C,98,4F,4A,15,00,5D,
9905050,00000097,false,Rx,0,8,88,CB,7F,CF,45,03,00,00,
9915045,00000097,false,Rx,0,8,F8,CC,7F,CF,45,03,00,00,
9915291,00000124,false,Rx,0,8,6C,0D,98,4F,4A,15,00,5D,
9923402,0000038B,false,Rx,0,8,FE,01,00,BC,F2,CA,AB,7F,
9925048,00000097,false,Rx,0,8,21,CD,7F,CF,45,03,00,00,
9928629,1B000044,true,Rx,0,8,44,00,41,00,04,00,00,00,
9935050,00000097,false,Rx,0,8,B7,CE,7F,CF,45,03,00,00,
9935287,00000124,false,Rx,0,8,AC,0E,98,4F,4A,15,00,5D,
9938571,00000566,false,Rx,0,8,B4,26,FE,25,6F,E8,15,00,
9945040,00000097,false,Rx,0,8,F5,CF,7F,CF,45,03,00,00,
9955048,00000097,false,Rx,0,8,7D,C0,7F,CF,45,03,00,00,
9955295,00000124,false,Rx,0,8,41,0F,98,4F,4A,15,00,5D,
9965053,00000097,false,Rx,0,8,DB,C1,7F,CF,45,03,00,00,
9965290,00000187,false,Rx,0,8,E1,8B,12,00,00,00,30,0B,
9965538,000003A6,false,Rx,0,8,3A,0C,41,00,04,01,00,00,
9965776,000003AF,false,Rx,0,8,24,6C,09,21,D8,B1,00,00,
9966016,00000489,false,Rx,0,8,F5,0C,00,F4,25,CE,2F,00,
9975049,00000097,false,Rx,0,8,1C,C2,7F,CF,45,03,00,00,
9975286,00000124,false,Rx,0,8,CE,00,98,4F,4A,15,00,5D,
9985043,00000097,false,Rx,0,8,06,C3,7F,CF,45,03,00,00,
9995050,00000097,false,Rx,0,8,38,C4,7F,CF,45,03,00,00,
9995287,00000124,false,Rx,0,8,D4,01,98,4F,4A,15,00,5D,
10005054,00000097,false,Rx,0,8,AC,C5,7F,CF,45,03,00,00,
10015050,00000097,false,Rx,0,8,1A,C6,7F,CF,45,03,00,00,
10015287,00000124,false,Rx,0,8,97,02,98,4F,4A,15,00,5D,
10023439,0000038B,false,Rx,0,8,FE,01,00,BC,F2,CA,AB,7F,
10025054,00000097,false,Rx,0,8,90,C7,7F,CF,45,03,00,00,
10035049,00000097,false,Rx,0,8,72,C8,7F,CF,45,03,00,00,
10035285,00000124,false,Rx,0,8,DE,03,98,4F,4A,15,00,5D,
10038621,00000566,false,Rx,0,8,40,27,FE,25,6F,E8,15,00,
10045049,00000097,false,Rx,0,8,4F,C9,7F,CF,45,03,00,00,
10055056,00000097,false,Rx,0,8,97,CA,7F,CF,45,03,00,00,
10055293,00000124,false,Rx,0,8,61,04,98,4F,4A,15,00,5D,
10065050,00000097,false,Rx,0,8,88,CB,7F,CF,45,03,00,00,
10065287,00000187,false,Rx,0,8,E1,8C,12,00,00,00,30,0C,
10065535,000003A6,false,Rx,0,8,CD,0D,41,00,04,01,00,00,
10065774,000003AF,false,Rx,0,8,F8,6D,09,21,D8,B1,00,00,
10066013,00000489,false,Rx,0,8,58,0D,00,F4,25,CE,2F,00,
10066262,000006A3,false,Rx,0,8,01,E8,15,3E,6C,66,03,00,
10066511,000006A4,false,Rx,0,8,0B,08,42,3F,43,03,00,00,
10075042,00000097,false,Rx,0,8,F8,CC,7F,CF,45,03,00,00,
10075279,00000124,false,Rx,0,8,9C,05,98,4F,4A,15,00,5D,
10085050,00000097,false,Rx,0,8,21,CD,7F,CF,45,03,00,00,
10095056,00000097,false,Rx,0,8,B7,CE,7F,CF,45,03,00,00,
10095291,00000124,false,Rx,0,8,1F,06,98,4F,4A,15,00,5D,
10105049,00000097,false,Rx,0,8,F5,CF,7F,CF,45,03,00,00,
10115046,00000097,false,Rx,0,8,7D,C0,7F,CF,45,03,00,00,
10115291,00000124,false,Rx,0,8,63,07,98,4F,4A,15,00,5D,
10123485,0000038B,false,Rx,0,8,FE,01,00,BC,F2,CA,AB,7F,
10123770,12DD5472,true,Rx,0,8,00,00,00,00,00,00,00,00,
10124008,00000565,false,Rx,0,8,00,60,00,95,0C,08,80,FF,
10124249,00000594,false,Rx,0,8,00,00,00,00,02,32,30,09,
10124538,17F00044,true,Rx,0,8,20,44,00,00,00,00,00,80,
10124777,0000067E,false,Rx,0,8,D6,25,16,00,7B,00,00,42,
10125057,1A555457,true,Rx,0,8,00,35,51,45,36,00,00,00,
10125287,00000097,false,Rx,0,8,DB,C1,7F,CF,45,03,00,00,
10125565,1A555490,true,Rx,0,8,AA,02,08,80,82,2A,A2,02,
10125845,1A555491,true,Rx,0,8,AA,58,A8,02,00,00,00,80,
10128750,1B000044,true,Rx,0,8,44,00,44,00,00,00,00,00,
10135044,00000097,false,Rx,0,8,1C,C2,7F,CF,45,03,00,00,
10135289,00000124,false,Rx,0,8,58,08,98,4F,4A,15,00,5D,
10138665,00000566,false,Rx,0,8,95,28,FE,25,6F,E8,15,00,
10145046,00000097,false,Rx,0,8,06,C3,7F,CF,45,03,00,00,
10155044,00000097,false,Rx,0,8,38,C4,7F,CF,45,03,00,00,
10155289,00000124,false,Rx,0,8,AA,09,98,4F,4A,15,00,5D,
10165049,00000187,false,Rx,0,8,30,8D,12,00,00,00,30,0D,
10165294,000003A6,false,Rx,0,8,99,0E,41,00,04,01,00,00,
10165532,000003AF,false,Rx,0,8,A6,6E,09,21,D8,B1,00,00,
10165772,00000489,false,Rx,0,8,70,0E,00,F4,25,CE,2F,00,
10166010,00000097,false,Rx,0,8,AC,C5,7F,CF,45,03,00,00,
10175044,00000097,false,Rx,0,8,1A,C6,7F,CF,45,03,00,00,
10175289,00000124,false,Rx,0,8,D8,0A,98,4F,4A,15,00,5D,
10185048,00000097,false,Rx,0,8,90,C7,7F,CF,45,03,00,00,
10195045,00000097,false,Rx,0,8,72,C8,7F,CF,45,03,00,00,
10195280,00000124,false,Rx,0,8,F3,0B,98,4F,4A,15,00,5D,
10205048,00000097,false,Rx,0,8,4F,C9,7F,CF,45,03,00,00,
10215055,00000097,false,Rx,0,8,97,CA,7F,CF,45,03,00,00,
10215291,00000124,false,Rx,0,8,DD,0C,98,4F,4A,15,00,5D,
10223517,0000038B,false,Rx,0,8,FE,01,00,BC,F2,CA,AB,7F,
10225049,00000097,false,Rx,0,8,88,CB,7F,CF,45,03,00,00,
10235044,00000097,false,Rx,0,8,F8,CC,7F,CF,45,03,00,00,
10235279,00000124,false,Rx,0,8,6C,0D,98,4F,4A,15,00,5D,
10238698,00000566,false,Rx,0,8,6D,29,FE,25,6F,E8,15,00,
10245044,00000097,false,Rx,0,8,21,CD,7F,CF,45,03,00,00,
10255050,00000097,false,Rx,0,8,B7,CE,7F,CF,45,03,00,00,
10255286,00000124,false,Rx,0,8,AC,0E,98,4F,4A,15,00,5D,
10265044,00000097,false,Rx,0,8,F5,CF,7F,CF,45,03,00,00,
10265290,00000187,false,Rx,0,8,39,8E,12,00,00,00,30,0E,
10265539,000003A6,false,Rx,0,8,8F,0F,41,00,04,01,00,00,
10265778,000003AF,false,Rx,0,8,71,6F,09,21,D8,B1,00,00,
10266016,00000489,false,Rx,0,8,00,0F,00,F4,25,CE,2F,00,
10275050,00000097,false,Rx,0,8,7D,C0,7F,CF,45,03,00,00,
10275285,00000124,false,Rx,0,8,41,0F,98,4F,4A,15,00,5D,
10285044,00000097,false,Rx,0,8,DB,C1,7F,CF,45,03,00,00,
10295051,00000097,false,Rx,0,8,1C,C2,7F,CF,45,03,00,00,
10295287,00000124,false,Rx,0,8,CE,00,98,4F,4A,15,00,5D,
10305055,00000097,false,Rx,0,8,06,C3,7F,CF,45,03,00,00,
10315053,00000097,false,Rx,0,8,38,C4,7F,CF,45,03,00,00,
10315288,00000124,false,Rx,0,8,D4,01,98,4F,4A,15,00,5D,
10323555,0000038B,false,Rx,0,8,FE,01,00,BC,F2,CA,AB,7F,
10325056,00000097,false,Rx,0,8,AC,C5,7F,CF,45,03,00,00,
10328783,1B000044,true,Rx,0,8,44,00,44,00,00,00,00,00,
10335048,00000097,false,Rx,0,8,1A,C6,7F,CF,45,03,00,00,
10335284,00000124,false,Rx,0,8,97,02,98,4F,4A,15,00,5D,
10338733,00000566,false,Rx,0,8,22,2A,FE,25,6F,E8,15,00,
10345048,00000097,false,Rx,0,8,90,C7,7F,CF,45,03,00,00,
10355045,00000097,false,Rx,0,8,72,C8,7F,CF,45,03,00,00,
10355290,00000124,false,Rx,0,8,DE,03,98,4F,4A,15,00,5D,
10365048,00000097,false,Rx,0,8,4F,C9,7F,CF,45,03,00,00,
10365294,00000187,false,Rx,0,8,25,8F,12,00,00,00,30,0F,
10365533,000003A6,false,Rx,0,8,4F,00,41,00,04,01,00,00,
10365772,000003AF,false,Rx,0,8,DA,60,09,21,D8,B1,00,00,
10366020,00000489,false,Rx,0,8,DC,00,00,F4,25,CE,2F,00,
10375045,00000097,false,Rx,0,8,97,CA,7F,CF,45,03,00,00,
10375280,00000124,false,Rx,0,8,61,04,98,4F,4A,15,00,5D,
10385049,00000097,false,Rx,0,8,88,CB,7F,CF,45,03,00,00,
10395045,00000097,false,Rx,0,8,F8,CC,7F,CF,45,03,00,00,
10395291,00000124,false,Rx,0,8,9C,05,98,4F,4A,15,00,5D,
10405049,00000097,false,Rx,0,8,21,CD,7F,CF,45,03,00,00,
10415048,00000097,false,Rx,0,8,B7,CE,7F,CF,45,03,00,00,
10415283,00000124,false,Rx,0,8,1F,06,98,4F,4A,15,00,5D,
10420109,17332510,true,Rx,0,8,80,08,39,43,78,07,FE,FE,
10423598,0000038B,false,Rx,0,8,FE,01,00,BC,F2,CA,AB,7F,
10425048,00000097,false,Rx,0,8,F5,CF,7F,CF,45,03,00,00,
10435053,00000097,false,Rx,0,8,7D,C0,7F,CF,45,03,00,00,
10435290,00000124,false,Rx,0,8,63,07,98,4F,4A,15,00,5D,
10438779,00000566,false,Rx,0,8,AF,2B,FE,25,6F,E8,15,00,
10445053,00000097,false,Rx,0,8,DB,C1,7F,CF,45,03,00,00,
10455050,00000097,false,Rx,0,8,1C,C2,7F,CF,45,03,00,00,
10455287,00000124,false,Rx,0,8,58,08,98,4F,4A,15,00,5D,
10465044,00000097,false,Rx,0,8,06,C3,7F,CF,45,03,00,00,
10465301,00000187,false,Rx,0,8,34,80,12,00,00,00,30,10,
10465549,000003A6,false,Rx,0,8,B2,01,41,00,04,01,00,00,
10465777,000003AF,false,Rx,0,8,D3,61,09,21,D8,B1,00,00,
10466016,00000489,false,Rx,0,8,55,01,00,F4,25,CE,2F,00,
10470086,17332510,true,Rx,0,5,C0,00,00,00,00,00,00,00,
10475055,00000097,false,Rx,0,8,38,C4,7F,CF,45,03,00,00,
10475293,00000124,false,Rx,0,8,AA,09,98,4F,4A,15,00,5D,
10485049,00000097,false,Rx,0,8,AC,C5,7F,CF,45,03,00,00,
10495046,00000097,false,Rx,0,8,1A,C6,7F,CF,45,03,00,00,
10495282,00000124,false,Rx,0,8,D8,0A,98,4F,4A,15,00,5D,
10505050,00000097,false,Rx,0,8,90,C7,7F,CF,45,03,00,00,
10515048,00000097,false,Rx,0,8,72,C8,7F,CF,45,03,00,00,
10515285,00000124,false,Rx,0,8,F3,0B,98,4F,4A,15,00,5D,
10523634,0000038B,false,Rx,0,8,FE,01,00,BC,F2,CA,AB,7F,
10525052,00000097,false,Rx,0,8,4F,C9,7F,CF,45,03,00,00,
10528890,1B000044,true,Rx,0,8,44,00,44,00,00,00,00,00,
10535053,00000097,false,Rx,0,8,97,CA,7F,CF,45,03,00,00,
10535290,00000124,false,Rx,0,8,DD,0C,98,4F,4A,15,00,5D,
10538830,00000566,false,Rx,0,8,6E,2C,FE,25,6F,E8,15,00,
10545043,00000097,false,Rx,0,8,88,CB,7F,CF,45,03,00,00,
10555050,00000097,false,Rx,0,8,F8,CC,7F,CF,45,03,00,00,
10555287,00000124,false,Rx,0,8,6C,0D,98,4F,4A,15,00,5D,
10565056,00000097,false,Rx,0,8,21,CD,7F,CF,45,03,00,00,
10565301,00000187,false,Rx,0,8,AA,81,12,00,00,00,30,11,
10565550,000003A6,false,Rx,0,8,71,02,41,00,04,01,00,00,
10565788,000003AF,false,Rx,0,8,4E,62,09,21,D8,B1,00,00,
10566027,00000489,false,Rx,0,8,42,02,00,F4,25,CE,2F,00,
10566266,000006A3,false,Rx,0,8,1A,E9,15,3E,6C,66,03,00,
10566505,000006A4,false,Rx,0,8,F3,09,42,3F,43,03,00,00,
10573661,00000564,false,Rx,0,8,02,95,72,00,F8,27,28,00,
10575050,00000097,false,Rx,0,8,B7,CE,7F,CF,45,03,00,00,
10575289,00000124,false,Rx,0,8,AC,0E,98,4F,4A,15,00,5D,
10585047,00000097,false,Rx,0,8,F5,CF,7F,CF,45,03,00,00,
10595054,00000097,false,Rx,0,8,7D,C0,7F,CF,45,03,00,00,
10595290,00000124,false,Rx,0,8,41,0F,98,4F,4A,15,00,5D,
10605049,00000097,false,Rx,0,8,DB,C1,7F,CF,45,03,00,00,
10615056,00000097,false,Rx,0,8,1C,C2,7F,CF,45,03,00,00,
10615291,00000124,false,Rx,0,8,CE,00,98,4F,4A,15,00,5D,
10623682,0000038B,false,Rx,0,8,FE,01,00,BC,F2,CA,AB,7F,
10623967,12DD5472,true,Rx,0,8,00,00,00,00,00,00,00,00,
10624206,00000565,false,Rx,0,8,00,60,00,95,0C,08,80,FF,
10624447,00000594,false,Rx,0,8,00,00,00,00,02,32,30,09,
10624736,17F00044,true,Rx,0,8,20,44,00,00,00,00,00,80,
10625017,1A555490,true,Rx,0,8,AA,00,00,80,02,2A,20,00,
10625257,00000097,false,Rx,0,8,06,C3,7F,CF,45,03,00,00,
10625526,1A555491,true,Rx,0,8,AA,58,A8,02,00,00,00,80,
10635049,00000097,false,Rx,0,8,38,C4,7F,CF,45,03,00,00,
10635284,00000124,false,Rx,0,8,D4,01,98,4F,4A,15,00,5D,
10638857,00000566,false,Rx,0,8,C9,2D,FE,25,6F,E8,15,00,
10645049,00000097,false,Rx,0,8,AC,C5,7F,CF,45,03,00,00,
10655045,00000097,false,Rx,0,8,1A,C6,7F,CF,45,03,00,00,
10655281,00000124,false,Rx,0,8,97,02,98,4F,4A,15,00,5D,
10665049,00000187,false,Rx,0,8,C3,82,12,00,00,00,30,12,
10665305,000003A6,false,Rx,0,8,3D,03,41,00,04,01,00,00,
10665544,000003AF,false,Rx,0,8,0D,63,09,21,D8,B1,00,00,
10665783,00000489,false,Rx,0,8,A7,03,00,F4,25,CE,2F,00,
10666021,00000097,false,Rx,0,8,90,C7,7F,CF,45,03,00,00,
10675045,00000097,false,Rx,0,8,72,C8,7F,CF,45,03,00,00,
10675291,00000124,false,Rx,0,8,DE,03,98,4F,4A,15,00,5D,
10685050,00000097,false,Rx,0,8,4F,C9,7F,CF,45,03,00,00,
10695046,00000097,false,Rx,0,8,97,CA,7F,CF,45,03,00,00,
10695291,00000124,false,Rx,0,8,61,04,98,4F,4A,15,00,5D,
10705049,00000097,false,Rx,0,8,88,CB,7F,CF,45,03,00,00,
10715056,00000097,false,Rx,0,8,F8,CC,7F,CF,45,03,00,00,
10715291,00000124,false,Rx,0,8,9C,05,98,4F,4A,15,00,5D,
10723712,0000038B,false,Rx,0,8,FE,01,00,BC,F2,CA,AB,7F,
10725049,00000097,false,Rx,0,8,21,CD,7F,CF,45,03,00,00,
10728939,1B000044,true,Rx,0,8,44,00,44,00,00,00,00,00,
10735050,00000097,false,Rx,0,8,B7,CE,7F,CF,45,03,00,00,
10735295,00000124,false,Rx,0,8,1F,06,98,4F,4A,15,00,5D,
10738890,00000566,false,Rx,0,8,57,2E,FE,25,6F,E8,15,00,
10745051,00000097,false,Rx,0,8,F5,CF,7F,CF,45,03,00,00,
10755049,00000097,false,Rx,0,8,7D,C0,7F,CF,45,03,00,00,
10755295,00000124,false,Rx,0,8,63,07,98,4F,4A,15,00,5D,
10765054,00000097,false,Rx,0,8,DB,C1,7F,CF,45,03,00,00,
10765289,00000187,false,Rx,0,8,76,83,12,00,00,00,30,13,
10765539,000003A6,false,Rx,0,8,7D,04,41,00,04,01,00,00,
10765787,000003AF,false,Rx,0,8,7E,64,09,21,D8,B1,00,00,
10766025,00000489,false,Rx,0,8,2C,04,00,F4,25,CE,2F,00,
10775049,00000097,false,Rx,0,8,1C,C2,7F,CF,45,03,00,00,
10775294,00000124,false,Rx,0,8,58,08,98,4F,4A,15,00,5D,
10785053,00000097,false,Rx,0,8,06,C3,7F,CF,45,03,00,00,
10795050,00000097,false,Rx,0,8,38,C4,7F,CF,45,03,00,00,
10795285,00000124,false,Rx,0,8,AA,09,98,4F,4A,15,00,5D,
10805054,00000097,false,Rx,0,8,AC,C5,7F,CF,45,03,00,00,
10815050,00000097,false,Rx,0,8,1A,C6,7F,CF,45,03,00,00,
10815286,00000124,false,Rx,0,8,D8,0A,98,4F,4A,15,00,5D,
10823759,0000038B,false,Rx,0,8,FE,01,00,BC,F2,CA,AB,7F,
10825055,00000097,false,Rx,0,8,90,C7,7F,CF,45,03,00,00,
10835049,00000097,false,Rx,0,8,72,C8,7F,CF,45,03,00,00,
10835284,00000124,false,Rx,0,8,F3,0B,98,4F,4A,15,00,5D,
10838940,00000566,false,Rx,0,8,AA,2F,FE,25,6F,E8,15,00,
10845050,00000097,false,Rx,0,8,4F,C9,7F,CF,45,03,00,00,
10855056,00000097,false,Rx,0,8,97,CA,7F,CF,45,03,00,00,
10855291,00000124,false,Rx,0,8,DD,0C,98,4F,4A,15,00,5D,
10865050,00000097,false,Rx,0,8,88,CB,7F,CF,45,03,00,00,
10865295,00000187,false,Rx,0,8,2F,84,12,00,00,00,30,14,
10865545,000003A6,false,Rx,0,8,8D,05,41,00,04,01,00,00,
10865783,000003AF,false,Rx,0,8,72,65,09,21,D8,B1,00,00,
10866021,00000489,false,Rx,0,8,F8,05,00,F4,25,CE,2F,00,
10875044,00000097,false,Rx,0,8,F8,CC,7F,CF,45,03,00,00,
10875290,00000124,false,Rx,0,8,6C,0D,98,4F,4A,15,00,5D,
10885048,00000097,false,Rx,0,8,21,CD,7F,CF,45,03,00,00,
10895055,00000097,false,Rx,0,8,B7,CE,7F,CF,45,03,00,00,
10895292,00000124,false,Rx,0,8,AC,0E,98,4F,4A,15,00,5D,
10905048,00000097,false,Rx,0,8,F5,CF,7F,CF,45,03,00,00,
10915055,00000097,false,Rx,0,8,7D,C0,7F,CF,45,03,00,00,
10915292,00000124,false,Rx,0,8,41,0F,98,4F,4A,15,00,5D,
10923796,0000038B,false,Rx,0,8,FE,01,00,BC,F2,CA,AB,7F,
10925050,00000097,false,Rx,0,8,DB,C1,7F,CF,45,03,00,00,
10929043,1B000044,true,Rx,0,8,44,00,44,00,00,00,00,00,
10935050,00000097,false,Rx,0,8,1C,C2,7F,CF,45,03,00,00,
10935287,00000124,false,Rx,0,8,CE,00,98,4F,4A,15,00,5D,
10938992,00000566,false,Rx,0,8,20,20,FE,25,6F,E8,15,00,
10945050,00000097,false,Rx,0,8,06,C3,7F,CF,45,03,00,00,
10955048,00000097,false,Rx,0,8,38,C4,7F,CF,45,03,00,00,
10955284,00000124,false,Rx,0,8,D4,01,98,4F,4A,15,00,5D,
10965051,00000097,false,Rx,0,8,AC,C5,7F,CF,45,03,00,00,
10965298,00000187,false,Rx,0,8,22,85,12,00,00,00,30,15,
10965546,000003A6,false,Rx,0,8,0F,06,41,00,04,01,00,00,
10965784,000003AF,false,Rx,0,8,EA,66,09,21,D8,B1,00,00,
10966024,00000489,false,Rx,0,8,C5,06,00,F4,25,CE,2F,00,
10975056,00000097,false,Rx,0,8,1A,C6,7F,CF,45,03,00,00,
10975292,00000124,false,Rx,0,8,97,02,98,4F,4A,15,00,5D,
10985049,00000097,false,Rx,0,8,90,C7,7F,CF,45,03,00,00,
10995046,00000097,false,Rx,0,8,72,C8,7F,CF,45,03,00,00,
10995283,00000124,false,Rx,0,8,DE,03,98,4F,4A,15,00,5D,
11005050,00000097,false,Rx,0,8,4F,C9,7F,CF,45,03,00,00,
11015058,00000097,false,Rx,0,8,97,CA,7F,CF,45,03,00,00,
11015295,00000124,false,Rx,0,8,61,04,98,4F,4A,15,00,5D,
11023831,0000038B,false,Rx,0,8,FE,01,00,BC,F2,CA,AB,7F,
11025054,00000097,false,Rx,0,8,88,CB,7F,CF,45,03,00,00,
11035046,00000097,false,Rx,0,8,F8,CC,7F,CF,45,03,00,00,
11035282,00000124,false,Rx,0,8,9C,05,98,4F,4A,15,00,5D,
11039019,00000566,false,Rx,0,8,7E,21,FE,25,6F,E8,15,00,
11045057,00000097,false,Rx,0,8,21,CD,7F,CF,45,03,00,00,
11055054,00000097,false,Rx,0,8,B7,CE,7F,CF,45,03,00,00,
11055290,00000124,false,Rx,0,8,1F,06,98,4F,4A,15,00,5D,
11065049,00000097,false,Rx,0,8,F5,CF,7F,CF,45,03,00,00,
11065294,00000187,false,Rx,0,8,90,86,12,00,00,00,30,16,
11065532,000003A6,false,Rx,0,8,E7,07,41,00,04,01,00,00,
11065771,000003AF,false,Rx,0,8,86,67,09,21,D8,B1,00,00,
11066010,00000489,false,Rx,0,8,92,07,00,F4,25,CE,2F,00,
11066249,000006A3,false,Rx,0,8,61,EA,15,3E,6C,66,03,00,
11066488,000006A4,false,Rx,0,8,22,0A,42,3F,43,03,00,00,
11075051,00000097,false,Rx,0,8,7D,C0,7F,CF,45,03,00,00,
11075287,00000124,false,Rx,0,8,63,07,98,4F,4A,15,00,5D,
11085055,00000097,false,Rx,0,8,DB,C1,7F,CF,45,03,00,00,
11095051,00000097,false,Rx,0,8,1C,C2,7F,CF,45,03,00,00,
11095297,00000124,false,Rx,0,8,58,08,98,4F,4A,15,00,5D,
11105055,00000097,false,Rx,0,8,06,C3,7F,CF,45,03,00,00,
11115051,00000097,false,Rx,0,8,38,C4,7F,CF,45,03,00,00,
11115287,00000124,false,Rx,0,8,AA,09,98,4F,4A,15,00,5D,
11123874,0000038B,false,Rx,0,8,FE,01,00,BC,F2,CA,AB,7F,
11124171,12DD5472,true,Rx,0,8,00,00,00,00,00,00,00,00,
11124400,00000565,false,Rx,0,8,00,60,00,95,0C,08,80,FF,
11124649,00000594,false,Rx,0,8,00,00,00,00,02,32,30,09,
11124939,17F00044,true,Rx,0,8,20,44,00,00,00,00,00,80,
11125178,00000097,false,Rx,0,8,AC,C5,7F,CF,45,03,00,00,
11125407,0000067E,false,Rx,0,8,52,26,16,00,7B,00,00,44,
11125687,1A555457,true,Rx,0,8,01,38,32,41,4B,00,00,00,
11125965,1A555490,true,Rx,0,8,AA,00,00,80,02,2A,20,00,
11126244,1A555491,true,Rx,0,8,AA,58,A8,02,00,00,00,80,
11129100,1B000044,true,Rx,0,8,44,00,44,00,00,00,00,00,
11135051,00000097,false,Rx,0,8,1A,C6,7F,CF,45,03,00,00,
11135287,00000124,false,Rx,0,8,D8,0A,98,4F,4A,15,00,5D,
11139055,00000566,false,Rx,0,8,FA,22,FE,25,6F,E8,15,00,
11145052,00000097,false,Rx,0,8,90,C7,7F,CF,45,03,00,00,
11155050,00000097,false,Rx,0,8,72,C8,7F,CF,45,03,00,00,
11155285,00000124,false,Rx,0,8,F3,0B,98,4F,4A,15,00,5D,
11165054,00000097,false,Rx,0,8,4F,C9,7F,CF,45,03,00,00,
11165300,00000187,false,Rx,0,8,1B,87,12,00,00,00,30,17,
11165548,000003A6,false,Rx,0,8,48,08,41,00,04,01,00,00,
11165787,000003AF,false,Rx,0,8,59,68,09,21,D8,B1,00,00,
11166026,00000489,false,Rx,0,8,B0,08,00,F4,25,CE,2F,00,
11175049,00000097,false,Rx,0,8,97,CA,7F,CF,45,03,00,00,
11175294,00000124,false,Rx,0,8,DD,0C,98,4F,4A,15,00,5D,
11185054,00000097,false,Rx,0,8,88,CB,7F,CF,45,03,00,00,
11195054,00000097,false,Rx,0,8,F8,CC,7F,CF,45,03,00,00,
11195289,00000124,false,Rx,0,8,6C,0D,98,4F,4A,15,00,5D,
11205049,00000097,false,Rx,0,8,21,CD,7F,CF,45,03,00,00,
11215045,00000097,false,Rx,0,8,B7,CE,7F,CF,45,03,00,00,
11215280,00000124,false,Rx,0,8,AC,0E,98,4F,4A,15,00,5D,
11223909,0000038B,false,Rx,0,8,FE,01,00,BC,F2,CA,AB,7F,
11225051,00000097,false,Rx,0,8,F5,CF,7F,CF,45,03,00,00,
11235055,00000097,false,Rx,0,8,7D,C0,7F,CF,45,03,00,00,
11235290,00000124,false,Rx,0,8,41,0F,98,4F,4A,15,00,5D,
11239100,00000566,false,Rx,0,8,3C,23,FE,25,6F,E8,15,00,
11245055,00000097,false,Rx,0,8,DB,C1,7F,CF,45,03,00,00,
11255053,00000097,false,Rx,0,8,1C,C2,7F,CF,45,03,00,00,
11255289,00000124,false,Rx,0,8,CE,00,98,4F,4A,15,00,5D,
11265048,00000097,false,Rx,0,8,06,C3,7F,CF,45,03,00,00,
11265294,00000187,false,Rx,0,8,6E,88,12,00,00,00,30,18,
11265544,000003A6,false,Rx,0,8,25,09,41,00,04,01,00,00,
11265782,000003AF,false,Rx,0,8,33,69,09,21,D8,B1,00,00,
11266020,00000489,false,Rx,0,8,2A,09,00,F4,25,CE,2F,00,
11275055,00000097,false,Rx,0,8,38,C4,7F,CF,45,03,00,00,
11275290,00000124,false,Rx,0,8,D4,01,98,4F,4A,15,00,5D,
11285059,00000097,false,Rx,0,8,AC,C5,7F,CF,45,03,00,00,
11295056,00000097,false,Rx,0,8,1A,C6,7F,CF,45,03,00,00,
11295291,00000124,false,Rx,0,8,97,02,98,4F,4A,15,00,5D,
11305049,00000097,false,Rx,0,8,90,C7,7F,CF,45,03,00,00,
11315045,00000097,false,Rx,0,8,72,C8,7F,CF,45,03,00,00,
11315291,00000124,false,Rx,0,8,DE,03,98,4F,4A,15,00,5D,
11323951,0000038B,false,Rx,0,8,FE,01,00,BC,F2,CA,AB,7F,
11325051,00000097,false,Rx,0,8,4F,C9,7F,CF,45,03,00,00,
11329198,1B000044,true,Rx,0,8,44,00,44,00,00,00,00,00,
11335050,00000097,false,Rx,0,8,97,CA,7F,CF,45,03,00,00,
11335286,00000124,false,Rx,0,8,61,04,98,4F,4A,15,00,5D,
11339147,00000566,false,Rx,0,8,B1,24,FE,25,6F,E8,15,00,
11345050,00000097,false,Rx,0,8,88,CB,7F,CF,45,03,00,00,
11355048,00000097,false,Rx,0,8,F8,CC,7F,CF,45,03,00,00,
11355284,00000124,false,Rx,0,8,9C,05,98,4F,4A,15,00,5D,
11365053,00000097,false,Rx,0,8,21,CD,7F,CF,45,03,00,00,
11365288,00000187,false,Rx,0,8,1D,89,12,00,00,00,30,19,
11365538,000003A6,false,Rx,0,8,C5,0A,41,00,04,01,00,00,
11365776,000003AF,false,Rx,0,8,06,6A,09,21,D8,B1,00,00,
11366014,00000489,false,Rx,0,8,93,0A,00,F4,25,CE,2F,00,
11375048,00000097,false,Rx,0,8,B7,CE,7F,CF,45,03,00,00,
11375295,00000124,false,Rx,0,8,1F,06,98,4F,4A,15,00,5D,
11385053,00000097,false,Rx,0,8,F5,CF,7F,CF,45,03,00,00,
11395050,00000097,false,Rx,0,8,7D,C0,7F,CF,45,03,00,00,
11395287,00000124,false,Rx,0,8,63,07,98,4F,4A,15,00,5D,
11405054,00000097,false,Rx,0,8,DB,C1,7F,CF,45,03,00,00,
11415060,00000097,false,Rx,0,8,1C,C2,7F,CF,45,03,00,00,
11415297,00000124,false,Rx,0,8,58,08,98,4F,4A,15,00,5D,
11420392,17332510,true,Rx,0,3,39,44,0A,00,00,00,00,00,
11423993,0000038B,false,Rx,0,8,FE,01,00,BC,F2,CA,AB,7F,
11425051,00000097,false,Rx,0,8,06,C3,7F,CF,45,03,00,00,
11435054,00000097,false,Rx,0,8,38,C4,7F,CF,45,03,00,00,
11435291,00000124,false,Rx,0,8,AA,09,98,4F,4A,15,00,5D,
11439172,00000566,false,Rx,0,8,4F,25,FE,25,6F,E8,15,00,
11445055,00000097,false,Rx,0,8,AC,C5,7F,CF,45,03,00,00,
11455053,00000097,false,Rx,0,8,1A,C6,7F,CF,45,03,00,00,
11455290,00000124,false,Rx,0,8,D8,0A,98,4F,4A,15,00,5D,
11465058,00000097,false,Rx,0,8,90,C7,7F,CF,45,03,00,00,
11465295,00000187,false,Rx,0,8,F9,8A,12,00,00,00,30,1A,
11465543,000003A6,false,Rx,0,8,A9,0B,41,00,04,01,00,00,
11465782,000003AF,false,Rx,0,8,3A,6B,09,21,D8,B1,00,00,
11466021,00000489,false,Rx,0,8,78,0B,00,F4,25,CE,2F,00,
11475053,00000097,false,Rx,0,8,72,C8,7F,CF,45,03,00,00,
11475290,00000124,false,Rx,0,8,F3,0B,98,4F,4A,15,00,5D,
11485048,00000097,false,Rx,0,8,4F,C9,7F,CF,45,03,00,00,
11495055,00000097,false,Rx,0,8,97,CA,7F,CF,45,03,00,00,
11495293,00000124,false,Rx,0,8,DD,0C,98,4F,4A,15,00,5D,
11505050,00000097,false,Rx,0,8,88,CB,7F,CF,45,03,00,00,
11515047,00000097,false,Rx,0,8,F8,CC,7F,CF,45,03,00,00,
11515294,00000124,false,Rx,0,8,6C,0D,98,4F,4A,15,00,5D,
11524036,0000038B,false,Rx,0,8,FE,01,00,BC,F2,CA,AB,7F,
11525054,00000097,false,Rx,0,8,21,CD,7F,CF,45,03,00,00,
11529263,1B000044,true,Rx,0,8,44,00,44,00,00,00,00,00,
11535051,00000097,false,Rx,0,8,B7,CE,7F,CF,45,03,00,00,
11535287,00000124,false,Rx,0,8,AC,0E,98,4F,4A,15,00,5D,
11539210,00000566,false,Rx,0,8,B4,26,FE,25,6F,E8,15,00,
11545051,00000097,false,Rx,0,8,F5,CF,7F,CF,45,03,00,00,
11555059,00000097,false,Rx,0,8,7D,C0,7F,CF,45,03,00,00,
11555294,00000124,false,Rx,0,8,41,0F,98,4F,4A,15,00,5D,
11565054,00000097,false,Rx,0,8,DB,C1,7F,CF,45,03,00,00,
11565290,00000187,false,Rx,0,8,C4,8B,12,00,00,00,30,1B,
11565538,000003A6,false,Rx,0,8,3A,0C,41,00,04,01,00,00,
11565777,000003AF,false,Rx,0,8,24,6C,09,21,D8,B1,00,00,
11566015,00000489,false,Rx,0,8,F5,0C,00,F4,25,CE,2F,00,
11566255,000006A3,false,Rx,0,8,59,EB,15,3E,6C,66,03,00,
11566503,000006A4,false,Rx,0,8,64,0B,42,3F,43,03,00,00,
11574061,00000564,false,Rx,0,8,AE,96,72,00,F8,27,28,00,
11575059,00000097,false,Rx,0,8,1C,C2,7F,CF,45,03,00,00,
11575298,00000124,false,Rx,0,8,CE,00,98,4F,4A,15,00,5D,
11585055,00000097,false,Rx,0,8,06,C3,7F,CF,45,03,00,00,
11595051,00000097,false,Rx,0,8,38,C4,7F,CF,45,03,00,00,
11595287,00000124,false,Rx,0,8,D4,01,98,4F,4A,15,00,5D,
11605056,00000097,false,Rx,0,8,AC,C5,7F,CF,45,03,00,00,
11615053,00000097,false,Rx,0,8,1A,C6,7F,CF,45,03,00,00,
11615288,00000124,false,Rx,0,8,97,02,98,4F,4A,15,00,5D,
11624071,0000038B,false,Rx,0,8,FE,01,00,BC,F2,CA,AB,7F,
11624359,12DD5472,true,Rx,0,8,00,00,00,00,00,00,00,00,
11624597,00000565,false,Rx,0,8,00,60,00,95,0C,08,80,FF,
11624845,00000594,false,Rx,0,8,00,00,00,00,02,32,30,09,
11625074,00000097,false,Rx,0,8,90,C7,7F,CF,45,03,00,00,
11625365,17F00044,true,Rx,0,8,20,44,00,00,00,00,00,80,
11625656,1A555490,true,Rx,0,8,2A,00,00,80,02,00,20,00,
11625935,1A555491,true,Rx,0,8,00,58,A8,02,00,00,00,80,
11635044,00000097,false,Rx,0,8,72,C8,7F,CF,45,03,00,00,
11635290,00000124,false,Rx,0,8,DE,03,98,4F,4A,15,00,5D,
11639257,00000566,false,Rx,0,8,40,27,FE,25,6F,E8,15,00,
11645056,00000097,false,Rx,0,8,4F,C9,7F,CF,45,03,00,00,
11655054,00000097,false,Rx,0,8,97,CA,7F,CF,45,03,00,00,
11655289,00000124,false,Rx,0,8,61,04,98,4F,4A,15,00,5D,
11665059,00000187,false,Rx,0,8,C4,8C,12,00,00,00,30,1C,
11665304,000003A6,false,Rx,0,8,CD,0D,41,00,04,01,00,00,
11665542,000003AF,false,Rx,0,8,F8,6D,09,21,D8,B1,00,00,
11665782,00000489,false,Rx,0,8,58,0D,00,F4,25,CE,2F,00,
11666020,00000097,false,Rx,0,8,88,CB,7F,CF,45,03,00,00,
11675054,00000097,false,Rx,0,8,F8,CC,7F,CF,45,03,00,00,
11675290,00000124,false,Rx,0,8,9C,05,98,4F,4A,15,00,5D,
11685048,00000097,false,Rx,0,8,21,CD,7F,CF,45,03,00,00,
11695045,00000097,false,Rx,0,8,B7,CE,7F,CF,45,03,00,00,
11695291,00000124,false,Rx,0,8,1F,06,98,4F,4A,15,00,5D,
11705050,00000097,false,Rx,0,8,F5,CF,7F,CF,45,03,00,00,
11715058,00000097,false,Rx,0,8,7D,C0,7F,CF,45,03,00,00,
11715293,00000124,false,Rx,0,8,63,07,98,4F,4A,15,00,5D,
11724108,0000038B,false,Rx,0,8,FE,01,00,BC,F2,CA,AB,7F,
11725054,00000097,false,Rx,0,8,DB,C1,7F,CF,45,03,00,00,
11729357,1B000044,true,Rx,0,8,44,00,44,00,00,00,00,00,
11735052,00000097,false,Rx,0,8,1C,C2,7F,CF,45,03,00,00,
11735298,00000124,false,Rx,0,8,58,08,98,4F,4A,15,00,5D,
11739294,00000566,false,Rx,0,8,95,28,FE,25,6F,E8,15,00,
11745052,00000097,false,Rx,0,8,06,C3,7F,CF,45,03,00,00,
11755059,00000097,false,Rx,0,8,38,C4,7F,CF,45,03,00,00,
11755294,00000124,false,Rx,0,8,AA,09,98,4F,4A,15,00,5D,
11765053,00000097,false,Rx,0,8,AC,C5,7F,CF,45,03,00,00,
11765299,00000187,false,Rx,0,8,15,8D,12,00,00,00,30,1D,
11765549,000003A6,false,Rx,0,8,99,0E,41,00,04,01,00,00,
11765787,000003AF,false,Rx,0,8,A6,6E,09,21,D8,B1,00,00,
11766025,00000489,false,Rx,0,8,70,0E,00,F4,25,CE,2F,00,
11775049,00000097,false,Rx,0,8,1A,C6,7F,CF,45,03,00,00,
11775284,00000124,false,Rx,0,8,D8,0A,98,4F,4A,15,00,5D,
11785053,00000097,false,Rx,0,8,90,C7,7F,CF,45,03,00,00,
11795050,00000097,false,Rx,0,8,72,C8,7F,CF,45,03,00,00,
11795296,00000124,false,Rx,0,8,F3,0B,98,4F,4A,15,00,5D,
11805054,00000097,false,Rx,0,8,4F,C9,7F,CF,45,03,00,00,
11815050,00000097,false,Rx,0,8,97,CA,7F,CF,45,03,00,00,
11815296,00000124,false,Rx,0,8,DD,0C,98,4F,4A,15,00,5D,
11824153,0000038B,false,Rx,0,8,FE,01,02,BC,F2,CA,AB,7F,
11825057,00000097,false,Rx,0,8,88,CB,7F,CF,45,03,00,00,
11835058,00000097,false,Rx,0,8,F8,CC,7F,CF,45,03,00,00,
11835294,00000124,false,Rx,0,8,6C,0D,98,4F,4A,15,00,5D,
11839333,00000566,false,Rx,0,8,6D,29,FE,25,6F,E8,15,00,
11845059,00000097,false,Rx,0,8,21,CD,7F,CF,45,03,00,00,
11855055,00000097,false,Rx,0,8,B7,CE,7F,CF,45,03,00,00,
11855291,00000124,false,Rx,0,8,AC,0E,98,4F,4A,15,00,5D,
11865048,00000097,false,Rx,0,8,F5,CF,7F,CF,45,03,00,00,
11865295,00000187,false,Rx,0,8,1C,8E,12,00,00,00,30,1E,
11865544,000003A6,false,Rx,0,8,8F,0F,41,00,04,01,00,00,
11865782,000003AF,false,Rx,0,8,71,6F,09,21,D8,B1,00,00,
11866020,00000489,false,Rx,0,8,00,0F,00,F4,25,CE,2F,00,
11875054,00000097,false,Rx,0,8,7D,C0,7F,CF,45,03,00,00,
11875290,00000124,false,Rx,0,8,41,0F,98,4F,4A,15,00,5D,
11885058,00000097,false,Rx,0,8,DB,C1,7F,CF,45,03,00,00,
11895055,00000097,false,Rx,0,8,1C,C2,7F,CF,45,03,00,00,
11895293,00000124,false,Rx,0,8,CE,00,98,4F,4A,15,00,5D,
11905060,00000097,false,Rx,0,8,06,C3,7F,CF,45,03,00,00,
11915048,00000097,false,Rx,0,8,38,C4,7F,CF,45,03,00,00,
11915285,00000124,false,Rx,0,8,D4,01,98,4F,4A,15,00,5D,
11924193,0000038B,false,Rx,0,8,FE,01,02,BC,F2,CA,AB,7F,
11925056,00000097,false,Rx,0,8,AC,C5,7F,CF,45,03,00,00,
11929421,1B000044,true,Rx,0,8,44,00,44,00,00,00,00,00,
11935054,00000097,false,Rx,0,8,1A,C6,7F,CF,45,03,00,00,
11935291,00000124,false,Rx,0,8,97,02,98,4F,4A,15,00,5D,
11939370,00000566,false,Rx,0,8,22,2A,FE,25,6F,E8,15,00,
11945054,00000097,false,Rx,0,8,90,C7,7F,CF,45,03,00,00,
11955050,00000097,false,Rx,0,8,72,C8,7F,CF,45,03,00,00,
11955287,00000124,false,Rx,0,8,DE,03,98,4F,4A,15,00,5D,
11965054,00000097,false,Rx,0,8,4F,C9,7F,CF,45,03,00,00,
11965301,00000187,false,Rx,0,8,00,8F,12,00,00,00,30,1F,
11965549,000003A6,false,Rx,0,8,4F,00,41,00,04,01,00,00,
11965787,000003AF,false,Rx,0,8,DA,60,09,21,D8,B1,00,00,
11966026,00000489,false,Rx,0,8,DC,00,00,F4,25,CE,2F,00,
11975060,00000097,false,Rx,0,8,97,CA,7F,CF,45,03,00,00,
11975297,00000124,false,Rx,0,8,61,04,98,4F,4A,15,00,5D,
11985054,00000097,false,Rx,0,8,88,CB,7F,CF,45,03,00,00,
11995050,00000097,false,Rx,0,8,F8,CC,7F,CF,45,03,00,00,
11995287,00000124,false,Rx,0,8,9C,05,98,4F,4A,15,00,5D,
12005055,00000097,false,Rx,0,8,21,CD,7F,CF,45,03,00,00,
12015051,00000097,false,Rx,0,8,B7,CE,7F,CF,45,03,00,00,
12015297,00000124,false,Rx,0,8,1F,06,98,4F,4A,15,00,5D,
12024235,0000038B,false,Rx,0,8,FE,01,09,BC,F2,CA,AB,7F,
12025048,00000097,false,Rx,0,8,F5,CF,7F,CF,45,03,00,00,
12035059,00000097,false,Rx,0,8,7D,C0,7F,CF,45,03,00,00,
12035294,00000124,false,Rx,0,8,63,07,98,4F,4A,15,00,5D,
12039405,00000566,false,Rx,0,8,AF,2B,FE,25,6F,E8,15,00,
12045049,00000097,false,Rx,0,8,DB,C1,7F,CF,45,03,00,00,
12055056,00000097,false,Rx,0,8,1C,C2,7F,CF,45,03,00,00,
12055291,00000124,false,Rx,0,8,58,08,98,4F,4A,15,00,5D,
12065059,00000187,false,Rx,0,8,5B,80,12,00,00,00,30,20,
12065315,000003A6,false,Rx,0,8,B2,01,41,00,04,01,00,00,
12065543,000003AF,false,Rx,0,8,D3,61,09,21,D8,B1,00,00,
12065782,00000489,false,Rx,0,8,55,01,00,F4,25,CE,2F,00,
12066031,000006A3,false,Rx,0,8,F7,EC,15,3E,6C,66,03,00,
12066270,000006A4,false,Rx,0,8,8E,0C,42,3F,43,03,00,00,
12066520,00000097,false,Rx,0,8,06,C3,7F,CF,45,03,00,00,
12075062,00000097,false,Rx,0,8,38,C4,7F,CF,45,03,00,00,
12075297,00000124,false,Rx,0,8,AA,09,98,4F,4A,15,00,5D,
12085056,00000097,false,Rx,0,8,AC,C5,7F,CF,45,03,00,00,
12095053,00000097,false,Rx,0,8,1A,C6,7F,CF,45,03,00,00,
12095288,00000124,false,Rx,0,8,D8,0A,98,4F,4A,15,00,5D,
12105046,00000097,false,Rx,0,8,90,C7,7F,CF,45,03,00,00,
12115055,00000097,false,Rx,0,8,72,C8,7F,CF,45,03,00,00,
12115290,00000124,false,Rx,0,8,F3,0B,98,4F,4A,15,00,5D,
12124272,0000038B,false,Rx,0,8,FE,01,09,BC,F2,CA,AB,7F,
12124558,12DD5472,true,Rx,0,8,00,00,00,00,00,00,00,00,
12124796,00000565,false,Rx,0,8,00,60,00,95,0C,08,80,FF,
12125035,00000594,false,Rx,0,8,00,00,00,00,02,32,30,09,
12125275,00000097,false,Rx,0,8,4F,C9,7F,CF,45,03,00,00,
12125564,17F00044,true,Rx,0,8,20,44,00,00,00,00,00,80,
12125803,0000067E,false,Rx,0,8,1E,27,16,00,7B,00,00,42,
